[HB] up_ms=4471 frames=188 inf=188 hazard=40 canary_err=0 q=0 qovr=0
[I2C] init=0 gate=0 whoami=0x140e0 wr=0 wrseen=0x27 addr=0x5a ok=1934 err=0 tmo=0 recov=0 pclk1=200000000 sysclk=400000000
[CLK] cpu=800000000 sysb=400000000 pclk1=200000000
[DRV] init=0 id=7 mode=0x1 lib=0x2 seq=0x1 odc=0x8b sts=0xe0 armed=1
[TRG] pulses=4 suppressed=36 cyc=1600 rst=1 rstmode=0x40
[HLT] polls=3 faults=0x0 cfglost=0
[EFF] n=4 last=58541 min=58541 max=58760 late=0 stuck=0
[DWT] ok=1 cyc=3457430238 cyc_per_ms=796514
[HB] up_ms=5516 frames=237 inf=237 hazard=40 canary_err=0 q=0 qovr=0
[I2C] init=0 gate=0 whoami=0x140e0 wr=0 wrseen=0x27 addr=0x5a ok=1936 err=0 tmo=0 recov=0 pclk1=200000000 sysclk=400000000
[CLK] cpu=800000000 sysb=400000000 pclk1=200000000
[DRV] init=0 id=7 mode=0x1 lib=0x2 seq=0x1 odc=0x8b sts=0xe0 armed=1
[TRG] pulses=4 suppressed=36 cyc=1600 rst=1 rstmode=0x40
[HLT] polls=4 faults=0x0 cfglost=0
[EFF] n=4 last=58541 min=58541 max=58760 late=0 stuck=0
[DWT] ok=1 cyc=4293430342 cyc_per_ms=800000
[HB] up_ms=6561 frames=287 inf=287 hazard=40 canary_err=0 q=0 qovr=0
[I2C] init=0 gate=0 whoami=0x140e0 wr=0 wrseen=0x27 addr=0x5a ok=1938 err=0 tmo=0 recov=0 pclk1=200000000 sysclk=400000000
[CLK] cpu=800000000 sysb=400000000 pclk1=200000000
[DRV] init=0 id=7 mode=0x1 lib=0x2 seq=0x1 odc=0x8b sts=0xe0 armed=1
[TRG] pulses=4 suppressed=36 cyc=1600 rst=1 rstmode=0x40
[HLT] polls=5 faults=0x0 cfglost=0
[EFF] n=4 last=58541 min=58541 max=58760 late=0 stuck=0
[DWT] ok=1 cyc=834462978 cyc_per_ms=799999
[HB] up_ms=7606 frames=337 inf=337 hazard=40 canary_err=0 q=0 qovr=0
[I2C] init=0 gate=0 whoami=0x140e0 wr=0 wrseen=0x27 addr=0x5a ok=1940 err=0 tmo=0 recov=0 pclk1=200000000 sysclk=400000000
[CLK] cpu=800000000 sysb=400000000 pclk1=200000000
[DRV] init=0 id=7 mode=0x1 lib=0x2 seq=0x1 odc=0x8b sts=0xe0 armed=1
[TRG] pulses=4 suppressed=36 cyc=1600 rst=1 rstmode=0x40
[HLT] polls=6 faults=0x0 cfglost=0
[EFF] n=4 last=58541 min=58541 max=58760 late=0 stuck=0
[DWT] ok=1 cyc=1670463006 cyc_per_ms=800000
[HB] up_ms=8651 frames=387 inf=387 hazard=40 canary_err=0 q=0 qovr=0
[I2C] init=0 gate=0 whoami=0x140e0 wr=0 wrseen=0x27 addr=0x5a ok=1942 err=0 tmo=0 recov=0 pclk1=200000000 sysclk=400000000
[CLK] cpu=800000000 sysb=400000000 pclk1=200000000
[DRV] init=0 id=7 mode=0x1 lib=0x2 seq=0x1 odc=0x8b sts=0xe0 armed=1
[TRG] pulses=4 suppressed=36 cyc=1600 rst=1 rstmode=0x40
[HLT] polls=7 faults=0x0 cfglost=0
[EFF] n=4 last=58541 min=58541 max=58760 late=0 stuck=0
[DWT] ok=1 cyc=2506462930 cyc_per_ms=799999
[HB] up_ms=9696 frames=436 inf=436 hazard=40 canary_err=0 q=0 qovr=0
[I2C] init=0 gate=0 whoami=0x140e0 wr=0 wrseen=0x27 addr=0x5a ok=1944 err=0 tmo=0 recov=0 pclk1=200000000 sysclk=400000000
[CLK] cpu=800000000 sysb=400000000 pclk1=200000000
[DRV] init=0 id=7 mode=0x1 lib=0x2 seq=0x1 odc=0x8b sts=0xe0 armed=1
[TRG] pulses=4 suppressed=36 cyc=1600 rst=1 rstmode=0x40
[HLT] polls=8 faults=0x0 cfglost=0
[EFF] n=4 last=58541 min=58541 max=58760 late=0 stuck=0
[DWT] ok=1 cyc=3342463026 cyc_per_ms=800000
[HB] up_ms=10741 frames=483 inf=483 hazard=80 canary_err=0 q=0 qovr=0
[I2C] init=0 gate=0 whoami=0x140e0 wr=0 wrseen=0x27 addr=0x5a ok=2465 err=0 tmo=0 recov=0 pclk1=200000000 sysclk=400000000
[CLK] cpu=800000000 sysb=400000000 pclk1=200000000
[DRV] init=0 id=7 mode=0x1 lib=0x2 seq=0x1 odc=0x8b sts=0xe0 armed=1
[TRG] pulses=8 suppressed=72 cyc=1600 rst=1 rstmode=0x40
[HLT] polls=9 faults=0x0 cfglost=0
[EFF] n=5 last=58539 min=58539 max=58760 late=0 stuck=0
[DWT] ok=1 cyc=4178532962 cyc_per_ms=800066
[HB] up_ms=11787 frames=533 inf=533 hazard=80 canary_err=0 q=0 qovr=0
[I2C] init=0 gate=0 whoami=0x140e0 wr=0 wrseen=0x27 addr=0x5a ok=2467 err=0 tmo=0 recov=0 pclk1=200000000 sysclk=400000000
[CLK] cpu=800000000 sysb=400000000 pclk1=200000000
[DRV] init=0 id=7 mode=0x1 lib=0x2 seq=0x1 odc=0x8b sts=0xe0 armed=1
[TRG] pulses=8 suppressed=72 cyc=1600 rst=1 rstmode=0x40
[HLT] polls=10 faults=0x0 cfglost=0
[EFF] n=5 last=58539 min=58539 max=58760 late=0 stuck=0
[DWT] ok=1 cyc=720435670 cyc_per_ms=800066
[HB] up_ms=12833 frames=583 inf=583 hazard=80 canary_err=0 q=0 qovr=0
[I2C] init=0 gate=0 whoami=0x140e0 wr=0 wrseen=0x27 addr=0x5a ok=2469 err=0 tmo=0 recov=0 pclk1=200000000 sysclk=400000000
[CLK] cpu=800000000 sysb=400000000 pclk1=200000000
[DRV] init=0 id=7 mode=0x1 lib=0x2 seq=0x1 odc=0x8b sts=0xe0 armed=1
[TRG] pulses=8 suppressed=72 cyc=1600 rst=1 rstmode=0x40
[HLT] polls=11 faults=0x0 cfglost=0
[EFF] n=5 last=58539 min=58539 max=58760 late=0 stuck=0
[DWT] ok=1 cyc=1557235634 cyc_per_ms=799999
[HB] up_ms=13879 frames=633 inf=633 hazard=80 canary_err=0 q=0 qovr=0
[I2C] init=0 gate=0 whoami=0x140e0 wr=0 wrseen=0x27 addr=0x5a ok=2471 err=0 tmo=0 recov=0 pclk1=200000000 sysclk=400000000
[CLK] cpu=800000000 sysb=400000000 pclk1=200000000
[DRV] init=0 id=7 mode=0x1 lib=0x2 seq=0x1 odc=0x8b sts=0xe0 armed=1
[TRG] pulses=8 suppressed=72 cyc=1600 rst=1 rstmode=0x40
[HLT] polls=12 faults=0x0 cfglost=0
[EFF] n=5 last=58539 min=58539 max=58760 late=0 stuck=0
[DWT] ok=1 cyc=2394035698 cyc_per_ms=800000
[HB] up_ms=14925 frames=683 inf=683 hazard=80 canary_err=0 q=0 qovr=0
[I2C] init=0 gate=0 whoami=0x140e0 wr=0 wrseen=0x27 addr=0x5a ok=2473 err=0 tmo=0 recov=0 pclk1=200000000 sysclk=400000000
[CLK] cpu=800000000 sysb=400000000 pclk1=200000000
[DRV] init=0 id=7 mode=0x1 lib=0x2 seq=0x1 odc=0x8b sts=0xe0 armed=1
[TRG] pulses=8 suppressed=72 cyc=1600 rst=1 rstmode=0x40
[HLT] polls=13 faults=0x0 cfglost=0
[EFF] n=5 last=58539 min=58539 max=58760 late=0 stuck=0
[DWT] ok=1 cyc=3230835662 cyc_per_ms=799999
[HB] up_ms=15971 frames=732 inf=732 hazard=80 canary_err=0 q=0 qovr=0
[I2C] init=0 gate=0 whoami=0x140e0 wr=0 wrseen=0x27 addr=0x5a ok=2475 err=0 tmo=0 recov=0 pclk1=200000000 sysclk=400000000
[CLK] cpu=800000000 sysb=400000000 pclk1=200000000
[DRV] init=0 id=7 mode=0x1 lib=0x2 seq=0x1 odc=0x8b sts=0xe0 armed=1
[TRG] pulses=8 suppressed=72 cyc=1600 rst=1 rstmode=0x40
[HLT] polls=14 faults=0x0 cfglost=0
[EFF] n=5 last=58539 min=58539 max=58760 late=0 stuck=0
[DWT] ok=1 cyc=4067635706 cyc_per_ms=800000
[HB] up_ms=17017 frames=782 inf=782 hazard=102 canary_err=0 q=0 qovr=0
[I2C] init=0 gate=0 whoami=0x140e0 wr=0 wrseen=0x27 addr=0x5a ok=2477 err=0 tmo=0 recov=0 pclk1=200000000 sysclk=400000000
[CLK] cpu=800000000 sysb=400000000 pclk1=200000000
[DRV] init=0 id=7 mode=0x1 lib=0x2 seq=0x1 odc=0x8b sts=0xe0 armed=1
[TRG] pulses=10 suppressed=94 cyc=1600 rst=1 rstmode=0x40
[HLT] polls=15 faults=0x0 cfglost=0
[EFF] n=5 last=58539 min=58539 max=58760 late=0 stuck=0
[DWT] ok=1 cyc=609610182 cyc_per_ms=800135
[HB] up_ms=18063 frames=832 inf=832 hazard=120 canary_err=0 q=0 qovr=0
[I2C] init=0 gate=0 whoami=0x140e0 wr=0 wrseen=0x27 addr=0x5a ok=2479 err=0 tmo=0 recov=0 pclk1=200000000 sysclk=400000000
[CLK] cpu=800000000 sysb=400000000 pclk1=200000000
[DRV] init=0 id=7 mode=0x1 lib=0x2 seq=0x1 odc=0x8b sts=0xe0 armed=1
[TRG] pulses=11 suppressed=109 cyc=1600 rst=1 rstmode=0x40
[HLT] polls=16 faults=0x0 cfglost=0
[EFF] n=5 last=58539 min=58539 max=58760 late=0 stuck=0
[DWT] ok=1 cyc=1446478354 cyc_per_ms=800065
[HB] up_ms=19109 frames=882 inf=882 hazard=120 canary_err=0 q=0 qovr=0
[I2C] init=0 gate=0 whoami=0x140e0 wr=0 wrseen=0x27 addr=0x5a ok=2481 err=0 tmo=0 recov=0 pclk1=200000000 sysclk=400000000
[CLK] cpu=800000000 sysb=400000000 pclk1=200000000
[DRV] init=0 id=7 mode=0x1 lib=0x2 seq=0x1 odc=0x8b sts=0xe0 armed=1
[TRG] pulses=11 suppressed=109 cyc=1600 rst=1 rstmode=0x40
[HLT] polls=17 faults=0x0 cfglost=0
[EFF] n=5 last=58539 min=58539 max=58760 late=0 stuck=0
[DWT] ok=1 cyc=2283278306 cyc_per_ms=799999
[HB] up_ms=20155 frames=932 inf=932 hazard=120 canary_err=0 q=0 qovr=0
[I2C] init=0 gate=0 whoami=0x140e0 wr=0 wrseen=0x27 addr=0x5a ok=2483 err=0 tmo=0 recov=0 pclk1=200000000 sysclk=400000000
[CLK] cpu=800000000 sysb=400000000 pclk1=200000000
[DRV] init=0 id=7 mode=0x1 lib=0x2 seq=0x1 odc=0x8b sts=0xe0 armed=1
[TRG] pulses=11 suppressed=109 cyc=1600 rst=1 rstmode=0x40
[HLT] polls=18 faults=0x0 cfglost=0
[EFF] n=5 last=58539 min=58539 max=58760 late=0 stuck=0
[DWT] ok=1 cyc=3120078278 cyc_per_ms=799999
[HB] up_ms=21201 frames=982 inf=982 hazard=120 canary_err=0 q=0 qovr=0
[I2C] init=0 gate=0 whoami=0x140e0 wr=0 wrseen=0x27 addr=0x5a ok=2485 err=0 tmo=0 recov=0 pclk1=200000000 sysclk=400000000
[CLK] cpu=800000000 sysb=400000000 pclk1=200000000
[DRV] init=0 id=7 mode=0x1 lib=0x2 seq=0x1 odc=0x8b sts=0xe0 armed=1
[TRG] pulses=11 suppressed=109 cyc=1600 rst=1 rstmode=0x40
[HLT] polls=19 faults=0x0 cfglost=0
[EFF] n=5 last=58539 min=58539 max=58760 late=0 stuck=0
[DWT] ok=1 cyc=3956877666 cyc_per_ms=799999
[HB] up_ms=22247 frames=1031 inf=1031 hazard=120 canary_err=0 q=0 qovr=0
[I2C] init=0 gate=0 whoami=0x140e0 wr=0 wrseen=0x27 addr=0x5a ok=2487 err=0 tmo=0 recov=0 pclk1=200000000 sysclk=400000000
[CLK] cpu=800000000 sysb=400000000 pclk1=200000000
[DRV] init=0 id=7 mode=0x1 lib=0x2 seq=0x1 odc=0x8b sts=0xe0 armed=1
[TRG] pulses=11 suppressed=109 cyc=1600 rst=1 rstmode=0x40
[HLT] polls=20 faults=0x0 cfglost=0
[EFF] n=5 last=58539 min=58539 max=58760 late=0 stuck=0
[DWT] ok=1 cyc=498850966 cyc_per_ms=800134
[HB] up_ms=23293 frames=1081 inf=1081 hazard=121 canary_err=0 q=0 qovr=0
[I2C] init=0 gate=0 whoami=0x140e0 wr=0 wrseen=0x27 addr=0x5a ok=2489 err=0 tmo=0 recov=0 pclk1=200000000 sysclk=400000000
[CLK] cpu=800000000 sysb=400000000 pclk1=200000000
[DRV] init=0 id=7 mode=0x1 lib=0x2 seq=0x1 odc=0x8b sts=0xe0 armed=1
[TRG] pulses=12 suppressed=110 cyc=1600 rst=1 rstmode=0x40
[HLT] polls=21 faults=0x0 cfglost=0
[EFF] n=5 last=58539 min=58539 max=58760 late=0 stuck=0
[DWT] ok=1 cyc=1335652846 cyc_per_ms=800001
[HB] up_ms=24339 frames=1131 inf=1131 hazard=160 canary_err=0 q=0 qovr=0
[I2C] init=0 gate=0 whoami=0x140e0 wr=0 wrseen=0x27 addr=0x5a ok=2491 err=0 tmo=0 recov=0 pclk1=200000000 sysclk=400000000
[CLK] cpu=800000000 sysb=400000000 pclk1=200000000
[DRV] init=0 id=7 mode=0x1 lib=0x2 seq=0x1 odc=0x8b sts=0xe0 armed=1
[TRG] pulses=14 suppressed=146 cyc=1600 rst=1 rstmode=0x40
[HLT] polls=22 faults=0x0 cfglost=0
[EFF] n=5 last=58539 min=58539 max=58760 late=0 stuck=0
[DWT] ok=1 cyc=2172450978 cyc_per_ms=799998
[HB] up_ms=25385 frames=1181 inf=1181 hazard=160 canary_err=0 q=0 qovr=0
[I2C] init=0 gate=0 whoami=0x140e0 wr=0 wrseen=0x27 addr=0x5a ok=2493 err=0 tmo=0 recov=0 pclk1=200000000 sysclk=400000000
[CLK] cpu=800000000 sysb=400000000 pclk1=200000000
[DRV] init=0 id=7 mode=0x1 lib=0x2 seq=0x1 odc=0x8b sts=0xe0 armed=1
[TRG] pulses=14 suppressed=146 cyc=1600 rst=1 rstmode=0x40
[HLT] polls=23 faults=0x0 cfglost=0
[EFF] n=5 last=58539 min=58539 max=58760 late=0 stuck=0
[DWT] ok=1 cyc=3009251034 cyc_per_ms=800000
[HB] up_ms=26431 frames=1231 inf=1231 hazard=160 canary_err=0 q=0 qovr=0
[I2C] init=0 gate=0 whoami=0x140e0 wr=0 wrseen=0x27 addr=0x5a ok=2495 err=0 tmo=0 recov=0 pclk1=200000000 sysclk=400000000
[CLK] cpu=800000000 sysb=400000000 pclk1=200000000
[DRV] init=0 id=7 mode=0x1 lib=0x2 seq=0x1 odc=0x8b sts=0xe0 armed=1
[TRG] pulses=14 suppressed=146 cyc=1600 rst=1 rstmode=0x40
[HLT] polls=24 faults=0x0 cfglost=0
[EFF] n=5 last=58539 min=58539 max=58760 late=0 stuck=0
[DWT] ok=1 cyc=3846050974 cyc_per_ms=799999
[HB] up_ms=27477 frames=1280 inf=1280 hazard=160 canary_err=0 q=0 qovr=0
[I2C] init=0 gate=0 whoami=0x140e0 wr=0 wrseen=0x27 addr=0x5a ok=2497 err=0 tmo=0 recov=0 pclk1=200000000 sysclk=400000000
[CLK] cpu=800000000 sysb=400000000 pclk1=200000000
[DRV] init=0 id=7 mode=0x1 lib=0x2 seq=0x1 odc=0x8b sts=0xe0 armed=1
[TRG] pulses=14 suppressed=146 cyc=1600 rst=1 rstmode=0x40
[HLT] polls=25 faults=0x0 cfglost=0
[EFF] n=5 last=58539 min=58539 max=58760 late=0 stuck=0
[DWT] ok=1 cyc=387883674 cyc_per_ms=799999
[HB] up_ms=28523 frames=1330 inf=1330 hazard=160 canary_err=0 q=0 qovr=0
[I2C] init=0 gate=0 whoami=0x140e0 wr=0 wrseen=0x27 addr=0x5a ok=2499 err=0 tmo=0 recov=0 pclk1=200000000 sysclk=400000000
[CLK] cpu=800000000 sysb=400000000 pclk1=200000000
[DRV] init=0 id=7 mode=0x1 lib=0x2 seq=0x1 odc=0x8b sts=0xe0 armed=1
[TRG] pulses=14 suppressed=146 cyc=1600 rst=1 rstmode=0x40
[HLT] polls=26 faults=0x0 cfglost=0
[EFF] n=5 last=58539 min=58539 max=58760 late=0 stuck=0
[DWT] ok=1 cyc=1224683758 cyc_per_ms=800000
[HB] up_ms=29569 frames=1380 inf=1380 hazard=160 canary_err=0 q=0 qovr=0
[I2C] init=0 gate=0 whoami=0x140e0 wr=0 wrseen=0x27 addr=0x5a ok=2501 err=0 tmo=0 recov=0 pclk1=200000000 sysclk=400000000
[CLK] cpu=800000000 sysb=400000000 pclk1=200000000
[DRV] init=0 id=7 mode=0x1 lib=0x2 seq=0x1 odc=0x8b sts=0xe0 armed=1
[TRG] pulses=14 suppressed=146 cyc=1600 rst=1 rstmode=0x40
[HLT] polls=27 faults=0x0 cfglost=0
[EFF] n=5 last=58539 min=58539 max=58760 late=0 stuck=0
[DWT] ok=1 cyc=2061483698 cyc_per_ms=799999
[HB] up_ms=30615 frames=1430 inf=1430 hazard=190 canary_err=0 q=0 qovr=0
[I2C] init=0 gate=0 whoami=0x140e0 wr=0 wrseen=0x27 addr=0x5a ok=2503 err=0 tmo=0 recov=0 pclk1=200000000 sysclk=400000000
[CLK] cpu=800000000 sysb=400000000 pclk1=200000000
[DRV] init=0 id=7 mode=0x1 lib=0x2 seq=0x1 odc=0x8b sts=0xe0 armed=1
[TRG] pulses=17 suppressed=174 cyc=1600 rst=1 rstmode=0x40
[HLT] polls=28 faults=0x0 cfglost=0
[EFF] n=5 last=58539 min=58539 max=58760 late=0 stuck=0
[DWT] ok=1 cyc=2898285554 cyc_per_ms=800001
[HB] up_ms=31661 frames=1480 inf=1480 hazard=200 canary_err=0 q=0 qovr=0
[I2C] init=0 gate=0 whoami=0x140e0 wr=0 wrseen=0x27 addr=0x5a ok=2505 err=0 tmo=0 recov=0 pclk1=200000000 sysclk=400000000
[CLK] cpu=800000000 sysb=400000000 pclk1=200000000
[DRV] init=0 id=7 mode=0x1 lib=0x2 seq=0x1 odc=0x8b sts=0xe0 armed=1
[TRG] pulses=17 suppressed=183 cyc=1600 rst=1 rstmode=0x40
[HLT] polls=29 faults=0x0 cfglost=0
[EFF] n=5 last=58539 min=58539 max=58760 late=0 stuck=0
[DWT] ok=1 cyc=3735083722 cyc_per_ms=799998
[HB] up_ms=32707 frames=1529 inf=1529 hazard=200 canary_err=0 q=0 qovr=0
[I2C] init=0 gate=0 whoami=0x140e0 wr=0 wrseen=0x27 addr=0x5a ok=2507 err=0 tmo=0 recov=0 pclk1=200000000 sysclk=400000000
[CLK] cpu=800000000 sysb=400000000 pclk1=200000000
[DRV] init=0 id=7 mode=0x1 lib=0x2 seq=0x1 odc=0x8b sts=0xe0 armed=1
[TRG] pulses=17 suppressed=183 cyc=1600 rst=1 rstmode=0x40
[HLT] polls=30 faults=0x0 cfglost=0
[EFF] n=5 last=58539 min=58539 max=58760 late=0 stuck=0
[DWT] ok=1 cyc=276916418 cyc_per_ms=799999
[HB] up_ms=33753 frames=1579 inf=1579 hazard=200 canary_err=0 q=0 qovr=0
[I2C] init=0 gate=0 whoami=0x140e0 wr=0 wrseen=0x27 addr=0x5a ok=2509 err=0 tmo=0 recov=0 pclk1=200000000 sysclk=400000000
[CLK] cpu=800000000 sysb=400000000 pclk1=200000000
[DRV] init=0 id=7 mode=0x1 lib=0x2 seq=0x1 odc=0x8b sts=0xe0 armed=1
[TRG] pulses=17 suppressed=183 cyc=1600 rst=1 rstmode=0x40
[HLT] polls=31 faults=0x0 cfglost=0
[EFF] n=5 last=58539 min=58539 max=58760 late=0 stuck=0
[DWT] ok=1 cyc=1113716410 cyc_per_ms=799999
[HB] up_ms=34799 frames=1629 inf=1629 hazard=200 canary_err=0 q=0 qovr=0
[I2C] init=0 gate=0 whoami=0x140e0 wr=0 wrseen=0x27 addr=0x5a ok=2511 err=0 tmo=0 recov=0 pclk1=200000000 sysclk=400000000
[CLK] cpu=800000000 sysb=400000000 pclk1=200000000
[DRV] init=0 id=7 mode=0x1 lib=0x2 seq=0x1 odc=0x8b sts=0xe0 armed=1
[TRG] pulses=17 suppressed=183 cyc=1600 rst=1 rstmode=0x40
[HLT] polls=32 faults=0x0 cfglost=0
[EFF] n=5 last=58539 min=58539 max=58760 late=0 stuck=0
[DWT] ok=1 cyc=1950516462 cyc_per_ms=800000
[HB] up_ms=35845 frames=1679 inf=1679 hazard=200 canary_err=0 q=0 qovr=0
[I2C] init=0 gate=0 whoami=0x140e0 wr=0 wrseen=0x27 addr=0x5a ok=2513 err=0 tmo=0 recov=0 pclk1=200000000 sysclk=400000000
[CLK] cpu=800000000 sysb=400000000 pclk1=200000000
[DRV] init=0 id=7 mode=0x1 lib=0x2 seq=0x1 odc=0x8b sts=0xe0 armed=1
[TRG] pulses=17 suppressed=183 cyc=1600 rst=1 rstmode=0x40
[HLT] polls=33 faults=0x0 cfglost=0
[EFF] n=5 last=58539 min=58539 max=58760 late=0 stuck=0
[DWT] ok=1 cyc=2787316410 cyc_per_ms=799999
[HB] up_ms=36891 frames=1729 inf=1729 hazard=209 canary_err=0 q=0 qovr=0
[I2C] init=0 gate=0 whoami=0x140e0 wr=0 wrseen=0x27 addr=0x5a ok=2515 err=0 tmo=0 recov=0 pclk1=200000000 sysclk=400000000
[CLK] cpu=800000000 sysb=400000000 pclk1=200000000
[DRV] init=0 id=7 mode=0x1 lib=0x2 seq=0x1 odc=0x8b sts=0xe0 armed=1
[TRG] pulses=18 suppressed=192 cyc=1600 rst=1 rstmode=0x40
[HLT] polls=34 faults=0x0 cfglost=0
[EFF] n=5 last=58539 min=58539 max=58760 late=0 stuck=0
[DWT] ok=1 cyc=3624118274 cyc_per_ms=800001
[HB] up_ms=37937 frames=1778 inf=1778 hazard=240 canary_err=0 q=0 qovr=0
[I2C] init=0 gate=0 whoami=0x140e0 wr=0 wrseen=0x27 addr=0x5a ok=2517 err=0 tmo=0 recov=0 pclk1=200000000 sysclk=400000000
[CLK] cpu=800000000 sysb=400000000 pclk1=200000000
[DRV] init=0 id=7 mode=0x1 lib=0x2 seq=0x1 odc=0x8b sts=0xe0 armed=1
[TRG] pulses=20 suppressed=220 cyc=1600 rst=1 rstmode=0x40
[HLT] polls=35 faults=0x0 cfglost=0
[EFF] n=5 last=58539 min=58539 max=58760 late=0 stuck=0
[DWT] ok=1 cyc=165949166 cyc_per_ms=799998
[HB] up_ms=38983 frames=1828 inf=1828 hazard=240 canary_err=0 q=0 qovr=0
[I2C] init=0 gate=0 whoami=0x140e0 wr=0 wrseen=0x27 addr=0x5a ok=2519 err=0 tmo=0 recov=0 pclk1=200000000 sysclk=400000000
[CLK] cpu=800000000 sysb=400000000 pclk1=200000000
[DRV] init=0 id=7 mode=0x1 lib=0x2 seq=0x1 odc=0x8b sts=0xe0 armed=1
[TRG] pulses=20 suppressed=220 cyc=1600 rst=1 rstmode=0x40
[HLT] polls=36 faults=0x0 cfglost=0
[EFF] n=5 last=58539 min=58539 max=58760 late=0 stuck=0
[DWT] ok=1 cyc=1002749142 cyc_per_ms=799999
[HB] up_ms=40029 frames=1878 inf=1878 hazard=240 canary_err=0 q=0 qovr=0
[I2C] init=0 gate=0 whoami=0x140e0 wr=0 wrseen=0x27 addr=0x5a ok=2521 err=0 tmo=0 recov=0 pclk1=200000000 sysclk=400000000
[CLK] cpu=800000000 sysb=400000000 pclk1=200000000
[DRV] init=0 id=7 mode=0x1 lib=0x2 seq=0x1 odc=0x8b sts=0xe0 armed=1
[TRG] pulses=20 suppressed=220 cyc=1600 rst=1 rstmode=0x40
[HLT] polls=37 faults=0x0 cfglost=0
[EFF] n=5 last=58539 min=58539 max=58760 late=0 stuck=0
[DWT] ok=1 cyc=1839549094 cyc_per_ms=799999
[HB] up_ms=41075 frames=1928 inf=1928 hazard=240 canary_err=0 q=0 qovr=0
[I2C] init=0 gate=0 whoami=0x140e0 wr=0 wrseen=0x27 addr=0x5a ok=2523 err=0 tmo=0 recov=0 pclk1=200000000 sysclk=400000000
[CLK] cpu=800000000 sysb=400000000 pclk1=200000000
[DRV] init=0 id=7 mode=0x1 lib=0x2 seq=0x1 odc=0x8b sts=0xe0 armed=1
[TRG] pulses=20 suppressed=220 cyc=1600 rst=1 rstmode=0x40
[HLT] polls=38 faults=0x0 cfglost=0
[EFF] n=5 last=58539 min=58539 max=58760 late=0 stuck=0
[DWT] ok=1 cyc=2676349142 cyc_per_ms=800000
[HB] up_ms=42121 frames=1978 inf=1978 hazard=240 canary_err=0 q=0 qovr=0
[I2C] init=0 gate=0 whoami=0x140e0 wr=0 wrseen=0x27 addr=0x5a ok=2525 err=0 tmo=0 recov=0 pclk1=200000000 sysclk=400000000
[CLK] cpu=800000000 sysb=400000000 pclk1=200000000
[DRV] init=0 id=7 mode=0x1 lib=0x2 seq=0x1 odc=0x8b sts=0xe0 armed=1
[TRG] pulses=20 suppressed=220 cyc=1600 rst=1 rstmode=0x40
[HLT] polls=39 faults=0x0 cfglost=0
[EFF] n=5 last=58539 min=58539 max=58760 late=0 stuck=0
[DWT] ok=1 cyc=3513149098 cyc_per_ms=799999
[HB] up_ms=43167 frames=2028 inf=2028 hazard=240 canary_err=0 q=0 qovr=0
[I2C] init=0 gate=0 whoami=0x140e0 wr=0 wrseen=0x27 addr=0x5a ok=2527 err=0 tmo=0 recov=0 pclk1=200000000 sysclk=400000000
[CLK] cpu=800000000 sysb=400000000 pclk1=200000000
[DRV] init=0 id=7 mode=0x1 lib=0x2 seq=0x1 odc=0x8b sts=0xe0 armed=1
[TRG] pulses=20 suppressed=220 cyc=1600 rst=1 rstmode=0x40
[HLT] polls=40 faults=0x0 cfglost=0
[EFF] n=5 last=58539 min=58539 max=58760 late=0 stuck=0
[DWT] ok=1 cyc=54981078 cyc_per_ms=799999
[HB] up_ms=44213 frames=2077 inf=2077 hazard=277 canary_err=0 q=0 qovr=0
[I2C] init=0 gate=0 whoami=0x140e0 wr=0 wrseen=0x27 addr=0x5a ok=2529 err=0 tmo=0 recov=0 pclk1=200000000 sysclk=400000000
[CLK] cpu=800000000 sysb=400000000 pclk1=200000000
[DRV] init=0 id=7 mode=0x1 lib=0x2 seq=0x1 odc=0x8b sts=0xe0 armed=1
[TRG] pulses=23 suppressed=256 cyc=1600 rst=1 rstmode=0x40
[HLT] polls=41 faults=0x0 cfglost=0
[EFF] n=5 last=58539 min=58539 max=58760 late=0 stuck=0
[DWT] ok=1 cyc=891783594 cyc_per_ms=800002
[HB] up_ms=45259 frames=2127 inf=2127 hazard=280 canary_err=0 q=0 qovr=0
[I2C] init=0 gate=0 whoami=0x140e0 wr=0 wrseen=0x27 addr=0x5a ok=2531 err=0 tmo=0 recov=0 pclk1=200000000 sysclk=400000000
[CLK] cpu=800000000 sysb=400000000 pclk1=200000000
[DRV] init=0 id=7 mode=0x1 lib=0x2 seq=0x1 odc=0x8b sts=0xe0 armed=1
[TRG] pulses=23 suppressed=257 cyc=1600 rst=1 rstmode=0x40
[HLT] polls=42 faults=0x0 cfglost=0
[EFF] n=5 last=58539 min=58539 max=58760 late=0 stuck=0
[DWT] ok=1 cyc=1728581838 cyc_per_ms=799998
[HB] up_ms=46305 frames=2177 inf=2177 hazard=280 canary_err=0 q=0 qovr=0
[I2C] init=0 gate=0 whoami=0x140e0 wr=0 wrseen=0x27 addr=0x5a ok=2533 err=0 tmo=0 recov=0 pclk1=200000000 sysclk=400000000
[CLK] cpu=800000000 sysb=400000000 pclk1=200000000
[DRV] init=0 id=7 mode=0x1 lib=0x2 seq=0x1 odc=0x8b sts=0xe0 armed=1
[TRG] pulses=23 suppressed=257 cyc=1600 rst=1 rstmode=0x40
[HLT] polls=43 faults=0x0 cfglost=0
[EFF] n=5 last=58539 min=58539 max=58760 late=0 stuck=0
[DWT] ok=1 cyc=2565381778 cyc_per_ms=799999
[HB] up_ms=47351 frames=2227 inf=2227 hazard=280 canary_err=0 q=0 qovr=0
[I2C] init=0 gate=0 whoami=0x140e0 wr=0 wrseen=0x27 addr=0x5a ok=2535 err=0 tmo=0 recov=0 pclk1=200000000 sysclk=400000000
[CLK] cpu=800000000 sysb=400000000 pclk1=200000000
[DRV] init=0 id=7 mode=0x1 lib=0x2 seq=0x1 odc=0x8b sts=0xe0 armed=1
[TRG] pulses=23 suppressed=257 cyc=1600 rst=1 rstmode=0x40
[HLT] polls=44 faults=0x0 cfglost=0
[EFF] n=5 last=58539 min=58539 max=58760 late=0 stuck=0
[DWT] ok=1 cyc=3402181830 cyc_per_ms=800000
[HB] up_ms=48397 frames=2277 inf=2277 hazard=280 canary_err=0 q=0 qovr=0
[I2C] init=0 gate=0 whoami=0x140e0 wr=0 wrseen=0x27 addr=0x5a ok=2537 err=0 tmo=0 recov=0 pclk1=200000000 sysclk=400000000
[CLK] cpu=800000000 sysb=400000000 pclk1=200000000
[DRV] init=0 id=7 mode=0x1 lib=0x2 seq=0x1 odc=0x8b sts=0xe0 armed=1
[TRG] pulses=23 suppressed=257 cyc=1600 rst=1 rstmode=0x40
[HLT] polls=45 faults=0x0 cfglost=0
[EFF] n=5 last=58539 min=58539 max=58760 late=0 stuck=0
[DWT] ok=1 cyc=4238981778 cyc_per_ms=799999
[HB] up_ms=49443 frames=2326 inf=2326 hazard=280 canary_err=0 q=0 qovr=0
[I2C] init=0 gate=0 whoami=0x140e0 wr=0 wrseen=0x27 addr=0x5a ok=2539 err=0 tmo=0 recov=0 pclk1=200000000 sysclk=400000000
[CLK] cpu=800000000 sysb=400000000 pclk1=200000000
[DRV] init=0 id=7 mode=0x1 lib=0x2 seq=0x1 odc=0x8b sts=0xe0 armed=1
[TRG] pulses=23 suppressed=257 cyc=1600 rst=1 rstmode=0x40
[HLT] polls=46 faults=0x0 cfglost=0
[EFF] n=5 last=58539 min=58539 max=58760 late=0 stuck=0
[DWT] ok=1 cyc=780814474 cyc_per_ms=799999
[HB] up_ms=50489 frames=2376 inf=2376 hazard=296 canary_err=0 q=0 qovr=0
[I2C] init=0 gate=0 whoami=0x140e0 wr=0 wrseen=0x27 addr=0x5a ok=2541 err=0 tmo=0 recov=0 pclk1=200000000 sysclk=400000000
[CLK] cpu=800000000 sysb=400000000 pclk1=200000000
[DRV] init=0 id=7 mode=0x1 lib=0x2 seq=0x1 odc=0x8b sts=0xe0 armed=1
[TRG] pulses=25 suppressed=273 cyc=1600 rst=1 rstmode=0x40
[HLT] polls=47 faults=0x0 cfglost=0
[EFF] n=5 last=58539 min=58539 max=58760 late=0 stuck=0
[DWT] ok=1 cyc=1617616310 cyc_per_ms=800001
[HB] up_ms=51535 frames=2426 inf=2426 hazard=320 canary_err=0 q=0 qovr=0
[I2C] init=0 gate=0 whoami=0x140e0 wr=0 wrseen=0x27 addr=0x5a ok=2543 err=0 tmo=0 recov=0 pclk1=200000000 sysclk=400000000
[CLK] cpu=800000000 sysb=400000000 pclk1=200000000
[DRV] init=0 id=7 mode=0x1 lib=0x2 seq=0x1 odc=0x8b sts=0xe0 armed=1
[TRG] pulses=26 suppressed=294 cyc=1600 rst=1 rstmode=0x40
[HLT] polls=48 faults=0x0 cfglost=0
[EFF] n=5 last=58539 min=58539 max=58760 late=0 stuck=0
[DWT] ok=1 cyc=2454414534 cyc_per_ms=799998
[HB] up_ms=52581 frames=2476 inf=2476 hazard=320 canary_err=0 q=0 qovr=0
[I2C] init=0 gate=0 whoami=0x140e0 wr=0 wrseen=0x27 addr=0x5a ok=2545 err=0 tmo=0 recov=0 pclk1=200000000 sysclk=400000000
[CLK] cpu=800000000 sysb=400000000 pclk1=200000000
[DRV] init=0 id=7 mode=0x1 lib=0x2 seq=0x1 odc=0x8b sts=0xe0 armed=1
[TRG] pulses=26 suppressed=294 cyc=1600 rst=1 rstmode=0x40
[HLT] polls=49 faults=0x0 cfglost=0
[EFF] n=5 last=58539 min=58539 max=58760 late=0 stuck=0
[DWT] ok=1 cyc=3291214490 cyc_per_ms=799999
[HB] up_ms=53627 frames=2526 inf=2526 hazard=320 canary_err=0 q=0 qovr=0
[I2C] init=0 gate=0 whoami=0x140e0 wr=0 wrseen=0x27 addr=0x5a ok=2547 err=0 tmo=0 recov=0 pclk1=200000000 sysclk=400000000
[CLK] cpu=800000000 sysb=400000000 pclk1=200000000
[DRV] init=0 id=7 mode=0x1 lib=0x2 seq=0x1 odc=0x8b sts=0xe0 armed=1
[TRG] pulses=26 suppressed=294 cyc=1600 rst=1 rstmode=0x40
[HLT] polls=50 faults=0x0 cfglost=0
[EFF] n=5 last=58539 min=58539 max=58760 late=0 stuck=0
[DWT] ok=1 cyc=4128014550 cyc_per_ms=800000
[HB] up_ms=54673 frames=2575 inf=2575 hazard=320 canary_err=0 q=0 qovr=0
[I2C] init=0 gate=0 whoami=0x140e0 wr=0 wrseen=0x27 addr=0x5a ok=2549 err=0 tmo=0 recov=0 pclk1=200000000 sysclk=400000000
[CLK] cpu=800000000 sysb=400000000 pclk1=200000000
[DRV] init=0 id=7 mode=0x1 lib=0x2 seq=0x1 odc=0x8b sts=0xe0 armed=1
[TRG] pulses=26 suppressed=294 cyc=1600 rst=1 rstmode=0x40
[HLT] polls=51 faults=0x0 cfglost=0
[EFF] n=5 last=58539 min=58539 max=58760 late=0 stuck=0
[DWT] ok=1 cyc=669847238 cyc_per_ms=799999
[HB] up_ms=55719 frames=2625 inf=2625 hazard=320 canary_err=0 q=0 qovr=0
[I2C] init=0 gate=0 whoami=0x140e0 wr=0 wrseen=0x27 addr=0x5a ok=2551 err=0 tmo=0 recov=0 pclk1=200000000 sysclk=400000000
[CLK] cpu=800000000 sysb=400000000 pclk1=200000000
[DRV] init=0 id=7 mode=0x1 lib=0x2 seq=0x1 odc=0x8b sts=0xe0 armed=1
[TRG] pulses=26 suppressed=294 cyc=1600 rst=1 rstmode=0x40
[HLT] polls=52 faults=0x0 cfglost=0
[EFF] n=5 last=58539 min=58539 max=58760 late=0 stuck=0
[DWT] ok=1 cyc=1506647226 cyc_per_ms=799999
[HB] up_ms=56765 frames=2675 inf=2675 hazard=320 canary_err=0 q=0 qovr=0
[I2C] init=0 gate=0 whoami=0x140e0 wr=0 wrseen=0x27 addr=0x5a ok=2553 err=0 tmo=0 recov=0 pclk1=200000000 sysclk=400000000
[CLK] cpu=800000000 sysb=400000000 pclk1=200000000
[DRV] init=0 id=7 mode=0x1 lib=0x2 seq=0x1 odc=0x8b sts=0xe0 armed=1
[TRG] pulses=26 suppressed=294 cyc=1600 rst=1 rstmode=0x40
[HLT] polls=53 faults=0x0 cfglost=0
[EFF] n=5 last=58539 min=58539 max=58760 late=0 stuck=0
[DWT] ok=1 cyc=2343447278 cyc_per_ms=800000
[HB] up_ms=57811 frames=2725 inf=2725 hazard=360 canary_err=0 q=0 qovr=0
[I2C] init=0 gate=0 whoami=0x140e0 wr=0 wrseen=0x27 addr=0x5a ok=2555 err=0 tmo=0 recov=0 pclk1=200000000 sysclk=400000000
[CLK] cpu=800000000 sysb=400000000 pclk1=200000000
[DRV] init=0 id=7 mode=0x1 lib=0x2 seq=0x1 odc=0x8b sts=0xe0 armed=1
[TRG] pulses=29 suppressed=331 cyc=1600 rst=1 rstmode=0x40
[HLT] polls=54 faults=0x0 cfglost=0
[EFF] n=5 last=58539 min=58539 max=58760 late=0 stuck=0
[DWT] ok=1 cyc=3180247254 cyc_per_ms=799999
[HB] up_ms=58857 frames=2775 inf=2775 hazard=360 canary_err=0 q=0 qovr=0
[I2C] init=0 gate=0 whoami=0x140e0 wr=0 wrseen=0x27 addr=0x5a ok=2557 err=0 tmo=0 recov=0 pclk1=200000000 sysclk=400000000
[CLK] cpu=800000000 sysb=400000000 pclk1=200000000
[DRV] init=0 id=7 mode=0x1 lib=0x2 seq=0x1 odc=0x8b sts=0xe0 armed=1
[TRG] pulses=29 suppressed=331 cyc=1600 rst=1 rstmode=0x40
[HLT] polls=55 faults=0x0 cfglost=0
[EFF] n=5 last=58539 min=58539 max=58760 late=0 stuck=0
[DWT] ok=1 cyc=4017047210 cyc_per_ms=799999
[HB] up_ms=59903 frames=2824 inf=2824 hazard=360 canary_err=0 q=0 qovr=0
[I2C] init=0 gate=0 whoami=0x140e0 wr=0 wrseen=0x27 addr=0x5a ok=2559 err=0 tmo=0 recov=0 pclk1=200000000 sysclk=400000000
[CLK] cpu=800000000 sysb=400000000 pclk1=200000000
[DRV] init=0 id=7 mode=0x1 lib=0x2 seq=0x1 odc=0x8b sts=0xe0 armed=1
[TRG] pulses=29 suppressed=331 cyc=1600 rst=1 rstmode=0x40
[HLT] polls=56 faults=0x0 cfglost=0
[EFF] n=5 last=58539 min=58539 max=58760 late=0 stuck=0
[DWT] ok=1 cyc=558879898 cyc_per_ms=799999
[HB] up_ms=60949 frames=2874 inf=2874 hazard=360 canary_err=0 q=0 qovr=0
[I2C] init=0 gate=0 whoami=0x140e0 wr=0 wrseen=0x27 addr=0x5a ok=2561 err=0 tmo=0 recov=0 pclk1=200000000 sysclk=400000000
[CLK] cpu=800000000 sysb=400000000 pclk1=200000000
[DRV] init=0 id=7 mode=0x1 lib=0x2 seq=0x1 odc=0x8b sts=0xe0 armed=1
[TRG] pulses=29 suppressed=331 cyc=1600 rst=1 rstmode=0x40
[HLT] polls=57 faults=0x0 cfglost=0
[EFF] n=5 last=58539 min=58539 max=58760 late=0 stuck=0
[DWT] ok=1 cyc=1395679882 cyc_per_ms=799999
[HB] up_ms=61995 frames=2924 inf=2924 hazard=360 canary_err=0 q=0 qovr=0
[I2C] init=0 gate=0 whoami=0x140e0 wr=0 wrseen=0x27 addr=0x5a ok=2563 err=0 tmo=0 recov=0 pclk1=200000000 sysclk=400000000
[CLK] cpu=800000000 sysb=400000000 pclk1=200000000
[DRV] init=0 id=7 mode=0x1 lib=0x2 seq=0x1 odc=0x8b sts=0xe0 armed=1
[TRG] pulses=29 suppressed=331 cyc=1600 rst=1 rstmode=0x40
[HLT] polls=58 faults=0x0 cfglost=0
[EFF] n=5 last=58539 min=58539 max=58760 late=0 stuck=0
[DWT] ok=1 cyc=2232479934 cyc_per_ms=800000
[HB] up_ms=63041 frames=2974 inf=2974 hazard=360 canary_err=0 q=0 qovr=0
[I2C] init=0 gate=0 whoami=0x140e0 wr=0 wrseen=0x27 addr=0x5a ok=2565 err=0 tmo=0 recov=0 pclk1=200000000 sysclk=400000000
[CLK] cpu=800000000 sysb=400000000 pclk1=200000000
[DRV] init=0 id=7 mode=0x1 lib=0x2 seq=0x1 odc=0x8b sts=0xe0 armed=1
[TRG] pulses=29 suppressed=331 cyc=1600 rst=1 rstmode=0x40
[HLT] polls=59 faults=0x0 cfglost=0
[EFF] n=5 last=58539 min=58539 max=58760 late=0 stuck=0
[DWT] ok=1 cyc=3069279882 cyc_per_ms=799999
[HB] up_ms=64087 frames=3024 inf=3024 hazard=384 canary_err=0 q=0 qovr=0
[I2C] init=0 gate=0 whoami=0x140e0 wr=0 wrseen=0x27 addr=0x5a ok=2567 err=0 tmo=0 recov=0 pclk1=200000000 sysclk=400000000
[CLK] cpu=800000000 sysb=400000000 pclk1=200000000
[DRV] init=0 id=7 mode=0x1 lib=0x2 seq=0x1 odc=0x8b sts=0xe0 armed=1
[TRG] pulses=31 suppressed=354 cyc=1600 rst=1 rstmode=0x40
[HLT] polls=60 faults=0x0 cfglost=0
[EFF] n=5 last=58539 min=58539 max=58760 late=0 stuck=0
[DWT] ok=1 cyc=3906081778 cyc_per_ms=800001
[HB] up_ms=65133 frames=3074 inf=3074 hazard=400 canary_err=0 q=0 qovr=0
[I2C] init=0 gate=0 whoami=0x140e0 wr=0 wrseen=0x27 addr=0x5a ok=2569 err=0 tmo=0 recov=0 pclk1=200000000 sysclk=400000000
[CLK] cpu=800000000 sysb=400000000 pclk1=200000000
[DRV] init=0 id=7 mode=0x1 lib=0x2 seq=0x1 odc=0x8b sts=0xe0 armed=1
[TRG] pulses=32 suppressed=368 cyc=1600 rst=1 rstmode=0x40
[HLT] polls=61 faults=0x0 cfglost=0
[EFF] n=5 last=58539 min=58539 max=58760 late=0 stuck=0
[DWT] ok=1 cyc=447911946 cyc_per_ms=799997
[HB] up_ms=66179 frames=3123 inf=3123 hazard=400 canary_err=0 q=0 qovr=0
[I2C] init=0 gate=0 whoami=0x140e0 wr=0 wrseen=0x27 addr=0x5a ok=2571 err=0 tmo=0 recov=0 pclk1=200000000 sysclk=400000000
[CLK] cpu=800000000 sysb=400000000 pclk1=200000000
[DRV] init=0 id=7 mode=0x1 lib=0x2 seq=0x1 odc=0x8b sts=0xe0 armed=1
[TRG] pulses=32 suppressed=368 cyc=1600 rst=1 rstmode=0x40
[HLT] polls=62 faults=0x0 cfglost=0
[EFF] n=5 last=58539 min=58539 max=58760 late=0 stuck=0
[DWT] ok=1 cyc=1284712658 cyc_per_ms=800000
[HB] up_ms=67225 frames=3173 inf=3173 hazard=400 canary_err=0 q=0 qovr=0
[I2C] init=0 gate=0 whoami=0x140e0 wr=0 wrseen=0x27 addr=0x5a ok=2573 err=0 tmo=0 recov=0 pclk1=200000000 sysclk=400000000
[CLK] cpu=800000000 sysb=400000000 pclk1=200000000
[DRV] init=0 id=7 mode=0x1 lib=0x2 seq=0x1 odc=0x8b sts=0xe0 armed=1
[TRG] pulses=32 suppressed=368 cyc=1600 rst=1 rstmode=0x40
[HLT] polls=63 faults=0x0 cfglost=0
[EFF] n=5 last=58539 min=58539 max=58760 late=0 stuck=0
[DWT] ok=1 cyc=2121512602 cyc_per_ms=799999
[HB] up_ms=68271 frames=3223 inf=3223 hazard=400 canary_err=0 q=0 qovr=0
[I2C] init=0 gate=0 whoami=0x140e0 wr=0 wrseen=0x27 addr=0x5a ok=2575 err=0 tmo=0 recov=0 pclk1=200000000 sysclk=400000000
[CLK] cpu=800000000 sysb=400000000 pclk1=200000000
[DRV] init=0 id=7 mode=0x1 lib=0x2 seq=0x1 odc=0x8b sts=0xe0 armed=1
[TRG] pulses=32 suppressed=368 cyc=1600 rst=1 rstmode=0x40
[HLT] polls=64 faults=0x0 cfglost=0
[EFF] n=5 last=58539 min=58539 max=58760 late=0 stuck=0
[DWT] ok=1 cyc=2958312662 cyc_per_ms=800000
[HB] up_ms=69317 frames=3273 inf=3273 hazard=400 canary_err=0 q=0 qovr=0
[I2C] init=0 gate=0 whoami=0x140e0 wr=0 wrseen=0x27 addr=0x5a ok=2577 err=0 tmo=0 recov=0 pclk1=200000000 sysclk=400000000
[CLK] cpu=800000000 sysb=400000000 pclk1=200000000
[DRV] init=0 id=7 mode=0x1 lib=0x2 seq=0x1 odc=0x8b sts=0xe0 armed=1
[TRG] pulses=32 suppressed=368 cyc=1600 rst=1 rstmode=0x40
[HLT] polls=65 faults=0x0 cfglost=0
[EFF] n=5 last=58539 min=58539 max=58760 late=0 stuck=0
[DWT] ok=1 cyc=3795112610 cyc_per_ms=799999
[HB] up_ms=70363 frames=3323 inf=3323 hazard=403 canary_err=0 q=0 qovr=0
[I2C] init=0 gate=0 whoami=0x140e0 wr=0 wrseen=0x27 addr=0x5a ok=2579 err=0 tmo=0 recov=0 pclk1=200000000 sysclk=400000000
[CLK] cpu=800000000 sysb=400000000 pclk1=200000000
[DRV] init=0 id=7 mode=0x1 lib=0x2 seq=0x1 odc=0x8b sts=0xe0 armed=1
[TRG] pulses=33 suppressed=371 cyc=1600 rst=1 rstmode=0x40
[HLT] polls=66 faults=0x0 cfglost=0
[EFF] n=5 last=58539 min=58539 max=58760 late=0 stuck=0
[DWT] ok=1 cyc=336947142 cyc_per_ms=800001
[HB] up_ms=71409 frames=3372 inf=3372 hazard=440 canary_err=0 q=0 qovr=0
[I2C] init=0 gate=0 whoami=0x140e0 wr=0 wrseen=0x27 addr=0x5a ok=2581 err=0 tmo=0 recov=0 pclk1=200000000 sysclk=400000000
[CLK] cpu=800000000 sysb=400000000 pclk1=200000000
[DRV] init=0 id=7 mode=0x1 lib=0x2 seq=0x1 odc=0x8b sts=0xe0 armed=1
[TRG] pulses=35 suppressed=405 cyc=1600 rst=1 rstmode=0x40
[HLT] polls=67 faults=0x0 cfglost=0
[EFF] n=5 last=58539 min=58539 max=58760 late=0 stuck=0
[DWT] ok=1 cyc=1173745374 cyc_per_ms=799998
[HB] up_ms=72455 frames=3422 inf=3422 hazard=440 canary_err=0 q=0 qovr=0
[I2C] init=0 gate=0 whoami=0x140e0 wr=0 wrseen=0x27 addr=0x5a ok=2583 err=0 tmo=0 recov=0 pclk1=200000000 sysclk=400000000
[CLK] cpu=800000000 sysb=400000000 pclk1=200000000
[DRV] init=0 id=7 mode=0x1 lib=0x2 seq=0x1 odc=0x8b sts=0xe0 armed=1
[TRG] pulses=35 suppressed=405 cyc=1600 rst=1 rstmode=0x40
[HLT] polls=68 faults=0x0 cfglost=0
[EFF] n=5 last=58539 min=58539 max=58760 late=0 stuck=0
[DWT] ok=1 cyc=2010545358 cyc_per_ms=799999
[HB] up_ms=73501 frames=3472 inf=3472 hazard=440 canary_err=0 q=0 qovr=0
[I2C] init=0 gate=0 whoami=0x140e0 wr=0 wrseen=0x27 addr=0x5a ok=2585 err=0 tmo=0 recov=0 pclk1=200000000 sysclk=400000000
[CLK] cpu=800000000 sysb=400000000 pclk1=200000000
[DRV] init=0 id=7 mode=0x1 lib=0x2 seq=0x1 odc=0x8b sts=0xe0 armed=1
[TRG] pulses=35 suppressed=405 cyc=1600 rst=1 rstmode=0x40
[HLT] polls=69 faults=0x0 cfglost=0
[EFF] n=5 last=58539 min=58539 max=58760 late=0 stuck=0
[DWT] ok=1 cyc=2847345298 cyc_per_ms=799999
[HB] up_ms=74547 frames=3522 inf=3522 hazard=440 canary_err=0 q=0 qovr=0
[I2C] init=0 gate=0 whoami=0x140e0 wr=0 wrseen=0x27 addr=0x5a ok=2587 err=0 tmo=0 recov=0 pclk1=200000000 sysclk=400000000
[CLK] cpu=800000000 sysb=400000000 pclk1=200000000
[DRV] init=0 id=7 mode=0x1 lib=0x2 seq=0x1 odc=0x8b sts=0xe0 armed=1
[TRG] pulses=35 suppressed=405 cyc=1600 rst=1 rstmode=0x40
[HLT] polls=70 faults=0x0 cfglost=0
[EFF] n=5 last=58539 min=58539 max=58760 late=0 stuck=0
[DWT] ok=1 cyc=3684145358 cyc_per_ms=800000
[HB] up_ms=75593 frames=3572 inf=3572 hazard=440 canary_err=0 q=0 qovr=0
[I2C] init=0 gate=0 whoami=0x140e0 wr=0 wrseen=0x27 addr=0x5a ok=2589 err=0 tmo=0 recov=0 pclk1=200000000 sysclk=400000000
[CLK] cpu=800000000 sysb=400000000 pclk1=200000000
[DRV] init=0 id=7 mode=0x1 lib=0x2 seq=0x1 odc=0x8b sts=0xe0 armed=1
[TRG] pulses=35 suppressed=405 cyc=1600 rst=1 rstmode=0x40
[HLT] polls=71 faults=0x0 cfglost=0
[EFF] n=5 last=58539 min=58539 max=58760 late=0 stuck=0
[DWT] ok=1 cyc=225978014 cyc_per_ms=799999
[HB] up_ms=76639 frames=3621 inf=3621 hazard=440 canary_err=0 q=0 qovr=0
[I2C] init=0 gate=0 whoami=0x140e0 wr=0 wrseen=0x27 addr=0x5a ok=2591 err=0 tmo=0 recov=0 pclk1=200000000 sysclk=400000000
[CLK] cpu=800000000 sysb=400000000 pclk1=200000000
[DRV] init=0 id=7 mode=0x1 lib=0x2 seq=0x1 odc=0x8b sts=0xe0 armed=1
[TRG] pulses=35 suppressed=405 cyc=1600 rst=1 rstmode=0x40
[HLT] polls=72 faults=0x0 cfglost=0
[EFF] n=5 last=58539 min=58539 max=58760 late=0 stuck=0
[DWT] ok=1 cyc=1062778094 cyc_per_ms=800000
[HB] up_ms=77685 frames=3671 inf=3671 hazard=471 canary_err=0 q=0 qovr=0
[I2C] init=0 gate=0 whoami=0x140e0 wr=0 wrseen=0x27 addr=0x5a ok=2593 err=0 tmo=0 recov=0 pclk1=200000000 sysclk=400000000
[CLK] cpu=800000000 sysb=400000000 pclk1=200000000
[DRV] init=0 id=7 mode=0x1 lib=0x2 seq=0x1 odc=0x8b sts=0xe0 armed=1
[TRG] pulses=38 suppressed=435 cyc=1600 rst=1 rstmode=0x40
[HLT] polls=73 faults=0x0 cfglost=0
[EFF] n=5 last=58539 min=58539 max=58760 late=0 stuck=0
[DWT] ok=1 cyc=1899579846 cyc_per_ms=800001
[HB] up_ms=78731 frames=3721 inf=3721 hazard=480 canary_err=0 q=0 qovr=0
[I2C] init=0 gate=0 whoami=0x140e0 wr=0 wrseen=0x27 addr=0x5a ok=2595 err=0 tmo=0 recov=0 pclk1=200000000 sysclk=400000000
[CLK] cpu=800000000 sysb=400000000 pclk1=200000000
[DRV] init=0 id=7 mode=0x1 lib=0x2 seq=0x1 odc=0x8b sts=0xe0 armed=1
[TRG] pulses=38 suppressed=442 cyc=1600 rst=1 rstmode=0x40
[HLT] polls=74 faults=0x0 cfglost=0
[EFF] n=5 last=58539 min=58539 max=58760 late=0 stuck=0
[DWT] ok=1 cyc=2736378046 cyc_per_ms=799998
[HB] up_ms=79777 frames=3771 inf=3771 hazard=480 canary_err=0 q=0 qovr=0
[I2C] init=0 gate=0 whoami=0x140e0 wr=0 wrseen=0x27 addr=0x5a ok=2597 err=0 tmo=0 recov=0 pclk1=200000000 sysclk=400000000
[CLK] cpu=800000000 sysb=400000000 pclk1=200000000
[DRV] init=0 id=7 mode=0x1 lib=0x2 seq=0x1 odc=0x8b sts=0xe0 armed=1
[TRG] pulses=38 suppressed=442 cyc=1600 rst=1 rstmode=0x40
[HLT] polls=75 faults=0x0 cfglost=0
[EFF] n=5 last=58539 min=58539 max=58760 late=0 stuck=0
[DWT] ok=1 cyc=3573178090 cyc_per_ms=800000
[HB] up_ms=80823 frames=3821 inf=3821 hazard=480 canary_err=0 q=0 qovr=0
[I2C] init=0 gate=0 whoami=0x140e0 wr=0 wrseen=0x27 addr=0x5a ok=2599 err=0 tmo=0 recov=0 pclk1=200000000 sysclk=400000000
[CLK] cpu=800000000 sysb=400000000 pclk1=200000000
[DRV] init=0 id=7 mode=0x1 lib=0x2 seq=0x1 odc=0x8b sts=0xe0 armed=1
[TRG] pulses=38 suppressed=442 cyc=1600 rst=1 rstmode=0x40
[HLT] polls=76 faults=0x0 cfglost=0
[EFF] n=5 last=58539 min=58539 max=58760 late=0 stuck=0
[DWT] ok=1 cyc=115010734 cyc_per_ms=799999
[HB] up_ms=81869 frames=3870 inf=3870 hazard=480 canary_err=0 q=0 qovr=0
[I2C] init=0 gate=0 whoami=0x140e0 wr=0 wrseen=0x27 addr=0x5a ok=2601 err=0 tmo=0 recov=0 pclk1=200000000 sysclk=400000000
[CLK] cpu=800000000 sysb=400000000 pclk1=200000000
[DRV] init=0 id=7 mode=0x1 lib=0x2 seq=0x1 odc=0x8b sts=0xe0 armed=1
[TRG] pulses=38 suppressed=442 cyc=1600 rst=1 rstmode=0x40
[HLT] polls=77 faults=0x0 cfglost=0
[EFF] n=5 last=58539 min=58539 max=58760 late=0 stuck=0
[DWT] ok=1 cyc=951810726 cyc_per_ms=799999
[HB] up_ms=82915 frames=3920 inf=3920 hazard=480 canary_err=0 q=0 qovr=0
[I2C] init=0 gate=0 whoami=0x140e0 wr=0 wrseen=0x27 addr=0x5a ok=2603 err=0 tmo=0 recov=0 pclk1=200000000 sysclk=400000000
[CLK] cpu=800000000 sysb=400000000 pclk1=200000000
[DRV] init=0 id=7 mode=0x1 lib=0x2 seq=0x1 odc=0x8b sts=0xe0 armed=1
[TRG] pulses=38 suppressed=442 cyc=1600 rst=1 rstmode=0x40
[HLT] polls=78 faults=0x0 cfglost=0
[EFF] n=5 last=58539 min=58539 max=58760 late=0 stuck=0
[DWT] ok=1 cyc=1788610710 cyc_per_ms=799999
[HB] up_ms=83961 frames=3970 inf=3970 hazard=490 canary_err=0 q=0 qovr=0
[I2C] init=0 gate=0 whoami=0x140e0 wr=0 wrseen=0x27 addr=0x5a ok=2605 err=0 tmo=0 recov=0 pclk1=200000000 sysclk=400000000
[CLK] cpu=800000000 sysb=400000000 pclk1=200000000
[DRV] init=0 id=7 mode=0x1 lib=0x2 seq=0x1 odc=0x8b sts=0xe0 armed=1
[TRG] pulses=39 suppressed=452 cyc=1600 rst=1 rstmode=0x40
[HLT] polls=79 faults=0x0 cfglost=0
[EFF] n=5 last=58539 min=58539 max=58760 late=0 stuck=0
[DWT] ok=1 cyc=2625412538 cyc_per_ms=800001
[HB] up_ms=85007 frames=4020 inf=4020 hazard=520 canary_err=0 q=0 qovr=0
[I2C] init=0 gate=0 whoami=0x140e0 wr=0 wrseen=0x27 addr=0x5a ok=2607 err=0 tmo=0 recov=0 pclk1=200000000 sysclk=400000000
[CLK] cpu=800000000 sysb=400000000 pclk1=200000000
[DRV] init=0 id=7 mode=0x1 lib=0x2 seq=0x1 odc=0x8b sts=0xe0 armed=1
[TRG] pulses=41 suppressed=479 cyc=1600 rst=1 rstmode=0x40
[HLT] polls=80 faults=0x0 cfglost=0
[EFF] n=5 last=58539 min=58539 max=58760 late=0 stuck=0
[DWT] ok=1 cyc=3462210722 cyc_per_ms=799998
[HB] up_ms=86053 frames=4070 inf=4070 hazard=520 canary_err=0 q=0 qovr=0
[I2C] init=0 gate=0 whoami=0x140e0 wr=0 wrseen=0x27 addr=0x5a ok=2609 err=0 tmo=0 recov=0 pclk1=200000000 sysclk=400000000
[CLK] cpu=800000000 sysb=400000000 pclk1=200000000
[DRV] init=0 id=7 mode=0x1 lib=0x2 seq=0x1 odc=0x8b sts=0xe0 armed=1
[TRG] pulses=41 suppressed=479 cyc=1600 rst=1 rstmode=0x40
[HLT] polls=81 faults=0x0 cfglost=0
[EFF] n=5 last=58539 min=58539 max=58760 late=0 stuck=0
[DWT] ok=1 cyc=4043482 cyc_per_ms=800000
[HB] up_ms=87099 frames=4120 inf=4120 hazard=520 canary_err=0 q=0 qovr=0
[I2C] init=0 gate=0 whoami=0x140e0 wr=0 wrseen=0x27 addr=0x5a ok=2611 err=0 tmo=0 recov=0 pclk1=200000000 sysclk=400000000
[CLK] cpu=800000000 sysb=400000000 pclk1=200000000
[DRV] init=0 id=7 mode=0x1 lib=0x2 seq=0x1 odc=0x8b sts=0xe0 armed=1
[TRG] pulses=41 suppressed=479 cyc=1600 rst=1 rstmode=0x40
[HLT] polls=82 faults=0x0 cfglost=0
[EFF] n=5 last=58539 min=58539 max=58760 late=0 stuck=0
[DWT] ok=1 cyc=840842750 cyc_per_ms=799999
[HB] up_ms=88145 frames=4169 inf=4169 hazard=520 canary_err=0 q=0 qovr=0
[I2C] init=0 gate=0 whoami=0x140e0 wr=0 wrseen=0x27 addr=0x5a ok=2613 err=0 tmo=0 recov=0 pclk1=200000000 sysclk=400000000
[CLK] cpu=800000000 sysb=400000000 pclk1=200000000
[DRV] init=0 id=7 mode=0x1 lib=0x2 seq=0x1 odc=0x8b sts=0xe0 armed=1
[TRG] pulses=41 suppressed=479 cyc=1600 rst=1 rstmode=0x40
[HLT] polls=83 faults=0x0 cfglost=0
[EFF] n=5 last=58539 min=58539 max=58760 late=0 stuck=0
[DWT] ok=1 cyc=1677643474 cyc_per_ms=800000
[HB] up_ms=89191 frames=4219 inf=4219 hazard=520 canary_err=0 q=0 qovr=0
[I2C] init=0 gate=0 whoami=0x140e0 wr=0 wrseen=0x27 addr=0x5a ok=2615 err=0 tmo=0 recov=0 pclk1=200000000 sysclk=400000000
[CLK] cpu=800000000 sysb=400000000 pclk1=200000000
[DRV] init=0 id=7 mode=0x1 lib=0x2 seq=0x1 odc=0x8b sts=0xe0 armed=1
[TRG] pulses=41 suppressed=479 cyc=1600 rst=1 rstmode=0x40
[HLT] polls=84 faults=0x0 cfglost=0
[EFF] n=5 last=58539 min=58539 max=58760 late=0 stuck=0
[DWT] ok=1 cyc=2514443426 cyc_per_ms=799999
[HB] up_ms=90237 frames=4269 inf=4269 hazard=520 canary_err=0 q=0 qovr=0
[I2C] init=0 gate=0 whoami=0x140e0 wr=0 wrseen=0x27 addr=0x5a ok=2617 err=0 tmo=0 recov=0 pclk1=200000000 sysclk=400000000
[CLK] cpu=800000000 sysb=400000000 pclk1=200000000
[DRV] init=0 id=7 mode=0x1 lib=0x2 seq=0x1 odc=0x8b sts=0xe0 armed=1
[TRG] pulses=41 suppressed=479 cyc=1600 rst=1 rstmode=0x40
[HLT] polls=85 faults=0x0 cfglost=0
[EFF] n=5 last=58539 min=58539 max=58760 late=0 stuck=0
[DWT] ok=1 cyc=3351243478 cyc_per_ms=800000
[HB] up_ms=91283 frames=4319 inf=4319 hazard=559 canary_err=0 q=0 qovr=0
[I2C] init=0 gate=0 whoami=0x140e0 wr=0 wrseen=0x27 addr=0x5a ok=2619 err=0 tmo=0 recov=0 pclk1=200000000 sysclk=400000000
[CLK] cpu=800000000 sysb=400000000 pclk1=200000000
[DRV] init=0 id=7 mode=0x1 lib=0x2 seq=0x1 odc=0x8b sts=0xe0 armed=1
[TRG] pulses=44 suppressed=516 cyc=1600 rst=1 rstmode=0x40
[HLT] polls=86 faults=0x0 cfglost=0
[EFF] n=5 last=58539 min=58539 max=58760 late=0 stuck=0
[DWT] ok=1 cyc=4188044366 cyc_per_ms=800000
[HB] up_ms=92329 frames=4369 inf=4369 hazard=560 canary_err=0 q=0 qovr=0
[I2C] init=0 gate=0 whoami=0x140e0 wr=0 wrseen=0x27 addr=0x5a ok=2621 err=0 tmo=0 recov=0 pclk1=200000000 sysclk=400000000
[CLK] cpu=800000000 sysb=400000000 pclk1=200000000
[DRV] init=0 id=7 mode=0x1 lib=0x2 seq=0x1 odc=0x8b sts=0xe0 armed=1
[TRG] pulses=44 suppressed=516 cyc=1600 rst=1 rstmode=0x40
[HLT] polls=87 faults=0x0 cfglost=0
[EFF] n=5 last=58539 min=58539 max=58760 late=0 stuck=0
[DWT] ok=1 cyc=729876186 cyc_per_ms=799999
[HB] up_ms=93375 frames=4418 inf=4418 hazard=560 canary_err=0 q=0 qovr=0
[I2C] init=0 gate=0 whoami=0x140e0 wr=0 wrseen=0x27 addr=0x5a ok=2623 err=0 tmo=0 recov=0 pclk1=200000000 sysclk=400000000
[CLK] cpu=800000000 sysb=400000000 pclk1=200000000
[DRV] init=0 id=7 mode=0x1 lib=0x2 seq=0x1 odc=0x8b sts=0xe0 armed=1
[TRG] pulses=44 suppressed=516 cyc=1600 rst=1 rstmode=0x40
[HLT] polls=88 faults=0x0 cfglost=0
[EFF] n=5 last=58539 min=58539 max=58760 late=0 stuck=0
[DWT] ok=1 cyc=1566676166 cyc_per_ms=799999
[HB] up_ms=94421 frames=4468 inf=4468 hazard=560 canary_err=0 q=0 qovr=0
[I2C] init=0 gate=0 whoami=0x140e0 wr=0 wrseen=0x27 addr=0x5a ok=2625 err=0 tmo=0 recov=0 pclk1=200000000 sysclk=400000000
[CLK] cpu=800000000 sysb=400000000 pclk1=200000000
[DRV] init=0 id=7 mode=0x1 lib=0x2 seq=0x1 odc=0x8b sts=0xe0 armed=1
[TRG] pulses=44 suppressed=516 cyc=1600 rst=1 rstmode=0x40
[HLT] polls=89 faults=0x0 cfglost=0
[EFF] n=5 last=58539 min=58539 max=58760 late=0 stuck=0
[DWT] ok=1 cyc=2403476154 cyc_per_ms=799999
[HB] up_ms=95467 frames=4518 inf=4518 hazard=560 canary_err=0 q=0 qovr=0
[I2C] init=0 gate=0 whoami=0x140e0 wr=0 wrseen=0x27 addr=0x5a ok=2627 err=0 tmo=0 recov=0 pclk1=200000000 sysclk=400000000
[CLK] cpu=800000000 sysb=400000000 pclk1=200000000
[DRV] init=0 id=7 mode=0x1 lib=0x2 seq=0x1 odc=0x8b sts=0xe0 armed=1
[TRG] pulses=44 suppressed=516 cyc=1600 rst=1 rstmode=0x40
[HLT] polls=90 faults=0x0 cfglost=0
[EFF] n=5 last=58539 min=58539 max=58760 late=0 stuck=0
[DWT] ok=1 cyc=3240276106 cyc_per_ms=799999
[HB] up_ms=96513 frames=4568 inf=4568 hazard=560 canary_err=0 q=0 qovr=0
[I2C] init=0 gate=0 whoami=0x140e0 wr=0 wrseen=0x27 addr=0x5a ok=2629 err=0 tmo=0 recov=0 pclk1=200000000 sysclk=400000000
[CLK] cpu=800000000 sysb=400000000 pclk1=200000000
[DRV] init=0 id=7 mode=0x1 lib=0x2 seq=0x1 odc=0x8b sts=0xe0 armed=1
[TRG] pulses=44 suppressed=516 cyc=1600 rst=1 rstmode=0x40
[HLT] polls=91 faults=0x0 cfglost=0
[EFF] n=5 last=58539 min=58539 max=58760 late=0 stuck=0
[DWT] ok=1 cyc=4077076162 cyc_per_ms=800000
[HB] up_ms=97559 frames=4618 inf=4618 hazard=578 canary_err=0 q=0 qovr=0
[I2C] init=0 gate=0 whoami=0x140e0 wr=0 wrseen=0x27 addr=0x5a ok=2631 err=0 tmo=0 recov=0 pclk1=200000000 sysclk=400000000
[CLK] cpu=800000000 sysb=400000000 pclk1=200000000
[DRV] init=0 id=7 mode=0x1 lib=0x2 seq=0x1 odc=0x8b sts=0xe0 armed=1
[TRG] pulses=46 suppressed=533 cyc=1600 rst=1 rstmode=0x40
[HLT] polls=92 faults=0x0 cfglost=0
[EFF] n=5 last=58539 min=58539 max=58760 late=0 stuck=0
[DWT] ok=1 cyc=618910722 cyc_per_ms=800001
[HB] up_ms=98605 frames=4667 inf=4667 hazard=600 canary_err=0 q=0 qovr=0
[I2C] init=0 gate=0 whoami=0x140e0 wr=0 wrseen=0x27 addr=0x5a ok=2633 err=0 tmo=0 recov=0 pclk1=200000000 sysclk=400000000
[CLK] cpu=800000000 sysb=400000000 pclk1=200000000
[DRV] init=0 id=7 mode=0x1 lib=0x2 seq=0x1 odc=0x8b sts=0xe0 armed=1
[TRG] pulses=47 suppressed=553 cyc=1600 rst=1 rstmode=0x40
[HLT] polls=93 faults=0x0 cfglost=0
[EFF] n=5 last=58539 min=58539 max=58760 late=0 stuck=0
[DWT] ok=1 cyc=1455708822 cyc_per_ms=799998
[HB] up_ms=99651 frames=4717 inf=4717 hazard=600 canary_err=0 q=0 qovr=0
[I2C] init=0 gate=0 whoami=0x140e0 wr=0 wrseen=0x27 addr=0x5a ok=2635 err=0 tmo=0 recov=0 pclk1=200000000 sysclk=400000000
[CLK] cpu=800000000 sysb=400000000 pclk1=200000000
[DRV] init=0 id=7 mode=0x1 lib=0x2 seq=0x1 odc=0x8b sts=0xe0 armed=1
[TRG] pulses=47 suppressed=553 cyc=1600 rst=1 rstmode=0x40
[HLT] polls=94 faults=0x0 cfglost=0
[EFF] n=5 last=58539 min=58539 max=58760 late=0 stuck=0
[DWT] ok=1 cyc=2292508910 cyc_per_ms=800000
[HB] up_ms=100697 frames=4767 inf=4767 hazard=600 canary_err=0 q=0 qovr=0
[I2C] init=0 gate=0 whoami=0x140e0 wr=0 wrseen=0x27 addr=0x5a ok=2637 err=0 tmo=0 recov=0 pclk1=200000000 sysclk=400000000
[CLK] cpu=800000000 sysb=400000000 pclk1=200000000
[DRV] init=0 id=7 mode=0x1 lib=0x2 seq=0x1 odc=0x8b sts=0xe0 armed=1
[TRG] pulses=47 suppressed=553 cyc=1600 rst=1 rstmode=0x40
[HLT] polls=95 faults=0x0 cfglost=0
[EFF] n=5 last=58539 min=58539 max=58760 late=0 stuck=0
[DWT] ok=1 cyc=3129378858 cyc_per_ms=800066
[HB] up_ms=101743 frames=4817 inf=4817 hazard=600 canary_err=0 q=0 qovr=0
[I2C] init=0 gate=0 whoami=0x140e0 wr=0 wrseen=0x27 addr=0x5a ok=2639 err=0 tmo=0 recov=0 pclk1=200000000 sysclk=400000000
[CLK] cpu=800000000 sysb=400000000 pclk1=200000000
[DRV] init=0 id=7 mode=0x1 lib=0x2 seq=0x1 odc=0x8b sts=0xe0 armed=1
[TRG] pulses=47 suppressed=553 cyc=1600 rst=1 rstmode=0x40
[HLT] polls=96 faults=0x0 cfglost=0
[EFF] n=5 last=58539 min=58539 max=58760 late=0 stuck=0
[DWT] ok=1 cyc=3966178814 cyc_per_ms=799999
[HB] up_ms=102789 frames=4867 inf=4867 hazard=600 canary_err=0 q=0 qovr=0
[I2C] init=0 gate=0 whoami=0x140e0 wr=0 wrseen=0x27 addr=0x5a ok=2641 err=0 tmo=0 recov=0 pclk1=200000000 sysclk=400000000
[CLK] cpu=800000000 sysb=400000000 pclk1=200000000
[DRV] init=0 id=7 mode=0x1 lib=0x2 seq=0x1 odc=0x8b sts=0xe0 armed=1
[TRG] pulses=47 suppressed=553 cyc=1600 rst=1 rstmode=0x40
[HLT] polls=97 faults=0x0 cfglost=0
[EFF] n=5 last=58539 min=58539 max=58760 late=0 stuck=0
[DWT] ok=1 cyc=508011570 cyc_per_ms=800000
[HB] up_ms=103835 frames=4916 inf=4916 hazard=600 canary_err=0 q=0 qovr=0
[I2C] init=0 gate=0 whoami=0x140e0 wr=0 wrseen=0x27 addr=0x5a ok=2643 err=0 tmo=0 recov=0 pclk1=200000000 sysclk=400000000
[CLK] cpu=800000000 sysb=400000000 pclk1=200000000
[DRV] init=0 id=7 mode=0x1 lib=0x2 seq=0x1 odc=0x8b sts=0xe0 armed=1
[TRG] pulses=47 suppressed=553 cyc=1600 rst=1 rstmode=0x40
[HLT] polls=98 faults=0x0 cfglost=0
[EFF] n=5 last=58539 min=58539 max=58760 late=0 stuck=0
[DWT] ok=1 cyc=1344811550 cyc_per_ms=799999
[HB] up_ms=104881 frames=4966 inf=4966 hazard=640 canary_err=0 q=0 qovr=0
[I2C] init=0 gate=0 whoami=0x140e0 wr=0 wrseen=0x27 addr=0x5a ok=2645 err=0 tmo=0 recov=0 pclk1=200000000 sysclk=400000000
[CLK] cpu=800000000 sysb=400000000 pclk1=200000000
[DRV] init=0 id=7 mode=0x1 lib=0x2 seq=0x1 odc=0x8b sts=0xe0 armed=1
[TRG] pulses=50 suppressed=590 cyc=1600 rst=1 rstmode=0x40
[HLT] polls=99 faults=0x0 cfglost=0
[EFF] n=5 last=58539 min=58539 max=58760 late=0 stuck=0
[DWT] ok=1 cyc=2181611534 cyc_per_ms=799999
[HB] up_ms=105927 frames=5016 inf=5016 hazard=640 canary_err=0 q=0 qovr=0
[I2C] init=0 gate=0 whoami=0x140e0 wr=0 wrseen=0x27 addr=0x5a ok=2647 err=0 tmo=0 recov=0 pclk1=200000000 sysclk=400000000
[CLK] cpu=800000000 sysb=400000000 pclk1=200000000
[DRV] init=0 id=7 mode=0x1 lib=0x2 seq=0x1 odc=0x8b sts=0xe0 armed=1
[TRG] pulses=50 suppressed=590 cyc=1600 rst=1 rstmode=0x40
[HLT] polls=100 faults=0x0 cfglost=0
[EFF] n=5 last=58539 min=58539 max=58760 late=0 stuck=0
[DWT] ok=1 cyc=3018481582 cyc_per_ms=800066
[HB] up_ms=106973 frames=5066 inf=5066 hazard=640 canary_err=0 q=0 qovr=0
[I2C] init=0 gate=0 whoami=0x140e0 wr=0 wrseen=0x27 addr=0x5a ok=2649 err=0 tmo=0 recov=0 pclk1=200000000 sysclk=400000000
[CLK] cpu=800000000 sysb=400000000 pclk1=200000000
[DRV] init=0 id=7 mode=0x1 lib=0x2 seq=0x1 odc=0x8b sts=0xe0 armed=1
[TRG] pulses=50 suppressed=590 cyc=1600 rst=1 rstmode=0x40
[HLT] polls=101 faults=0x0 cfglost=0
[EFF] n=5 last=58539 min=58539 max=58760 late=0 stuck=0
[DWT] ok=1 cyc=3855281526 cyc_per_ms=799999
[HB] up_ms=108019 frames=5116 inf=5116 hazard=640 canary_err=0 q=0 qovr=0
[I2C] init=0 gate=0 whoami=0x140e0 wr=0 wrseen=0x27 addr=0x5a ok=2651 err=0 tmo=0 recov=0 pclk1=200000000 sysclk=400000000
[CLK] cpu=800000000 sysb=400000000 pclk1=200000000
[DRV] init=0 id=7 mode=0x1 lib=0x2 seq=0x1 odc=0x8b sts=0xe0 armed=1
[TRG] pulses=50 suppressed=590 cyc=1600 rst=1 rstmode=0x40
[HLT] polls=102 faults=0x0 cfglost=0
[EFF] n=5 last=58539 min=58539 max=58760 late=0 stuck=0
[DWT] ok=1 cyc=397114286 cyc_per_ms=800000
[HB] up_ms=109065 frames=5166 inf=5166 hazard=640 canary_err=0 q=0 qovr=0
[I2C] init=0 gate=0 whoami=0x140e0 wr=0 wrseen=0x27 addr=0x5a ok=2653 err=0 tmo=0 recov=0 pclk1=200000000 sysclk=400000000
[CLK] cpu=800000000 sysb=400000000 pclk1=200000000
[DRV] init=0 id=7 mode=0x1 lib=0x2 seq=0x1 odc=0x8b sts=0xe0 armed=1
[TRG] pulses=50 suppressed=590 cyc=1600 rst=1 rstmode=0x40
[HLT] polls=103 faults=0x0 cfglost=0
[EFF] n=5 last=58539 min=58539 max=58760 late=0 stuck=0
[DWT] ok=1 cyc=1233913542 cyc_per_ms=799999
[HB] up_ms=110111 frames=5215 inf=5215 hazard=640 canary_err=0 q=0 qovr=0
[I2C] init=0 gate=0 whoami=0x140e0 wr=0 wrseen=0x27 addr=0x5a ok=2655 err=0 tmo=0 recov=0 pclk1=200000000 sysclk=400000000
[CLK] cpu=800000000 sysb=400000000 pclk1=200000000
[DRV] init=0 id=7 mode=0x1 lib=0x2 seq=0x1 odc=0x8b sts=0xe0 armed=1
[TRG] pulses=50 suppressed=590 cyc=1600 rst=1 rstmode=0x40
[HLT] polls=104 faults=0x0 cfglost=0
[EFF] n=5 last=58539 min=58539 max=58760 late=0 stuck=0
[DWT] ok=1 cyc=2070714234 cyc_per_ms=800000
[HB] up_ms=111157 frames=5265 inf=5265 hazard=665 canary_err=0 q=0 qovr=0
[I2C] init=0 gate=0 whoami=0x140e0 wr=0 wrseen=0x27 addr=0x5a ok=2657 err=0 tmo=0 recov=0 pclk1=200000000 sysclk=400000000
[CLK] cpu=800000000 sysb=400000000 pclk1=200000000
[DRV] init=0 id=7 mode=0x1 lib=0x2 seq=0x1 odc=0x8b sts=0xe0 armed=1
[TRG] pulses=52 suppressed=614 cyc=1600 rst=1 rstmode=0x40
[HLT] polls=105 faults=0x0 cfglost=0
[EFF] n=5 last=58539 min=58539 max=58760 late=0 stuck=0
[DWT] ok=1 cyc=2907516106 cyc_per_ms=800001
[HB] up_ms=112203 frames=5315 inf=5315 hazard=680 canary_err=0 q=0 qovr=0
[I2C] init=0 gate=0 whoami=0x140e0 wr=0 wrseen=0x27 addr=0x5a ok=2659 err=0 tmo=0 recov=0 pclk1=200000000 sysclk=400000000
[CLK] cpu=800000000 sysb=400000000 pclk1=200000000
[DRV] init=0 id=7 mode=0x1 lib=0x2 seq=0x1 odc=0x8b sts=0xe0 armed=1
[TRG] pulses=53 suppressed=627 cyc=1600 rst=1 rstmode=0x40
[HLT] polls=106 faults=0x0 cfglost=0
[EFF] n=5 last=58539 min=58539 max=58760 late=0 stuck=0
[DWT] ok=1 cyc=3744314262 cyc_per_ms=799998
[HB] up_ms=113249 frames=5365 inf=5365 hazard=680 canary_err=0 q=0 qovr=0
[I2C] init=0 gate=0 whoami=0x140e0 wr=0 wrseen=0x27 addr=0x5a ok=2661 err=0 tmo=0 recov=0 pclk1=200000000 sysclk=400000000
[CLK] cpu=800000000 sysb=400000000 pclk1=200000000
[DRV] init=0 id=7 mode=0x1 lib=0x2 seq=0x1 odc=0x8b sts=0xe0 armed=1
[TRG] pulses=53 suppressed=627 cyc=1600 rst=1 rstmode=0x40
[HLT] polls=107 faults=0x0 cfglost=0
[EFF] n=5 last=58539 min=58539 max=58760 late=0 stuck=0
[DWT] ok=1 cyc=286146914 cyc_per_ms=799999
[HB] up_ms=114295 frames=5415 inf=5415 hazard=680 canary_err=0 q=0 qovr=0
[I2C] init=0 gate=0 whoami=0x140e0 wr=0 wrseen=0x27 addr=0x5a ok=2663 err=0 tmo=0 recov=0 pclk1=200000000 sysclk=400000000
[CLK] cpu=800000000 sysb=400000000 pclk1=200000000
[DRV] init=0 id=7 mode=0x1 lib=0x2 seq=0x1 odc=0x8b sts=0xe0 armed=1
[TRG] pulses=53 suppressed=627 cyc=1600 rst=1 rstmode=0x40
[HLT] polls=108 faults=0x0 cfglost=0
[EFF] n=5 last=58539 min=58539 max=58760 late=0 stuck=0
[DWT] ok=1 cyc=1122946946 cyc_per_ms=800000
[HB] up_ms=115341 frames=5464 inf=5464 hazard=680 canary_err=0 q=0 qovr=0
[I2C] init=0 gate=0 whoami=0x140e0 wr=0 wrseen=0x27 addr=0x5a ok=2665 err=0 tmo=0 recov=0 pclk1=200000000 sysclk=400000000
[CLK] cpu=800000000 sysb=400000000 pclk1=200000000
[DRV] init=0 id=7 mode=0x1 lib=0x2 seq=0x1 odc=0x8b sts=0xe0 armed=1
[TRG] pulses=53 suppressed=627 cyc=1600 rst=1 rstmode=0x40
[HLT] polls=109 faults=0x0 cfglost=0
[EFF] n=5 last=58539 min=58539 max=58760 late=0 stuck=0
[DWT] ok=1 cyc=1959746922 cyc_per_ms=799999
[HB] up_ms=116387 frames=5514 inf=5514 hazard=680 canary_err=0 q=0 qovr=0
[I2C] init=0 gate=0 whoami=0x140e0 wr=0 wrseen=0x27 addr=0x5a ok=2667 err=0 tmo=0 recov=0 pclk1=200000000 sysclk=400000000
[CLK] cpu=800000000 sysb=400000000 pclk1=200000000
[DRV] init=0 id=7 mode=0x1 lib=0x2 seq=0x1 odc=0x8b sts=0xe0 armed=1
[TRG] pulses=53 suppressed=627 cyc=1600 rst=1 rstmode=0x40
[HLT] polls=110 faults=0x0 cfglost=0
[EFF] n=5 last=58539 min=58539 max=58760 late=0 stuck=0
[DWT] ok=1 cyc=2796546906 cyc_per_ms=799999
[HB] up_ms=117433 frames=5564 inf=5564 hazard=684 canary_err=0 q=0 qovr=0
[I2C] init=0 gate=0 whoami=0x140e0 wr=0 wrseen=0x27 addr=0x5a ok=2669 err=0 tmo=0 recov=0 pclk1=200000000 sysclk=400000000
[CLK] cpu=800000000 sysb=400000000 pclk1=200000000
[DRV] init=0 id=7 mode=0x1 lib=0x2 seq=0x1 odc=0x8b sts=0xe0 armed=1
[TRG] pulses=54 suppressed=631 cyc=1600 rst=1 rstmode=0x40
[HLT] polls=111 faults=0x0 cfglost=0
[EFF] n=5 last=58539 min=58539 max=58760 late=0 stuck=0
[DWT] ok=1 cyc=3633348794 cyc_per_ms=800001
[HB] up_ms=118479 frames=5614 inf=5614 hazard=720 canary_err=0 q=0 qovr=0
[I2C] init=0 gate=0 whoami=0x140e0 wr=0 wrseen=0x27 addr=0x5a ok=2671 err=0 tmo=0 recov=0 pclk1=200000000 sysclk=400000000
[CLK] cpu=800000000 sysb=400000000 pclk1=200000000
[DRV] init=0 id=7 mode=0x1 lib=0x2 seq=0x1 odc=0x8b sts=0xe0 armed=1
[TRG] pulses=56 suppressed=664 cyc=1600 rst=1 rstmode=0x40
[HLT] polls=112 faults=0x0 cfglost=0
[EFF] n=5 last=58539 min=58539 max=58760 late=0 stuck=0
[DWT] ok=1 cyc=175179610 cyc_per_ms=799998
[HB] up_ms=119525 frames=5664 inf=5664 hazard=720 canary_err=0 q=0 qovr=0
[I2C] init=0 gate=0 whoami=0x140e0 wr=0 wrseen=0x27 addr=0x5a ok=2673 err=0 tmo=0 recov=0 pclk1=200000000 sysclk=400000000
[CLK] cpu=800000000 sysb=400000000 pclk1=200000000
[DRV] init=0 id=7 mode=0x1 lib=0x2 seq=0x1 odc=0x8b sts=0xe0 armed=1
[TRG] pulses=56 suppressed=664 cyc=1600 rst=1 rstmode=0x40
[HLT] polls=113 faults=0x0 cfglost=0
[EFF] n=5 last=58539 min=58539 max=58760 late=0 stuck=0
[DWT] ok=1 cyc=1011979642 cyc_per_ms=800000
[HB] up_ms=120571 frames=5713 inf=5713 hazard=720 canary_err=0 q=0 qovr=0
[I2C] init=0 gate=0 whoami=0x140e0 wr=0 wrseen=0x27 addr=0x5a ok=2675 err=0 tmo=0 recov=0 pclk1=200000000 sysclk=400000000
[CLK] cpu=800000000 sysb=400000000 pclk1=200000000
[DRV] init=0 id=7 mode=0x1 lib=0x2 seq=0x1 odc=0x8b sts=0xe0 armed=1
[TRG] pulses=56 suppressed=664 cyc=1600 rst=1 rstmode=0x40
[HLT] polls=114 faults=0x0 cfglost=0
[EFF] n=5 last=58539 min=58539 max=58760 late=0 stuck=0
[DWT] ok=1 cyc=1848779614 cyc_per_ms=799999
[HB] up_ms=121617 frames=5763 inf=5763 hazard=720 canary_err=0 q=0 qovr=0
[I2C] init=0 gate=0 whoami=0x140e0 wr=0 wrseen=0x27 addr=0x5a ok=2677 err=0 tmo=0 recov=0 pclk1=200000000 sysclk=400000000
[CLK] cpu=800000000 sysb=400000000 pclk1=200000000
[DRV] init=0 id=7 mode=0x1 lib=0x2 seq=0x1 odc=0x8b sts=0xe0 armed=1
[TRG] pulses=56 suppressed=664 cyc=1600 rst=1 rstmode=0x40
[HLT] polls=115 faults=0x0 cfglost=0
[EFF] n=5 last=58539 min=58539 max=58760 late=0 stuck=0
[DWT] ok=1 cyc=2685579702 cyc_per_ms=800000
[HB] up_ms=122663 frames=5813 inf=5813 hazard=720 canary_err=0 q=0 qovr=0
[I2C] init=0 gate=0 whoami=0x140e0 wr=0 wrseen=0x27 addr=0x5a ok=2679 err=0 tmo=0 recov=0 pclk1=200000000 sysclk=400000000
[CLK] cpu=800000000 sysb=400000000 pclk1=200000000
[DRV] init=0 id=7 mode=0x1 lib=0x2 seq=0x1 odc=0x8b sts=0xe0 armed=1
[TRG] pulses=56 suppressed=664 cyc=1600 rst=1 rstmode=0x40
[HLT] polls=116 faults=0x0 cfglost=0
[EFF] n=5 last=58539 min=58539 max=58760 late=0 stuck=0
[DWT] ok=1 cyc=3522379654 cyc_per_ms=799999
[HB] up_ms=123709 frames=5863 inf=5863 hazard=720 canary_err=0 q=0 qovr=0
[I2C] init=0 gate=0 whoami=0x140e0 wr=0 wrseen=0x27 addr=0x5a ok=2681 err=0 tmo=0 recov=0 pclk1=200000000 sysclk=400000000
[CLK] cpu=800000000 sysb=400000000 pclk1=200000000
[DRV] init=0 id=7 mode=0x1 lib=0x2 seq=0x1 odc=0x8b sts=0xe0 armed=1
[TRG] pulses=56 suppressed=664 cyc=1600 rst=1 rstmode=0x40
[HLT] polls=117 faults=0x0 cfglost=0
[EFF] n=5 last=58539 min=58539 max=58760 late=0 stuck=0
[DWT] ok=1 cyc=64212402 cyc_per_ms=800000
[HB] up_ms=124755 frames=5913 inf=5913 hazard=753 canary_err=0 q=0 qovr=0
[I2C] init=0 gate=0 whoami=0x140e0 wr=0 wrseen=0x27 addr=0x5a ok=2683 err=0 tmo=0 recov=0 pclk1=200000000 sysclk=400000000
[CLK] cpu=800000000 sysb=400000000 pclk1=200000000
[DRV] init=0 id=7 mode=0x1 lib=0x2 seq=0x1 odc=0x8b sts=0xe0 armed=1
[TRG] pulses=59 suppressed=695 cyc=1600 rst=1 rstmode=0x40
[HLT] polls=118 faults=0x0 cfglost=0
[EFF] n=5 last=58539 min=58539 max=58760 late=0 stuck=0
[DWT] ok=1 cyc=901014158 cyc_per_ms=800001
[HB] up_ms=125801 frames=5962 inf=5962 hazard=760 canary_err=0 q=0 qovr=0
[I2C] init=0 gate=0 whoami=0x140e0 wr=0 wrseen=0x27 addr=0x5a ok=2685 err=0 tmo=0 recov=0 pclk1=200000000 sysclk=400000000
[CLK] cpu=800000000 sysb=400000000 pclk1=200000000
[DRV] init=0 id=7 mode=0x1 lib=0x2 seq=0x1 odc=0x8b sts=0xe0 armed=1
[TRG] pulses=59 suppressed=701 cyc=1600 rst=1 rstmode=0x40
[HLT] polls=119 faults=0x0 cfglost=0
[EFF] n=5 last=58539 min=58539 max=58760 late=0 stuck=0
[DWT] ok=1 cyc=1737812322 cyc_per_ms=799998
[HB] up_ms=126847 frames=6012 inf=6012 hazard=760 canary_err=0 q=0 qovr=0
[I2C] init=0 gate=0 whoami=0x140e0 wr=0 wrseen=0x27 addr=0x5a ok=2687 err=0 tmo=0 recov=0 pclk1=200000000 sysclk=400000000
[CLK] cpu=800000000 sysb=400000000 pclk1=200000000
[DRV] init=0 id=7 mode=0x1 lib=0x2 seq=0x1 odc=0x8b sts=0xe0 armed=1
[TRG] pulses=59 suppressed=701 cyc=1600 rst=1 rstmode=0x40
[HLT] polls=120 faults=0x0 cfglost=0
[EFF] n=5 last=58539 min=58539 max=58760 late=0 stuck=0
[DWT] ok=1 cyc=2574612406 cyc_per_ms=800000
[HB] up_ms=127893 frames=6062 inf=6062 hazard=760 canary_err=0 q=0 qovr=0
[I2C] init=0 gate=0 whoami=0x140e0 wr=0 wrseen=0x27 addr=0x5a ok=2689 err=0 tmo=0 recov=0 pclk1=200000000 sysclk=400000000
[CLK] cpu=800000000 sysb=400000000 pclk1=200000000
[DRV] init=0 id=7 mode=0x1 lib=0x2 seq=0x1 odc=0x8b sts=0xe0 armed=1
[TRG] pulses=59 suppressed=701 cyc=1600 rst=1 rstmode=0x40
[HLT] polls=121 faults=0x0 cfglost=0
[EFF] n=5 last=58539 min=58539 max=58760 late=0 stuck=0
[DWT] ok=1 cyc=3411412346 cyc_per_ms=799999
[HB] up_ms=128939 frames=6112 inf=6112 hazard=760 canary_err=0 q=0 qovr=0
[I2C] init=0 gate=0 whoami=0x140e0 wr=0 wrseen=0x27 addr=0x5a ok=2691 err=0 tmo=0 recov=0 pclk1=200000000 sysclk=400000000
[CLK] cpu=800000000 sysb=400000000 pclk1=200000000
[DRV] init=0 id=7 mode=0x1 lib=0x2 seq=0x1 odc=0x8b sts=0xe0 armed=1
[TRG] pulses=59 suppressed=701 cyc=1600 rst=1 rstmode=0x40
[HLT] polls=122 faults=0x0 cfglost=0
[EFF] n=5 last=58539 min=58539 max=58760 late=0 stuck=0
[DWT] ok=1 cyc=4248212402 cyc_per_ms=800000
[HB] up_ms=129985 frames=6162 inf=6162 hazard=760 canary_err=0 q=0 qovr=0
[I2C] init=0 gate=0 whoami=0x140e0 wr=0 wrseen=0x27 addr=0x5a ok=2693 err=0 tmo=0 recov=0 pclk1=200000000 sysclk=400000000
[CLK] cpu=800000000 sysb=400000000 pclk1=200000000
[DRV] init=0 id=7 mode=0x1 lib=0x2 seq=0x1 odc=0x8b sts=0xe0 armed=1
[TRG] pulses=59 suppressed=701 cyc=1600 rst=1 rstmode=0x40
[HLT] polls=123 faults=0x0 cfglost=0
[EFF] n=5 last=58539 min=58539 max=58760 late=0 stuck=0
[DWT] ok=1 cyc=790045046 cyc_per_ms=799999
[HB] up_ms=131031 frames=6212 inf=6212 hazard=772 canary_err=0 q=0 qovr=0
[I2C] init=0 gate=0 whoami=0x140e0 wr=0 wrseen=0x27 addr=0x5a ok=2695 err=0 tmo=0 recov=0 pclk1=200000000 sysclk=400000000
[CLK] cpu=800000000 sysb=400000000 pclk1=200000000
[DRV] init=0 id=7 mode=0x1 lib=0x2 seq=0x1 odc=0x8b sts=0xe0 armed=1
[TRG] pulses=60 suppressed=713 cyc=1600 rst=1 rstmode=0x40
[HLT] polls=124 faults=0x0 cfglost=0
[EFF] n=5 last=58539 min=58539 max=58760 late=0 stuck=0
[DWT] ok=1 cyc=1626846286 cyc_per_ms=800001
[HB] up_ms=132077 frames=6261 inf=6261 hazard=800 canary_err=0 q=0 qovr=0
[I2C] init=0 gate=0 whoami=0x140e0 wr=0 wrseen=0x27 addr=0x5a ok=2697 err=0 tmo=0 recov=0 pclk1=200000000 sysclk=400000000
[CLK] cpu=800000000 sysb=400000000 pclk1=200000000
[DRV] init=0 id=7 mode=0x1 lib=0x2 seq=0x1 odc=0x8b sts=0xe0 armed=1
[TRG] pulses=62 suppressed=738 cyc=1600 rst=1 rstmode=0x40
[HLT] polls=125 faults=0x0 cfglost=0
[EFF] n=5 last=58539 min=58539 max=58760 late=0 stuck=0
[DWT] ok=1 cyc=2463645042 cyc_per_ms=799998
[HB] up_ms=133123 frames=6311 inf=6311 hazard=800 canary_err=0 q=0 qovr=0
[I2C] init=0 gate=0 whoami=0x140e0 wr=0 wrseen=0x27 addr=0x5a ok=2699 err=0 tmo=0 recov=0 pclk1=200000000 sysclk=400000000
[CLK] cpu=800000000 sysb=400000000 pclk1=200000000
[DRV] init=0 id=7 mode=0x1 lib=0x2 seq=0x1 odc=0x8b sts=0xe0 armed=1
[TRG] pulses=62 suppressed=738 cyc=1600 rst=1 rstmode=0x40
[HLT] polls=126 faults=0x0 cfglost=0
[EFF] n=5 last=58539 min=58539 max=58760 late=0 stuck=0
[DWT] ok=1 cyc=3300445078 cyc_per_ms=800000
[HB] up_ms=134169 frames=6361 inf=6361 hazard=800 canary_err=0 q=0 qovr=0
[I2C] init=0 gate=0 whoami=0x140e0 wr=0 wrseen=0x27 addr=0x5a ok=2701 err=0 tmo=0 recov=0 pclk1=200000000 sysclk=400000000
[CLK] cpu=800000000 sysb=400000000 pclk1=200000000
[DRV] init=0 id=7 mode=0x1 lib=0x2 seq=0x1 odc=0x8b sts=0xe0 armed=1
[TRG] pulses=62 suppressed=738 cyc=1600 rst=1 rstmode=0x40
[HLT] polls=127 faults=0x0 cfglost=0
[EFF] n=5 last=58539 min=58539 max=58760 late=0 stuck=0
[DWT] ok=1 cyc=4137245018 cyc_per_ms=799999
[HB] up_ms=135215 frames=6411 inf=6411 hazard=800 canary_err=0 q=0 qovr=0
[I2C] init=0 gate=0 whoami=0x140e0 wr=0 wrseen=0x27 addr=0x5a ok=2703 err=0 tmo=0 recov=0 pclk1=200000000 sysclk=400000000
[CLK] cpu=800000000 sysb=400000000 pclk1=200000000
[DRV] init=0 id=7 mode=0x1 lib=0x2 seq=0x1 odc=0x8b sts=0xe0 armed=1
[TRG] pulses=62 suppressed=738 cyc=1600 rst=1 rstmode=0x40
[HLT] polls=128 faults=0x0 cfglost=0
[EFF] n=5 last=58539 min=58539 max=58760 late=0 stuck=0
[DWT] ok=1 cyc=679077782 cyc_per_ms=800000
[HB] up_ms=136261 frames=6461 inf=6461 hazard=800 canary_err=0 q=0 qovr=0
[I2C] init=0 gate=0 whoami=0x140e0 wr=0 wrseen=0x27 addr=0x5a ok=2705 err=0 tmo=0 recov=0 pclk1=200000000 sysclk=400000000
[CLK] cpu=800000000 sysb=400000000 pclk1=200000000
[DRV] init=0 id=7 mode=0x1 lib=0x2 seq=0x1 odc=0x8b sts=0xe0 armed=1
[TRG] pulses=62 suppressed=738 cyc=1600 rst=1 rstmode=0x40
[HLT] polls=129 faults=0x0 cfglost=0
[EFF] n=5 last=58539 min=58539 max=58760 late=0 stuck=0
[DWT] ok=1 cyc=1515877734 cyc_per_ms=799999
[HB] up_ms=137307 frames=6510 inf=6510 hazard=800 canary_err=0 q=0 qovr=0
[I2C] init=0 gate=0 whoami=0x140e0 wr=0 wrseen=0x27 addr=0x5a ok=2707 err=0 tmo=0 recov=0 pclk1=200000000 sysclk=400000000
[CLK] cpu=800000000 sysb=400000000 pclk1=200000000
[DRV] init=0 id=7 mode=0x1 lib=0x2 seq=0x1 odc=0x8b sts=0xe0 armed=1
[TRG] pulses=62 suppressed=738 cyc=1600 rst=1 rstmode=0x40
[HLT] polls=130 faults=0x0 cfglost=0
[EFF] n=5 last=58539 min=58539 max=58760 late=0 stuck=0
[DWT] ok=1 cyc=2352677714 cyc_per_ms=799999
[HB] up_ms=138353 frames=6560 inf=6560 hazard=840 canary_err=0 q=0 qovr=0
[I2C] init=0 gate=0 whoami=0x140e0 wr=0 wrseen=0x27 addr=0x5a ok=2709 err=0 tmo=0 recov=0 pclk1=200000000 sysclk=400000000
[CLK] cpu=800000000 sysb=400000000 pclk1=200000000
[DRV] init=0 id=7 mode=0x1 lib=0x2 seq=0x1 odc=0x8b sts=0xe0 armed=1
[TRG] pulses=65 suppressed=775 cyc=1600 rst=1 rstmode=0x40
[HLT] polls=131 faults=0x0 cfglost=0
[EFF] n=5 last=58539 min=58539 max=58760 late=0 stuck=0
[DWT] ok=1 cyc=3189477798 cyc_per_ms=800000
[HB] up_ms=139399 frames=6610 inf=6610 hazard=840 canary_err=0 q=0 qovr=0
[I2C] init=0 gate=0 whoami=0x140e0 wr=0 wrseen=0x27 addr=0x5a ok=2711 err=0 tmo=0 recov=0 pclk1=200000000 sysclk=400000000
[CLK] cpu=800000000 sysb=400000000 pclk1=200000000
[DRV] init=0 id=7 mode=0x1 lib=0x2 seq=0x1 odc=0x8b sts=0xe0 armed=1
[TRG] pulses=65 suppressed=775 cyc=1600 rst=1 rstmode=0x40
[HLT] polls=132 faults=0x0 cfglost=0
[EFF] n=5 last=58539 min=58539 max=58760 late=0 stuck=0
[DWT] ok=1 cyc=4026277754 cyc_per_ms=799999
[HB] up_ms=140445 frames=6660 inf=6660 hazard=840 canary_err=0 q=0 qovr=0
[I2C] init=0 gate=0 whoami=0x140e0 wr=0 wrseen=0x27 addr=0x5a ok=2713 err=0 tmo=0 recov=0 pclk1=200000000 sysclk=400000000
[CLK] cpu=800000000 sysb=400000000 pclk1=200000000
[DRV] init=0 id=7 mode=0x1 lib=0x2 seq=0x1 odc=0x8b sts=0xe0 armed=1
[TRG] pulses=65 suppressed=775 cyc=1600 rst=1 rstmode=0x40
[HLT] polls=133 faults=0x0 cfglost=0
[EFF] n=5 last=58539 min=58539 max=58760 late=0 stuck=0
[DWT] ok=1 cyc=568110514 cyc_per_ms=800000
[HB] up_ms=141491 frames=6710 inf=6710 hazard=840 canary_err=0 q=0 qovr=0
[I2C] init=0 gate=0 whoami=0x140e0 wr=0 wrseen=0x27 addr=0x5a ok=2715 err=0 tmo=0 recov=0 pclk1=200000000 sysclk=400000000
[CLK] cpu=800000000 sysb=400000000 pclk1=200000000
[DRV] init=0 id=7 mode=0x1 lib=0x2 seq=0x1 odc=0x8b sts=0xe0 armed=1
[TRG] pulses=65 suppressed=775 cyc=1600 rst=1 rstmode=0x40
[HLT] polls=134 faults=0x0 cfglost=0
[EFF] n=5 last=58539 min=58539 max=58760 late=0 stuck=0
[DWT] ok=1 cyc=1404910458 cyc_per_ms=799999
[HB] up_ms=142537 frames=6759 inf=6759 hazard=840 canary_err=0 q=0 qovr=0
[I2C] init=0 gate=0 whoami=0x140e0 wr=0 wrseen=0x27 addr=0x5a ok=2717 err=0 tmo=0 recov=0 pclk1=200000000 sysclk=400000000
[CLK] cpu=800000000 sysb=400000000 pclk1=200000000
[DRV] init=0 id=7 mode=0x1 lib=0x2 seq=0x1 odc=0x8b sts=0xe0 armed=1
[TRG] pulses=65 suppressed=775 cyc=1600 rst=1 rstmode=0x40
[HLT] polls=135 faults=0x0 cfglost=0
[EFF] n=5 last=58539 min=58539 max=58760 late=0 stuck=0
[DWT] ok=1 cyc=2241710446 cyc_per_ms=799999
[HB] up_ms=143583 frames=6809 inf=6809 hazard=840 canary_err=0 q=0 qovr=0
[I2C] init=0 gate=0 whoami=0x140e0 wr=0 wrseen=0x27 addr=0x5a ok=2719 err=0 tmo=0 recov=0 pclk1=200000000 sysclk=400000000
[CLK] cpu=800000000 sysb=400000000 pclk1=200000000
[DRV] init=0 id=7 mode=0x1 lib=0x2 seq=0x1 odc=0x8b sts=0xe0 armed=1
[TRG] pulses=65 suppressed=775 cyc=1600 rst=1 rstmode=0x40
[HLT] polls=136 faults=0x0 cfglost=0
[EFF] n=5 last=58539 min=58539 max=58760 late=0 stuck=0
[DWT] ok=1 cyc=3078510430 cyc_per_ms=799999
[HB] up_ms=144629 frames=6859 inf=6859 hazard=859 canary_err=0 q=0 qovr=0
[I2C] init=0 gate=0 whoami=0x140e0 wr=0 wrseen=0x27 addr=0x5a ok=2721 err=0 tmo=0 recov=0 pclk1=200000000 sysclk=400000000
[CLK] cpu=800000000 sysb=400000000 pclk1=200000000
[DRV] init=0 id=7 mode=0x1 lib=0x2 seq=0x1 odc=0x8b sts=0xe0 armed=1
[TRG] pulses=67 suppressed=793 cyc=1600 rst=1 rstmode=0x40
[HLT] polls=137 faults=0x0 cfglost=0
[EFF] n=5 last=58539 min=58539 max=58760 late=0 stuck=0
[DWT] ok=1 cyc=3915312258 cyc_per_ms=800001
[HB] up_ms=145675 frames=6909 inf=6909 hazard=880 canary_err=0 q=0 qovr=0
[I2C] init=0 gate=0 whoami=0x140e0 wr=0 wrseen=0x27 addr=0x5a ok=2723 err=0 tmo=0 recov=0 pclk1=200000000 sysclk=400000000
[CLK] cpu=800000000 sysb=400000000 pclk1=200000000
[DRV] init=0 id=7 mode=0x1 lib=0x2 seq=0x1 odc=0x8b sts=0xe0 armed=1
[TRG] pulses=68 suppressed=812 cyc=1600 rst=1 rstmode=0x40
[HLT] polls=138 faults=0x0 cfglost=0
[EFF] n=5 last=58539 min=58539 max=58760 late=0 stuck=0
[DWT] ok=1 cyc=457143158 cyc_per_ms=799998
[HB] up_ms=146721 frames=6959 inf=6959 hazard=880 canary_err=0 q=0 qovr=0
[I2C] init=0 gate=0 whoami=0x140e0 wr=0 wrseen=0x27 addr=0x5a ok=2725 err=0 tmo=0 recov=0 pclk1=200000000 sysclk=400000000
[CLK] cpu=800000000 sysb=400000000 pclk1=200000000
[DRV] init=0 id=7 mode=0x1 lib=0x2 seq=0x1 odc=0x8b sts=0xe0 armed=1
[TRG] pulses=68 suppressed=812 cyc=1600 rst=1 rstmode=0x40
[HLT] polls=139 faults=0x0 cfglost=0
[EFF] n=5 last=58539 min=58539 max=58760 late=0 stuck=0
[DWT] ok=1 cyc=1293943202 cyc_per_ms=800000
[HB] up_ms=147767 frames=7008 inf=7008 hazard=880 canary_err=0 q=0 qovr=0
[I2C] init=0 gate=0 whoami=0x140e0 wr=0 wrseen=0x27 addr=0x5a ok=2727 err=0 tmo=0 recov=0 pclk1=200000000 sysclk=400000000
[CLK] cpu=800000000 sysb=400000000 pclk1=200000000
[DRV] init=0 id=7 mode=0x1 lib=0x2 seq=0x1 odc=0x8b sts=0xe0 armed=1
[TRG] pulses=68 suppressed=812 cyc=1600 rst=1 rstmode=0x40
[HLT] polls=140 faults=0x0 cfglost=0
[EFF] n=5 last=58539 min=58539 max=58760 late=0 stuck=0
[DWT] ok=1 cyc=2130743182 cyc_per_ms=799999
[HB] up_ms=148813 frames=7058 inf=7058 hazard=880 canary_err=0 q=0 qovr=0
[I2C] init=0 gate=0 whoami=0x140e0 wr=0 wrseen=0x27 addr=0x5a ok=2729 err=0 tmo=0 recov=0 pclk1=200000000 sysclk=400000000
[CLK] cpu=800000000 sysb=400000000 pclk1=200000000
[DRV] init=0 id=7 mode=0x1 lib=0x2 seq=0x1 odc=0x8b sts=0xe0 armed=1
[TRG] pulses=68 suppressed=812 cyc=1600 rst=1 rstmode=0x40
[HLT] polls=141 faults=0x0 cfglost=0
[EFF] n=5 last=58539 min=58539 max=58760 late=0 stuck=0
[DWT] ok=1 cyc=2967543166 cyc_per_ms=799999
[HB] up_ms=149859 frames=7108 inf=7108 hazard=880 canary_err=0 q=0 qovr=0
[I2C] init=0 gate=0 whoami=0x140e0 wr=0 wrseen=0x27 addr=0x5a ok=2731 err=0 tmo=0 recov=0 pclk1=200000000 sysclk=400000000
[CLK] cpu=800000000 sysb=400000000 pclk1=200000000
[DRV] init=0 id=7 mode=0x1 lib=0x2 seq=0x1 odc=0x8b sts=0xe0 armed=1
[TRG] pulses=68 suppressed=812 cyc=1600 rst=1 rstmode=0x40
[HLT] polls=142 faults=0x0 cfglost=0
[EFF] n=5 last=58539 min=58539 max=58760 late=0 stuck=0
[DWT] ok=1 cyc=3804343214 cyc_per_ms=800000
[HB] up_ms=150905 frames=7158 inf=7158 hazard=880 canary_err=0 q=0 qovr=0
[I2C] init=0 gate=0 whoami=0x140e0 wr=0 wrseen=0x27 addr=0x5a ok=2733 err=0 tmo=0 recov=0 pclk1=200000000 sysclk=400000000
[CLK] cpu=800000000 sysb=400000000 pclk1=200000000
[DRV] init=0 id=7 mode=0x1 lib=0x2 seq=0x1 odc=0x8b sts=0xe0 armed=1
[TRG] pulses=68 suppressed=812 cyc=1600 rst=1 rstmode=0x40
[HLT] polls=143 faults=0x0 cfglost=0
[EFF] n=5 last=58539 min=58539 max=58760 late=0 stuck=0
[DWT] ok=1 cyc=346175850 cyc_per_ms=799999
[HB] up_ms=151951 frames=7208 inf=7208 hazard=920 canary_err=0 q=0 qovr=0
[I2C] init=0 gate=0 whoami=0x140e0 wr=0 wrseen=0x27 addr=0x5a ok=2735 err=0 tmo=0 recov=0 pclk1=200000000 sysclk=400000000
[CLK] cpu=800000000 sysb=400000000 pclk1=200000000
[DRV] init=0 id=7 mode=0x1 lib=0x2 seq=0x1 odc=0x8b sts=0xe0 armed=1
[TRG] pulses=71 suppressed=849 cyc=1600 rst=1 rstmode=0x40
[HLT] polls=144 faults=0x0 cfglost=0
[EFF] n=5 last=58539 min=58539 max=58760 late=0 stuck=0
[DWT] ok=1 cyc=1182975894 cyc_per_ms=800000
[HB] up_ms=152997 frames=7258 inf=7258 hazard=920 canary_err=0 q=0 qovr=0
[I2C] init=0 gate=0 whoami=0x140e0 wr=0 wrseen=0x27 addr=0x5a ok=2737 err=0 tmo=0 recov=0 pclk1=200000000 sysclk=400000000
[CLK] cpu=800000000 sysb=400000000 pclk1=200000000
[DRV] init=0 id=7 mode=0x1 lib=0x2 seq=0x1 odc=0x8b sts=0xe0 armed=1
[TRG] pulses=71 suppressed=849 cyc=1600 rst=1 rstmode=0x40
[HLT] polls=145 faults=0x0 cfglost=0
[EFF] n=5 last=58539 min=58539 max=58760 late=0 stuck=0
[DWT] ok=1 cyc=2019775162 cyc_per_ms=799999
[HB] up_ms=154043 frames=7307 inf=7307 hazard=920 canary_err=0 q=0 qovr=0
[I2C] init=0 gate=0 whoami=0x140e0 wr=0 wrseen=0x27 addr=0x5a ok=2739 err=0 tmo=0 recov=0 pclk1=200000000 sysclk=400000000
[CLK] cpu=800000000 sysb=400000000 pclk1=200000000
[DRV] init=0 id=7 mode=0x1 lib=0x2 seq=0x1 odc=0x8b sts=0xe0 armed=1
[TRG] pulses=71 suppressed=849 cyc=1600 rst=1 rstmode=0x40
[HLT] polls=146 faults=0x0 cfglost=0
[EFF] n=5 last=58539 min=58539 max=58760 late=0 stuck=0
[DWT] ok=1 cyc=2856575866 cyc_per_ms=800000
[HB] up_ms=155089 frames=7357 inf=7357 hazard=920 canary_err=0 q=0 qovr=0
[I2C] init=0 gate=0 whoami=0x140e0 wr=0 wrseen=0x27 addr=0x5a ok=2741 err=0 tmo=0 recov=0 pclk1=200000000 sysclk=400000000
[CLK] cpu=800000000 sysb=400000000 pclk1=200000000
[DRV] init=0 id=7 mode=0x1 lib=0x2 seq=0x1 odc=0x8b sts=0xe0 armed=1
[TRG] pulses=71 suppressed=849 cyc=1600 rst=1 rstmode=0x40
[HLT] polls=147 faults=0x0 cfglost=0
[EFF] n=5 last=58539 min=58539 max=58760 late=0 stuck=0
[DWT] ok=1 cyc=3693375918 cyc_per_ms=800000
[HB] up_ms=156135 frames=7407 inf=7407 hazard=920 canary_err=0 q=0 qovr=0
[I2C] init=0 gate=0 whoami=0x140e0 wr=0 wrseen=0x27 addr=0x5a ok=2743 err=0 tmo=0 recov=0 pclk1=200000000 sysclk=400000000
[CLK] cpu=800000000 sysb=400000000 pclk1=200000000
[DRV] init=0 id=7 mode=0x1 lib=0x2 seq=0x1 odc=0x8b sts=0xe0 armed=1
[TRG] pulses=71 suppressed=849 cyc=1600 rst=1 rstmode=0x40
[HLT] polls=148 faults=0x0 cfglost=0
[EFF] n=5 last=58539 min=58539 max=58760 late=0 stuck=0
[DWT] ok=1 cyc=235208570 cyc_per_ms=799999
[HB] up_ms=157181 frames=7457 inf=7457 hazard=920 canary_err=0 q=0 qovr=0
[I2C] init=0 gate=0 whoami=0x140e0 wr=0 wrseen=0x27 addr=0x5a ok=2745 err=0 tmo=0 recov=0 pclk1=200000000 sysclk=400000000
[CLK] cpu=800000000 sysb=400000000 pclk1=200000000
[DRV] init=0 id=7 mode=0x1 lib=0x2 seq=0x1 odc=0x8b sts=0xe0 armed=1
[TRG] pulses=71 suppressed=849 cyc=1600 rst=1 rstmode=0x40
[HLT] polls=149 faults=0x0 cfglost=0
[EFF] n=5 last=58539 min=58539 max=58760 late=0 stuck=0
[DWT] ok=1 cyc=1072008622 cyc_per_ms=800000
[HB] up_ms=158227 frames=7507 inf=7507 hazard=947 canary_err=0 q=0 qovr=0
[I2C] init=0 gate=0 whoami=0x140e0 wr=0 wrseen=0x27 addr=0x5a ok=2747 err=0 tmo=0 recov=0 pclk1=200000000 sysclk=400000000
[CLK] cpu=800000000 sysb=400000000 pclk1=200000000
[DRV] init=0 id=7 mode=0x1 lib=0x2 seq=0x1 odc=0x8b sts=0xe0 armed=1
[TRG] pulses=73 suppressed=875 cyc=1600 rst=1 rstmode=0x40
[HLT] polls=150 faults=0x0 cfglost=0
[EFF] n=5 last=58539 min=58539 max=58760 late=0 stuck=0
[DWT] ok=1 cyc=1908812842 cyc_per_ms=800004
[HB] up_ms=159273 frames=7556 inf=7556 hazard=960 canary_err=0 q=0 qovr=0
[I2C] init=0 gate=0 whoami=0x140e0 wr=0 wrseen=0x27 addr=0x5a ok=2749 err=0 tmo=0 recov=0 pclk1=200000000 sysclk=400000000
[CLK] cpu=800000000 sysb=400000000 pclk1=200000000
[DRV] init=0 id=7 mode=0x1 lib=0x2 seq=0x1 odc=0x8b sts=0xe0 armed=1
[TRG] pulses=74 suppressed=886 cyc=1600 rst=1 rstmode=0x40
[HLT] polls=151 faults=0x0 cfglost=0
[EFF] n=5 last=58539 min=58539 max=58760 late=0 stuck=0
[DWT] ok=1 cyc=2745608562 cyc_per_ms=799995
[HB] up_ms=160319 frames=7606 inf=7606 hazard=960 canary_err=0 q=0 qovr=0
[I2C] init=0 gate=0 whoami=0x140e0 wr=0 wrseen=0x27 addr=0x5a ok=2751 err=0 tmo=0 recov=0 pclk1=200000000 sysclk=400000000
[CLK] cpu=800000000 sysb=400000000 pclk1=200000000
[DRV] init=0 id=7 mode=0x1 lib=0x2 seq=0x1 odc=0x8b sts=0xe0 armed=1
[TRG] pulses=74 suppressed=886 cyc=1600 rst=1 rstmode=0x40
[HLT] polls=152 faults=0x0 cfglost=0
[EFF] n=5 last=58539 min=58539 max=58760 late=0 stuck=0
[DWT] ok=1 cyc=3582408546 cyc_per_ms=799999
[HB] up_ms=161365 frames=7656 inf=7656 hazard=960 canary_err=0 q=0 qovr=0
[I2C] init=0 gate=0 whoami=0x140e0 wr=0 wrseen=0x27 addr=0x5a ok=2753 err=0 tmo=0 recov=0 pclk1=200000000 sysclk=400000000
[CLK] cpu=800000000 sysb=400000000 pclk1=200000000
[DRV] init=0 id=7 mode=0x1 lib=0x2 seq=0x1 odc=0x8b sts=0xe0 armed=1
[TRG] pulses=74 suppressed=886 cyc=1600 rst=1 rstmode=0x40
[HLT] polls=153 faults=0x0 cfglost=0
[EFF] n=5 last=58539 min=58539 max=58760 late=0 stuck=0
[DWT] ok=1 cyc=124241294 cyc_per_ms=800000
[HB] up_ms=162411 frames=7706 inf=7706 hazard=960 canary_err=0 q=0 qovr=0
[I2C] init=0 gate=0 whoami=0x140e0 wr=0 wrseen=0x27 addr=0x5a ok=2755 err=0 tmo=0 recov=0 pclk1=200000000 sysclk=400000000
[CLK] cpu=800000000 sysb=400000000 pclk1=200000000
[DRV] init=0 id=7 mode=0x1 lib=0x2 seq=0x1 odc=0x8b sts=0xe0 armed=1
[TRG] pulses=74 suppressed=886 cyc=1600 rst=1 rstmode=0x40
[HLT] polls=154 faults=0x0 cfglost=0
[EFF] n=5 last=58539 min=58539 max=58760 late=0 stuck=0
[DWT] ok=1 cyc=961041330 cyc_per_ms=800000
[HB] up_ms=163457 frames=7756 inf=7756 hazard=960 canary_err=0 q=0 qovr=0
[I2C] init=0 gate=0 whoami=0x140e0 wr=0 wrseen=0x27 addr=0x5a ok=2757 err=0 tmo=0 recov=0 pclk1=200000000 sysclk=400000000
[CLK] cpu=800000000 sysb=400000000 pclk1=200000000
[DRV] init=0 id=7 mode=0x1 lib=0x2 seq=0x1 odc=0x8b sts=0xe0 armed=1
[TRG] pulses=74 suppressed=886 cyc=1600 rst=1 rstmode=0x40
[HLT] polls=155 faults=0x0 cfglost=0
[EFF] n=5 last=58539 min=58539 max=58760 late=0 stuck=0
[DWT] ok=1 cyc=1797841274 cyc_per_ms=799999
[HB] up_ms=164503 frames=7805 inf=7805 hazard=965 canary_err=0 q=0 qovr=0
[I2C] init=0 gate=0 whoami=0x140e0 wr=0 wrseen=0x27 addr=0x5a ok=2759 err=0 tmo=0 recov=0 pclk1=200000000 sysclk=400000000
[CLK] cpu=800000000 sysb=400000000 pclk1=200000000
[DRV] init=0 id=7 mode=0x1 lib=0x2 seq=0x1 odc=0x8b sts=0xe0 armed=1
[TRG] pulses=75 suppressed=892 cyc=1600 rst=1 rstmode=0x40
[HLT] polls=156 faults=0x0 cfglost=0
[EFF] n=5 last=58539 min=58539 max=58760 late=0 stuck=0
[DWT] ok=1 cyc=2634643074 cyc_per_ms=800001
[HB] up_ms=165549 frames=7855 inf=7855 hazard=1000 canary_err=0 q=0 qovr=0
[I2C] init=0 gate=0 whoami=0x140e0 wr=0 wrseen=0x27 addr=0x5a ok=2761 err=0 tmo=0 recov=0 pclk1=200000000 sysclk=400000000
[CLK] cpu=800000000 sysb=400000000 pclk1=200000000
[DRV] init=0 id=7 mode=0x1 lib=0x2 seq=0x1 odc=0x8b sts=0xe0 armed=1
[TRG] pulses=77 suppressed=923 cyc=1600 rst=1 rstmode=0x40
[HLT] polls=157 faults=0x0 cfglost=0
[EFF] n=5 last=58539 min=58539 max=58760 late=0 stuck=0
[DWT] ok=1 cyc=3471511234 cyc_per_ms=800065
[HB] up_ms=166595 frames=7905 inf=7905 hazard=1000 canary_err=0 q=0 qovr=0
[I2C] init=0 gate=0 whoami=0x140e0 wr=0 wrseen=0x27 addr=0x5a ok=2763 err=0 tmo=0 recov=0 pclk1=200000000 sysclk=400000000
[CLK] cpu=800000000 sysb=400000000 pclk1=200000000
[DRV] init=0 id=7 mode=0x1 lib=0x2 seq=0x1 odc=0x8b sts=0xe0 armed=1
[TRG] pulses=77 suppressed=923 cyc=1600 rst=1 rstmode=0x40
[HLT] polls=158 faults=0x0 cfglost=0
[EFF] n=5 last=58539 min=58539 max=58760 late=0 stuck=0
[DWT] ok=1 cyc=13343986 cyc_per_ms=800000
[HB] up_ms=167641 frames=7955 inf=7955 hazard=1000 canary_err=0 q=0 qovr=0
[I2C] init=0 gate=0 whoami=0x140e0 wr=0 wrseen=0x27 addr=0x5a ok=2765 err=0 tmo=0 recov=0 pclk1=200000000 sysclk=400000000
[CLK] cpu=800000000 sysb=400000000 pclk1=200000000
[DRV] init=0 id=7 mode=0x1 lib=0x2 seq=0x1 odc=0x8b sts=0xe0 armed=1
[TRG] pulses=77 suppressed=923 cyc=1600 rst=1 rstmode=0x40
[HLT] polls=159 faults=0x0 cfglost=0
[EFF] n=5 last=58539 min=58539 max=58760 late=0 stuck=0
[DWT] ok=1 cyc=850144022 cyc_per_ms=800000
[HB] up_ms=168687 frames=8005 inf=8005 hazard=1000 canary_err=0 q=0 qovr=0
[I2C] init=0 gate=0 whoami=0x140e0 wr=0 wrseen=0x27 addr=0x5a ok=2767 err=0 tmo=0 recov=0 pclk1=200000000 sysclk=400000000
[CLK] cpu=800000000 sysb=400000000 pclk1=200000000
[DRV] init=0 id=7 mode=0x1 lib=0x2 seq=0x1 odc=0x8b sts=0xe0 armed=1
[TRG] pulses=77 suppressed=923 cyc=1600 rst=1 rstmode=0x40
[HLT] polls=160 faults=0x0 cfglost=0
[EFF] n=5 last=58539 min=58539 max=58760 late=0 stuck=0
[DWT] ok=1 cyc=1686943958 cyc_per_ms=799999
[HB] up_ms=169733 frames=8054 inf=8054 hazard=1000 canary_err=0 q=0 qovr=0
[I2C] init=0 gate=0 whoami=0x140e0 wr=0 wrseen=0x27 addr=0x5a ok=2769 err=0 tmo=0 recov=0 pclk1=200000000 sysclk=400000000
[CLK] cpu=800000000 sysb=400000000 pclk1=200000000
[DRV] init=0 id=7 mode=0x1 lib=0x2 seq=0x1 odc=0x8b sts=0xe0 armed=1
[TRG] pulses=77 suppressed=923 cyc=1600 rst=1 rstmode=0x40
[HLT] polls=161 faults=0x0 cfglost=0
[EFF] n=5 last=58539 min=58539 max=58760 late=0 stuck=0
[DWT] ok=1 cyc=2523744026 cyc_per_ms=800000
[HB] up_ms=170779 frames=8104 inf=8104 hazard=1000 canary_err=0 q=0 qovr=0
[I2C] init=0 gate=0 whoami=0x140e0 wr=0 wrseen=0x27 addr=0x5a ok=2771 err=0 tmo=0 recov=0 pclk1=200000000 sysclk=400000000
[CLK] cpu=800000000 sysb=400000000 pclk1=200000000
[DRV] init=0 id=7 mode=0x1 lib=0x2 seq=0x1 odc=0x8b sts=0xe0 armed=1
[TRG] pulses=77 suppressed=923 cyc=1600 rst=1 rstmode=0x40
[HLT] polls=162 faults=0x0 cfglost=0
[EFF] n=5 last=58539 min=58539 max=58760 late=0 stuck=0
[DWT] ok=1 cyc=3360544002 cyc_per_ms=799999
[HB] up_ms=171825 frames=8154 inf=8154 hazard=1034 canary_err=0 q=0 qovr=0
[I2C] init=0 gate=0 whoami=0x140e0 wr=0 wrseen=0x27 addr=0x5a ok=2773 err=0 tmo=0 recov=0 pclk1=200000000 sysclk=400000000
[CLK] cpu=800000000 sysb=400000000 pclk1=200000000
[DRV] init=0 id=7 mode=0x1 lib=0x2 seq=0x1 odc=0x8b sts=0xe0 armed=1
[TRG] pulses=80 suppressed=955 cyc=1600 rst=1 rstmode=0x40
[HLT] polls=163 faults=0x0 cfglost=0
[EFF] n=5 last=58539 min=58539 max=58760 late=0 stuck=0
[DWT] ok=1 cyc=4197345838 cyc_per_ms=800001
[HB] up_ms=172871 frames=8204 inf=8204 hazard=1040 canary_err=0 q=0 qovr=0
[I2C] init=0 gate=0 whoami=0x140e0 wr=0 wrseen=0x27 addr=0x5a ok=2775 err=0 tmo=0 recov=0 pclk1=200000000 sysclk=400000000
[CLK] cpu=800000000 sysb=400000000 pclk1=200000000
[DRV] init=0 id=7 mode=0x1 lib=0x2 seq=0x1 odc=0x8b sts=0xe0 armed=1
[TRG] pulses=80 suppressed=960 cyc=1600 rst=1 rstmode=0x40
[HLT] polls=164 faults=0x0 cfglost=0
[EFF] n=5 last=58539 min=58539 max=58760 late=0 stuck=0
[DWT] ok=1 cyc=739176706 cyc_per_ms=799998
[HB] up_ms=173917 frames=8254 inf=8254 hazard=1040 canary_err=0 q=0 qovr=0
[I2C] init=0 gate=0 whoami=0x140e0 wr=0 wrseen=0x27 addr=0x5a ok=2777 err=0 tmo=0 recov=0 pclk1=200000000 sysclk=400000000
[CLK] cpu=800000000 sysb=400000000 pclk1=200000000
[DRV] init=0 id=7 mode=0x1 lib=0x2 seq=0x1 odc=0x8b sts=0xe0 armed=1
[TRG] pulses=80 suppressed=960 cyc=1600 rst=1 rstmode=0x40
[HLT] polls=165 faults=0x0 cfglost=0
[EFF] n=5 last=58539 min=58539 max=58760 late=0 stuck=0
[DWT] ok=1 cyc=1575976650 cyc_per_ms=799999
[HB] up_ms=174963 frames=8304 inf=8304 hazard=1040 canary_err=0 q=0 qovr=0
[I2C] init=0 gate=0 whoami=0x140e0 wr=0 wrseen=0x27 addr=0x5a ok=2779 err=0 tmo=0 recov=0 pclk1=200000000 sysclk=400000000
[CLK] cpu=800000000 sysb=400000000 pclk1=200000000
[DRV] init=0 id=7 mode=0x1 lib=0x2 seq=0x1 odc=0x8b sts=0xe0 armed=1
[TRG] pulses=80 suppressed=960 cyc=1600 rst=1 rstmode=0x40
[HLT] polls=166 faults=0x0 cfglost=0
[EFF] n=5 last=58539 min=58539 max=58760 late=0 stuck=0
[DWT] ok=1 cyc=2412776010 cyc_per_ms=799999
[HB] up_ms=176009 frames=8353 inf=8353 hazard=1040 canary_err=0 q=0 qovr=0
[I2C] init=0 gate=0 whoami=0x140e0 wr=0 wrseen=0x27 addr=0x5a ok=2781 err=0 tmo=0 recov=0 pclk1=200000000 sysclk=400000000
[CLK] cpu=800000000 sysb=400000000 pclk1=200000000
[DRV] init=0 id=7 mode=0x1 lib=0x2 seq=0x1 odc=0x8b sts=0xe0 armed=1
[TRG] pulses=80 suppressed=960 cyc=1600 rst=1 rstmode=0x40
[HLT] polls=167 faults=0x0 cfglost=0
[EFF] n=5 last=58539 min=58539 max=58760 late=0 stuck=0
[DWT] ok=1 cyc=3249576714 cyc_per_ms=800000
[HB] up_ms=177055 frames=8403 inf=8403 hazard=1040 canary_err=0 q=0 qovr=0
[I2C] init=0 gate=0 whoami=0x140e0 wr=0 wrseen=0x27 addr=0x5a ok=2783 err=0 tmo=0 recov=0 pclk1=200000000 sysclk=400000000
[CLK] cpu=800000000 sysb=400000000 pclk1=200000000
[DRV] init=0 id=7 mode=0x1 lib=0x2 seq=0x1 odc=0x8b sts=0xe0 armed=1
[TRG] pulses=80 suppressed=960 cyc=1600 rst=1 rstmode=0x40
[HLT] polls=168 faults=0x0 cfglost=0
[EFF] n=5 last=58539 min=58539 max=58760 late=0 stuck=0
[DWT] ok=1 cyc=4086376670 cyc_per_ms=799999
[HB] up_ms=178101 frames=8453 inf=8453 hazard=1053 canary_err=0 q=0 qovr=0
[I2C] init=0 gate=0 whoami=0x140e0 wr=0 wrseen=0x27 addr=0x5a ok=2785 err=0 tmo=0 recov=0 pclk1=200000000 sysclk=400000000
[CLK] cpu=800000000 sysb=400000000 pclk1=200000000
[DRV] init=0 id=7 mode=0x1 lib=0x2 seq=0x1 odc=0x8b sts=0xe0 armed=1
[TRG] pulses=81 suppressed=973 cyc=1600 rst=1 rstmode=0x40
[HLT] polls=169 faults=0x0 cfglost=0
[EFF] n=5 last=58539 min=58539 max=58760 late=0 stuck=0
[DWT] ok=1 cyc=628213646 cyc_per_ms=800004
[HB] up_ms=179147 frames=8503 inf=8503 hazard=1080 canary_err=0 q=0 qovr=0
[I2C] init=0 gate=0 whoami=0x140e0 wr=0 wrseen=0x27 addr=0x5a ok=2787 err=0 tmo=0 recov=0 pclk1=200000000 sysclk=400000000
[CLK] cpu=800000000 sysb=400000000 pclk1=200000000
[DRV] init=0 id=7 mode=0x1 lib=0x2 seq=0x1 odc=0x8b sts=0xe0 armed=1
[TRG] pulses=83 suppressed=997 cyc=1600 rst=1 rstmode=0x40
[HLT] polls=170 faults=0x0 cfglost=0
[EFF] n=5 last=58539 min=58539 max=58760 late=0 stuck=0
[DWT] ok=1 cyc=1465009358 cyc_per_ms=799995
[HB] up_ms=180193 frames=8553 inf=8553 hazard=1080 canary_err=0 q=0 qovr=0
[I2C] init=0 gate=0 whoami=0x140e0 wr=0 wrseen=0x27 addr=0x5a ok=2789 err=0 tmo=0 recov=0 pclk1=200000000 sysclk=400000000
[CLK] cpu=800000000 sysb=400000000 pclk1=200000000
[DRV] init=0 id=7 mode=0x1 lib=0x2 seq=0x1 odc=0x8b sts=0xe0 armed=1
[TRG] pulses=83 suppressed=997 cyc=1600 rst=1 rstmode=0x40
[HLT] polls=171 faults=0x0 cfglost=0
[EFF] n=5 last=58539 min=58539 max=58760 late=0 stuck=0
[DWT] ok=1 cyc=2301809398 cyc_per_ms=800000
[HB] up_ms=181239 frames=8602 inf=8602 hazard=1080 canary_err=0 q=0 qovr=0
[I2C] init=0 gate=0 whoami=0x140e0 wr=0 wrseen=0x27 addr=0x5a ok=2791 err=0 tmo=0 recov=0 pclk1=200000000 sysclk=400000000
[CLK] cpu=800000000 sysb=400000000 pclk1=200000000
[DRV] init=0 id=7 mode=0x1 lib=0x2 seq=0x1 odc=0x8b sts=0xe0 armed=1
[TRG] pulses=83 suppressed=997 cyc=1600 rst=1 rstmode=0x40
[HLT] polls=172 faults=0x0 cfglost=0
[EFF] n=5 last=58539 min=58539 max=58760 late=0 stuck=0
[DWT] ok=1 cyc=3138609374 cyc_per_ms=799999
[HB] up_ms=182285 frames=8652 inf=8652 hazard=1080 canary_err=0 q=0 qovr=0
[I2C] init=0 gate=0 whoami=0x140e0 wr=0 wrseen=0x27 addr=0x5a ok=2793 err=0 tmo=0 recov=0 pclk1=200000000 sysclk=400000000
[CLK] cpu=800000000 sysb=400000000 pclk1=200000000
[DRV] init=0 id=7 mode=0x1 lib=0x2 seq=0x1 odc=0x8b sts=0xe0 armed=1
[TRG] pulses=83 suppressed=997 cyc=1600 rst=1 rstmode=0x40
[HLT] polls=173 faults=0x0 cfglost=0
[EFF] n=5 last=58539 min=58539 max=58760 late=0 stuck=0
[DWT] ok=1 cyc=3975409358 cyc_per_ms=799999
[HB] up_ms=183331 frames=8702 inf=8702 hazard=1080 canary_err=0 q=0 qovr=0
[I2C] init=0 gate=0 whoami=0x140e0 wr=0 wrseen=0x27 addr=0x5a ok=2795 err=0 tmo=0 recov=0 pclk1=200000000 sysclk=400000000
[CLK] cpu=800000000 sysb=400000000 pclk1=200000000
[DRV] init=0 id=7 mode=0x1 lib=0x2 seq=0x1 odc=0x8b sts=0xe0 armed=1
[TRG] pulses=83 suppressed=997 cyc=1600 rst=1 rstmode=0x40
[HLT] polls=174 faults=0x0 cfglost=0
[EFF] n=5 last=58539 min=58539 max=58760 late=0 stuck=0
[DWT] ok=1 cyc=517242122 cyc_per_ms=800000
[HB] up_ms=184377 frames=8752 inf=8752 hazard=1080 canary_err=0 q=0 qovr=0
[I2C] init=0 gate=0 whoami=0x140e0 wr=0 wrseen=0x27 addr=0x5a ok=2797 err=0 tmo=0 recov=0 pclk1=200000000 sysclk=400000000
[CLK] cpu=800000000 sysb=400000000 pclk1=200000000
[DRV] init=0 id=7 mode=0x1 lib=0x2 seq=0x1 odc=0x8b sts=0xe0 armed=1
[TRG] pulses=83 suppressed=997 cyc=1600 rst=1 rstmode=0x40
[HLT] polls=175 faults=0x0 cfglost=0
[EFF] n=5 last=58539 min=58539 max=58760 late=0 stuck=0
[DWT] ok=1 cyc=1354042046 cyc_per_ms=799999
[HB] up_ms=185423 frames=8802 inf=8802 hazard=1120 canary_err=0 q=0 qovr=0
[I2C] init=0 gate=0 whoami=0x140e0 wr=0 wrseen=0x27 addr=0x5a ok=2799 err=0 tmo=0 recov=0 pclk1=200000000 sysclk=400000000
[CLK] cpu=800000000 sysb=400000000 pclk1=200000000
[DRV] init=0 id=7 mode=0x1 lib=0x2 seq=0x1 odc=0x8b sts=0xe0 armed=1
[TRG] pulses=86 suppressed=1034 cyc=1600 rst=1 rstmode=0x40
[HLT] polls=176 faults=0x0 cfglost=0
[EFF] n=5 last=58539 min=58539 max=58760 late=0 stuck=0
[DWT] ok=1 cyc=2190912046 cyc_per_ms=800066
[HB] up_ms=186469 frames=8851 inf=8851 hazard=1120 canary_err=0 q=0 qovr=0
[I2C] init=0 gate=0 whoami=0x140e0 wr=0 wrseen=0x27 addr=0x5a ok=2801 err=0 tmo=0 recov=0 pclk1=200000000 sysclk=400000000
[CLK] cpu=800000000 sysb=400000000 pclk1=200000000
[DRV] init=0 id=7 mode=0x1 lib=0x2 seq=0x1 odc=0x8b sts=0xe0 armed=1
[TRG] pulses=86 suppressed=1034 cyc=1600 rst=1 rstmode=0x40
[HLT] polls=177 faults=0x0 cfglost=0
[EFF] n=5 last=58539 min=58539 max=58760 late=0 stuck=0
[DWT] ok=1 cyc=3027712110 cyc_per_ms=800000
[HB] up_ms=187515 frames=8901 inf=8901 hazard=1120 canary_err=0 q=0 qovr=0
[I2C] init=0 gate=0 whoami=0x140e0 wr=0 wrseen=0x27 addr=0x5a ok=2803 err=0 tmo=0 recov=0 pclk1=200000000 sysclk=400000000
[CLK] cpu=800000000 sysb=400000000 pclk1=200000000
[DRV] init=0 id=7 mode=0x1 lib=0x2 seq=0x1 odc=0x8b sts=0xe0 armed=1
[TRG] pulses=86 suppressed=1034 cyc=1600 rst=1 rstmode=0x40
[HLT] polls=178 faults=0x0 cfglost=0
[EFF] n=5 last=58539 min=58539 max=58760 late=0 stuck=0
[DWT] ok=1 cyc=3864512066 cyc_per_ms=799999
[HB] up_ms=188561 frames=8951 inf=8951 hazard=1120 canary_err=0 q=0 qovr=0
[I2C] init=0 gate=0 whoami=0x140e0 wr=0 wrseen=0x27 addr=0x5a ok=2805 err=0 tmo=0 recov=0 pclk1=200000000 sysclk=400000000
[CLK] cpu=800000000 sysb=400000000 pclk1=200000000
[DRV] init=0 id=7 mode=0x1 lib=0x2 seq=0x1 odc=0x8b sts=0xe0 armed=1
[TRG] pulses=86 suppressed=1034 cyc=1600 rst=1 rstmode=0x40
[HLT] polls=179 faults=0x0 cfglost=0
[EFF] n=5 last=58539 min=58539 max=58760 late=0 stuck=0
[DWT] ok=1 cyc=406344782 cyc_per_ms=800000
[HB] up_ms=189607 frames=9001 inf=9001 hazard=1120 canary_err=0 q=0 qovr=0
[I2C] init=0 gate=0 whoami=0x140e0 wr=0 wrseen=0x27 addr=0x5a ok=2807 err=0 tmo=0 recov=0 pclk1=200000000 sysclk=400000000
[CLK] cpu=800000000 sysb=400000000 pclk1=200000000
[DRV] init=0 id=7 mode=0x1 lib=0x2 seq=0x1 odc=0x8b sts=0xe0 armed=1
[TRG] pulses=86 suppressed=1034 cyc=1600 rst=1 rstmode=0x40
[HLT] polls=180 faults=0x0 cfglost=0
[EFF] n=5 last=58539 min=58539 max=58760 late=0 stuck=0
[DWT] ok=1 cyc=1243144814 cyc_per_ms=800000
[HB] up_ms=190653 frames=9051 inf=9051 hazard=1120 canary_err=0 q=0 qovr=0
[I2C] init=0 gate=0 whoami=0x140e0 wr=0 wrseen=0x27 addr=0x5a ok=2809 err=0 tmo=0 recov=0 pclk1=200000000 sysclk=400000000
[CLK] cpu=800000000 sysb=400000000 pclk1=200000000
[DRV] init=0 id=7 mode=0x1 lib=0x2 seq=0x1 odc=0x8b sts=0xe0 armed=1
[TRG] pulses=86 suppressed=1034 cyc=1600 rst=1 rstmode=0x40
[HLT] polls=181 faults=0x0 cfglost=0
[EFF] n=5 last=58539 min=58539 max=58760 late=0 stuck=0
[DWT] ok=1 cyc=2079944826 cyc_per_ms=800000
[HB] up_ms=191699 frames=9100 inf=9100 hazard=1140 canary_err=0 q=0 qovr=0
[I2C] init=0 gate=0 whoami=0x140e0 wr=0 wrseen=0x27 addr=0x5a ok=2811 err=0 tmo=0 recov=0 pclk1=200000000 sysclk=400000000
[CLK] cpu=800000000 sysb=400000000 pclk1=200000000
[DRV] init=0 id=7 mode=0x1 lib=0x2 seq=0x1 odc=0x8b sts=0xe0 armed=1
[TRG] pulses=88 suppressed=1054 cyc=1600 rst=1 rstmode=0x40
[HLT] polls=182 faults=0x0 cfglost=0
[EFF] n=5 last=58539 min=58539 max=58760 late=0 stuck=0
[DWT] ok=1 cyc=2916746614 cyc_per_ms=800001
[HB] up_ms=192745 frames=9150 inf=9150 hazard=1160 canary_err=0 q=0 qovr=0
[I2C] init=0 gate=0 whoami=0x140e0 wr=0 wrseen=0x27 addr=0x5a ok=2813 err=0 tmo=0 recov=0 pclk1=200000000 sysclk=400000000
[CLK] cpu=800000000 sysb=400000000 pclk1=200000000
[DRV] init=0 id=7 mode=0x1 lib=0x2 seq=0x1 odc=0x8b sts=0xe0 armed=1
[TRG] pulses=89 suppressed=1071 cyc=1600 rst=1 rstmode=0x40
[HLT] polls=183 faults=0x0 cfglost=0
[EFF] n=5 last=58539 min=58539 max=58760 late=0 stuck=0
[DWT] ok=1 cyc=3753544742 cyc_per_ms=799998
[HB] up_ms=193791 frames=9200 inf=9200 hazard=1160 canary_err=0 q=0 qovr=0
[I2C] init=0 gate=0 whoami=0x140e0 wr=0 wrseen=0x27 addr=0x5a ok=2815 err=0 tmo=0 recov=0 pclk1=200000000 sysclk=400000000
[CLK] cpu=800000000 sysb=400000000 pclk1=200000000
[DRV] init=0 id=7 mode=0x1 lib=0x2 seq=0x1 odc=0x8b sts=0xe0 armed=1
[TRG] pulses=89 suppressed=1071 cyc=1600 rst=1 rstmode=0x40
[HLT] polls=184 faults=0x0 cfglost=0
[EFF] n=5 last=58539 min=58539 max=58760 late=0 stuck=0
[DWT] ok=1 cyc=295377474 cyc_per_ms=800000
[HB] up_ms=194837 frames=9250 inf=9250 hazard=1160 canary_err=0 q=0 qovr=0
[I2C] init=0 gate=0 whoami=0x140e0 wr=0 wrseen=0x27 addr=0x5a ok=2817 err=0 tmo=0 recov=0 pclk1=200000000 sysclk=400000000
[CLK] cpu=800000000 sysb=400000000 pclk1=200000000
[DRV] init=0 id=7 mode=0x1 lib=0x2 seq=0x1 odc=0x8b sts=0xe0 armed=1
[TRG] pulses=89 suppressed=1071 cyc=1600 rst=1 rstmode=0x40
[HLT] polls=185 faults=0x0 cfglost=0
[EFF] n=5 last=58539 min=58539 max=58760 late=0 stuck=0
[DWT] ok=1 cyc=1132177502 cyc_per_ms=800000
[HB] up_ms=195883 frames=9300 inf=9300 hazard=1160 canary_err=0 q=0 qovr=0
[I2C] init=0 gate=0 whoami=0x140e0 wr=0 wrseen=0x27 addr=0x5a ok=2819 err=0 tmo=0 recov=0 pclk1=200000000 sysclk=400000000
[CLK] cpu=800000000 sysb=400000000 pclk1=200000000
[DRV] init=0 id=7 mode=0x1 lib=0x2 seq=0x1 odc=0x8b sts=0xe0 armed=1
[TRG] pulses=89 suppressed=1071 cyc=1600 rst=1 rstmode=0x40
[HLT] polls=186 faults=0x0 cfglost=0
[EFF] n=5 last=58539 min=58539 max=58760 late=0 stuck=0
[DWT] ok=1 cyc=1968977522 cyc_per_ms=800000
[HB] up_ms=196929 frames=9350 inf=9350 hazard=1160 canary_err=0 q=0 qovr=0
[I2C] init=0 gate=0 whoami=0x140e0 wr=0 wrseen=0x27 addr=0x5a ok=2821 err=0 tmo=0 recov=0 pclk1=200000000 sysclk=400000000
[CLK] cpu=800000000 sysb=400000000 pclk1=200000000
[DRV] init=0 id=7 mode=0x1 lib=0x2 seq=0x1 odc=0x8b sts=0xe0 armed=1
[TRG] pulses=89 suppressed=1071 cyc=1600 rst=1 rstmode=0x40
[HLT] polls=187 faults=0x0 cfglost=0
[EFF] n=5 last=58539 min=58539 max=58760 late=0 stuck=0
[DWT] ok=1 cyc=2805831802 cyc_per_ms=800051
[HB] up_ms=197975 frames=9399 inf=9399 hazard=1160 canary_err=0 q=0 qovr=0
[I2C] init=0 gate=0 whoami=0x140e0 wr=0 wrseen=0x27 addr=0x5a ok=2823 err=0 tmo=0 recov=0 pclk1=200000000 sysclk=400000000
[CLK] cpu=800000000 sysb=400000000 pclk1=200000000
[DRV] init=0 id=7 mode=0x1 lib=0x2 seq=0x1 odc=0x8b sts=0xe0 armed=1
[TRG] pulses=90 suppressed=1071 cyc=1600 rst=1 rstmode=0x40
[HLT] polls=188 faults=0x0 cfglost=0
[EFF] n=5 last=58539 min=58539 max=58760 late=0 stuck=0
[DWT] ok=1 cyc=3642613914 cyc_per_ms=799982
[HB] up_ms=199021 frames=9449 inf=9449 hazard=1200 canary_err=0 q=0 qovr=0
[I2C] init=0 gate=0 whoami=0x140e0 wr=0 wrseen=0x27 addr=0x5a ok=2823 err=0 tmo=0 recov=0 pclk1=200000000 sysclk=400000000
[CLK] cpu=800000000 sysb=400000000 pclk1=200000000
[DRV] init=0 id=7 mode=0x1 lib=0x2 seq=0x1 odc=0x8b sts=0xe0 armed=1
[TRG] pulses=92 suppressed=1108 cyc=1600 rst=1 rstmode=0x40
[HLT] polls=189 faults=0x0 cfglost=0
[EFF] n=5 last=58539 min=58539 max=58760 late=0 stuck=0
[DWT] ok=1 cyc=184443258 cyc_per_ms=799996
[HB] up_ms=200067 frames=9499 inf=9499 hazard=1200 canary_err=0 q=0 qovr=0
[I2C] init=0 gate=0 whoami=0x140e0 wr=0 wrseen=0x27 addr=0x5a ok=2825 err=0 tmo=0 recov=0 pclk1=200000000 sysclk=400000000
[CLK] cpu=800000000 sysb=400000000 pclk1=200000000
[DRV] init=0 id=7 mode=0x1 lib=0x2 seq=0x1 odc=0x8b sts=0xe0 armed=1
[TRG] pulses=92 suppressed=1108 cyc=1600 rst=1 rstmode=0x40
[HLT] polls=190 faults=0x0 cfglost=0
[EFF] n=5 last=58539 min=58539 max=58760 late=0 stuck=0
[DWT] ok=1 cyc=1021243250 cyc_per_ms=799999
[HB] up_ms=201113 frames=9549 inf=9549 hazard=1200 canary_err=0 q=0 qovr=0
[I2C] init=0 gate=0 whoami=0x140e0 wr=0 wrseen=0x27 addr=0x5a ok=2827 err=0 tmo=0 recov=0 pclk1=200000000 sysclk=400000000
[CLK] cpu=800000000 sysb=400000000 pclk1=200000000
[DRV] init=0 id=7 mode=0x1 lib=0x2 seq=0x1 odc=0x8b sts=0xe0 armed=1
[TRG] pulses=92 suppressed=1108 cyc=1600 rst=1 rstmode=0x40
[HLT] polls=191 faults=0x0 cfglost=0
[EFF] n=5 last=58539 min=58539 max=58760 late=0 stuck=0
[DWT] ok=1 cyc=1858043314 cyc_per_ms=800000
[HB] up_ms=202159 frames=9599 inf=9599 hazard=1200 canary_err=0 q=0 qovr=0
[I2C] init=0 gate=0 whoami=0x140e0 wr=0 wrseen=0x27 addr=0x5a ok=2829 err=0 tmo=0 recov=0 pclk1=200000000 sysclk=400000000
[CLK] cpu=800000000 sysb=400000000 pclk1=200000000
[DRV] init=0 id=7 mode=0x1 lib=0x2 seq=0x1 odc=0x8b sts=0xe0 armed=1
[TRG] pulses=92 suppressed=1108 cyc=1600 rst=1 rstmode=0x40
[HLT] polls=192 faults=0x0 cfglost=0
[EFF] n=5 last=58539 min=58539 max=58760 late=0 stuck=0
[DWT] ok=1 cyc=2694843290 cyc_per_ms=799999
[HB] up_ms=203205 frames=9648 inf=9648 hazard=1200 canary_err=0 q=0 qovr=0
[I2C] init=0 gate=0 whoami=0x140e0 wr=0 wrseen=0x27 addr=0x5a ok=2831 err=0 tmo=0 recov=0 pclk1=200000000 sysclk=400000000
[CLK] cpu=800000000 sysb=400000000 pclk1=200000000
[DRV] init=0 id=7 mode=0x1 lib=0x2 seq=0x1 odc=0x8b sts=0xe0 armed=1
[TRG] pulses=92 suppressed=1108 cyc=1600 rst=1 rstmode=0x40
[HLT] polls=193 faults=0x0 cfglost=0
[EFF] n=5 last=58539 min=58539 max=58760 late=0 stuck=0
[DWT] ok=1 cyc=3531643286 cyc_per_ms=799999
[HB] up_ms=204251 frames=9698 inf=9698 hazard=1200 canary_err=0 q=0 qovr=0
[I2C] init=0 gate=0 whoami=0x140e0 wr=0 wrseen=0x27 addr=0x5a ok=2833 err=0 tmo=0 recov=0 pclk1=200000000 sysclk=400000000
[CLK] cpu=800000000 sysb=400000000 pclk1=200000000
[DRV] init=0 id=7 mode=0x1 lib=0x2 seq=0x1 odc=0x8b sts=0xe0 armed=1
[TRG] pulses=92 suppressed=1108 cyc=1600 rst=1 rstmode=0x40
[HLT] polls=194 faults=0x0 cfglost=0
[EFF] n=5 last=58539 min=58539 max=58760 late=0 stuck=0
[DWT] ok=1 cyc=73475994 cyc_per_ms=800000
[HB] up_ms=205297 frames=9748 inf=9748 hazard=1228 canary_err=0 q=0 qovr=0
[I2C] init=0 gate=0 whoami=0x140e0 wr=0 wrseen=0x27 addr=0x5a ok=2835 err=0 tmo=0 recov=0 pclk1=200000000 sysclk=400000000
