1788581047.010659 [HB] up_ms=1389 frames=45 inf=45 hazard=0 canary_err=0 q=0 qovr=0
1788581047.021513 [I2C] init=0 gate=0 whoami=0x201e0 wr=0 wrseen=0x27 addr=0x5a ok=434 err=0 tmo=0 recov=0 pclk1=200000000 sysclk=400000000
1788581047.022766 [NAK] nacks=0
1788581047.027410 [CLK] cpu=800000000 sysb=400000000 pclk1=200000000
1788581047.032013 [TOF] res=0 step=0 id=0xeacc blk=0xeacc10 ctl=0x0
1788581047.037891 [RNG] init=0 step=99 id=0xeacc boot=1 calls=93 xerr=0 dm=1 tb=15
1788581047.044762 [RNG] osc=41 imp=881 imprb=881 mstart=0x40 cfg=91 cfgfail=0x0 vhv=0 vpolls=0
1788581047.050630 [PRT] calls=301 xerr=0 ler=1 lidx=0x0 perr=0 maxcnt=17 addr8=0x52
1788581047.054886 [RTY] wr=0 wmax=0 wref=0  rd=0 rmax=0 rref=0
1788581047.062427 [RNG] frames=48 last=48 min=40 max=62 nrdy=0 dxfer=0 dstat=0 lst=0 nrdyerr=0 dclr=0
1788581047.068639 [DRV] init=0 id=7 mode=0x1 lib=0x2 seq=0x1 odc=0x8b sts=0xe0 armed=1
1788581047.073663 [TRG] pulses=0 suppressed=0 cyc=1600 rst=1 rstmode=0x40
1788581047.077005 [HLT] polls=0 faults=0x0 cfglost=0
1788581047.087158 [IMU] init=0 addr=0x68 who=0x68 rst=1 pmrb0=0x40 pmrb=0x1 sr=19 cfg=4 gcfg=0x0 acfg=0x8 icfg=0x30 ien=0x1 armed=1
1788581047.091893 [ACC] reads=49 stale=49 rderr=0 ax=52 ay=-49 az=1120
1788581047.094651 [PWR] pm=0x1 drift=0 rderr=0
1788581047.098123 [DWT] ok=1 cyc=1030555047 cyc_per_ms=0
1788581048.111488 [HB] up_ms=2482 frames=95 inf=95 hazard=0 canary_err=0 q=0 qovr=0
1788581048.122491 [I2C] init=0 gate=0 whoami=0x201e0 wr=0 wrseen=0x27 addr=0x5a ok=730 err=0 tmo=0 recov=0 pclk1=200000000 sysclk=400000000
1788581048.123870 [NAK] nacks=0
1788581048.128383 [CLK] cpu=800000000 sysb=400000000 pclk1=200000000
1788581048.132847 [TOF] res=0 step=0 id=0xeacc blk=0xeacc10 ctl=0x0
1788581048.138731 [RNG] init=0 step=99 id=0xeacc boot=1 calls=93 xerr=0 dm=1 tb=15
1788581048.145767 [RNG] osc=41 imp=881 imprb=881 mstart=0x40 cfg=91 cfgfail=0x0 vhv=0 vpolls=0
1788581048.151731 [PRT] calls=501 xerr=0 ler=1 lidx=0x0 perr=0 maxcnt=17 addr8=0x52
1788581048.155757 [RTY] wr=0 wmax=0 wref=0  rd=0 rmax=0 rref=0
1788581048.163230 [RNG] frames=97 last=57 min=40 max=63 nrdy=0 dxfer=0 dstat=0 lst=0 nrdyerr=0 dclr=0
1788581048.169596 [DRV] init=0 id=7 mode=0x1 lib=0x2 seq=0x1 odc=0x8b sts=0xe0 armed=1
1788581048.174603 [TRG] pulses=0 suppressed=0 cyc=1600 rst=1 rstmode=0x40
1788581048.177844 [HLT] polls=1 faults=0x0 cfglost=0
1788581048.188107 [IMU] init=0 addr=0x68 who=0x68 rst=1 pmrb0=0x40 pmrb=0x1 sr=19 cfg=4 gcfg=0x0 acfg=0x8 icfg=0x30 ien=0x1 armed=1
1788581048.192979 [ACC] reads=99 stale=98 rderr=0 ax=49 ay=-51 az=1126
1788581048.195611 [PWR] pm=0x1 drift=0 rderr=0
1788581048.199594 [DWT] ok=1 cyc=1904955183 cyc_per_ms=800000
1788581049.213105 [HB] up_ms=3576 frames=139 inf=139 hazard=19 canary_err=0 q=0 qovr=0
1788581049.224213 [I2C] init=0 gate=0 whoami=0x201e0 wr=0 wrseen=0x27 addr=0x5a ok=2012 err=0 tmo=0 recov=0 pclk1=200000000 sysclk=400000000
1788581049.225596 [NAK] nacks=0
1788581049.230193 [CLK] cpu=800000000 sysb=400000000 pclk1=200000000
1788581049.234696 [TOF] res=0 step=0 id=0xeacc blk=0xeacc10 ctl=0x0
1788581049.240699 [RNG] init=0 step=99 id=0xeacc boot=1 calls=93 xerr=0 dm=1 tb=15
1788581049.247620 [RNG] osc=41 imp=881 imprb=881 mstart=0x40 cfg=91 cfgfail=0x0 vhv=0 vpolls=0
1788581049.253453 [PRT] calls=677 xerr=0 ler=1 lidx=0x0 perr=0 maxcnt=17 addr8=0x52
1788581049.257451 [RTY] wr=0 wmax=0 wref=0  rd=0 rmax=0 rref=0
1788581049.265318 [RNG] frames=141 last=55 min=40 max=63 nrdy=0 dxfer=0 dstat=0 lst=0 nrdyerr=0 dclr=0
1788581049.271442 [DRV] init=0 id=7 mode=0x1 lib=0x2 seq=0x1 odc=0x8b sts=0xe0 armed=1
1788581049.276577 [TRG] pulses=2 suppressed=20 cyc=1600 rst=1 rstmode=0x40
1788581049.279701 [HLT] polls=2 faults=0x0 cfglost=0
1788581049.285692 [EFF] n=2 last=58618 min=58618 max=58625 late=0 stuck=0 rderr=0
1788581049.295832 [IMU] init=0 addr=0x68 who=0x68 rst=1 pmrb0=0x40 pmrb=0x1 sr=19 cfg=4 gcfg=0x0 acfg=0x8 icfg=0x30 ien=0x1 armed=1
1788581049.300691 [ACC] reads=143 stale=142 rderr=0 ax=51 ay=-50 az=1123
1788581049.303451 [PWR] pm=0x1 drift=0 rderr=0
1788581049.307575 [DWT] ok=1 cyc=2785279291 cyc_per_ms=804683
1788581050.320430 [HB] up_ms=4676 frames=184 inf=184 hazard=41 canary_err=0 q=0 qovr=0
1788581050.331427 [I2C] init=0 gate=0 whoami=0x201e0 wr=0 wrseen=0x27 addr=0x5a ok=3296 err=0 tmo=0 recov=0 pclk1=200000000 sysclk=400000000
1788581050.332798 [NAK] nacks=0
1788581050.337413 [CLK] cpu=800000000 sysb=400000000 pclk1=200000000
1788581050.341926 [TOF] res=0 step=0 id=0xeacc blk=0xeacc10 ctl=0x0
1788581050.347791 [RNG] init=0 step=99 id=0xeacc boot=1 calls=93 xerr=0 dm=1 tb=15
1788581050.354784 [RNG] osc=41 imp=881 imprb=881 mstart=0x40 cfg=91 cfgfail=0x0 vhv=0 vpolls=0
1788581050.360668 [PRT] calls=855 xerr=0 ler=1 lidx=0x0 perr=0 maxcnt=17 addr8=0x52
1788581050.364794 [RTY] wr=0 wmax=0 wref=0  rd=0 rmax=0 rref=0
1788581050.372425 [RNG] frames=186 last=54 min=40 max=63 nrdy=0 dxfer=0 dstat=0 lst=0 nrdyerr=0 dclr=0
1788581050.378670 [DRV] init=0 id=7 mode=0x1 lib=0x2 seq=0x1 odc=0x8b sts=0xe0 armed=1
1788581050.383790 [TRG] pulses=4 suppressed=37 cyc=1600 rst=1 rstmode=0x40
1788581050.387036 [HLT] polls=3 faults=0x0 cfglost=0
1788581050.392800 [EFF] n=4 last=58616 min=58570 max=58625 late=0 stuck=0 rderr=0
1788581050.403043 [IMU] init=0 addr=0x68 who=0x68 rst=1 pmrb0=0x40 pmrb=0x1 sr=19 cfg=4 gcfg=0x0 acfg=0x8 icfg=0x30 ien=0x1 armed=1
1788581050.408083 [ACC] reads=188 stale=187 rderr=0 ax=51 ay=-49 az=1124
1788581050.410657 [PWR] pm=0x1 drift=0 rderr=0
1788581050.414676 [DWT] ok=1 cyc=3665275667 cyc_per_ms=799996
1788581051.427646 [HB] up_ms=5776 frames=234 inf=234 hazard=41 canary_err=0 q=0 qovr=0
1788581051.438653 [I2C] init=0 gate=0 whoami=0x201e0 wr=0 wrseen=0x27 addr=0x5a ok=3598 err=0 tmo=0 recov=0 pclk1=200000000 sysclk=400000000
1788581051.439926 [NAK] nacks=0
1788581051.444651 [CLK] cpu=800000000 sysb=400000000 pclk1=200000000
1788581051.449137 [TOF] res=0 step=0 id=0xeacc blk=0xeacc10 ctl=0x0
1788581051.455014 [RNG] init=0 step=99 id=0xeacc boot=1 calls=93 xerr=0 dm=1 tb=15
1788581051.461885 [RNG] osc=41 imp=881 imprb=881 mstart=0x40 cfg=91 cfgfail=0x0 vhv=0 vpolls=0
1788581051.468140 [PRT] calls=1053 xerr=0 ler=1 lidx=0x0 perr=0 maxcnt=17 addr8=0x52
1788581051.472151 [RTY] wr=0 wmax=0 wref=0  rd=0 rmax=0 rref=0
1788581051.479766 [RNG] frames=236 last=54 min=40 max=63 nrdy=0 dxfer=0 dstat=0 lst=0 nrdyerr=0 dclr=0
1788581051.485891 [DRV] init=0 id=7 mode=0x1 lib=0x2 seq=0x1 odc=0x8b sts=0xe0 armed=1
1788581051.491300 [TRG] pulses=4 suppressed=37 cyc=1600 rst=1 rstmode=0x40
1788581051.494426 [HLT] polls=4 faults=0x0 cfglost=0
1788581051.500134 [EFF] n=4 last=58616 min=58570 max=58625 late=0 stuck=0 rderr=0
1788581051.510260 [IMU] init=0 addr=0x68 who=0x68 rst=1 pmrb0=0x40 pmrb=0x1 sr=19 cfg=4 gcfg=0x0 acfg=0x8 icfg=0x30 ien=0x1 armed=1
1788581051.515402 [ACC] reads=237 stale=236 rderr=0 ax=50 ay=-50 az=1119
1788581051.518013 [PWR] pm=0x1 drift=0 rderr=0
1788581051.521879 [DWT] ok=1 cyc=250378247 cyc_per_ms=800063
1788581052.535383 [HB] up_ms=6876 frames=283 inf=283 hazard=41 canary_err=0 q=0 qovr=0
1788581052.546385 [I2C] init=0 gate=0 whoami=0x201e0 wr=0 wrseen=0x27 addr=0x5a ok=3900 err=0 tmo=0 recov=0 pclk1=200000000 sysclk=400000000
1788581052.547616 [NAK] nacks=0
1788581052.552228 [CLK] cpu=800000000 sysb=400000000 pclk1=200000000
1788581052.556857 [TOF] res=0 step=0 id=0xeacc blk=0xeacc10 ctl=0x0
1788581052.562744 [RNG] init=0 step=99 id=0xeacc boot=1 calls=93 xerr=0 dm=1 tb=15
1788581052.569604 [RNG] osc=41 imp=881 imprb=881 mstart=0x40 cfg=91 cfgfail=0x0 vhv=0 vpolls=0
1788581052.575613 [PRT] calls=1253 xerr=0 ler=1 lidx=0x0 perr=0 maxcnt=17 addr8=0x52
1788581052.579855 [RTY] wr=0 wmax=0 wref=0  rd=0 rmax=0 rref=0
1788581052.587471 [RNG] frames=286 last=55 min=40 max=63 nrdy=0 dxfer=0 dstat=0 lst=0 nrdyerr=0 dclr=0
1788581052.593615 [DRV] init=0 id=7 mode=0x1 lib=0x2 seq=0x1 odc=0x8b sts=0xe0 armed=1
1788581052.598724 [TRG] pulses=4 suppressed=37 cyc=1600 rst=1 rstmode=0x40
1788581052.602100 [HLT] polls=5 faults=0x0 cfglost=0
1788581052.607856 [EFF] n=4 last=58616 min=58570 max=58625 late=0 stuck=0 rderr=0
1788581052.618186 [IMU] init=0 addr=0x68 who=0x68 rst=1 pmrb0=0x40 pmrb=0x1 sr=19 cfg=4 gcfg=0x0 acfg=0x8 icfg=0x30 ien=0x1 armed=1
1788581052.623004 [ACC] reads=287 stale=286 rderr=0 ax=51 ay=-49 az=1125
1788581052.625740 [PWR] pm=0x1 drift=0 rderr=0
1788581052.629852 [DWT] ok=1 cyc=1130500499 cyc_per_ms=800111
1788581053.644968 [HB] up_ms=7977 frames=333 inf=333 hazard=41 canary_err=0 q=0 qovr=0
1788581053.656080 [I2C] init=0 gate=0 whoami=0x201e0 wr=0 wrseen=0x27 addr=0x5a ok=4196 err=0 tmo=0 recov=0 pclk1=200000000 sysclk=400000000
1788581053.657355 [NAK] nacks=0
1788581053.661986 [CLK] cpu=800000000 sysb=400000000 pclk1=200000000
1788581053.666465 [TOF] res=0 step=0 id=0xeacc blk=0xeacc10 ctl=0x0
1788581053.672459 [RNG] init=0 step=99 id=0xeacc boot=1 calls=93 xerr=0 dm=1 tb=15
1788581053.679357 [RNG] osc=41 imp=881 imprb=881 mstart=0x40 cfg=91 cfgfail=0x0 vhv=0 vpolls=0
1788581053.685366 [PRT] calls=1453 xerr=0 ler=1 lidx=0x0 perr=0 maxcnt=17 addr8=0x52
1788581053.689486 [RTY] wr=0 wmax=0 wref=0  rd=0 rmax=0 rref=0
1788581053.697198 [RNG] frames=335 last=55 min=40 max=63 nrdy=0 dxfer=0 dstat=0 lst=0 nrdyerr=0 dclr=0
1788581053.703441 [DRV] init=0 id=7 mode=0x1 lib=0x2 seq=0x1 odc=0x8b sts=0xe0 armed=1
1788581053.708574 [TRG] pulses=4 suppressed=37 cyc=1600 rst=1 rstmode=0x40
1788581053.711698 [HLT] polls=6 faults=0x0 cfglost=0
1788581053.717610 [EFF] n=4 last=58616 min=58570 max=58625 late=0 stuck=0 rderr=0
1788581053.727836 [IMU] init=0 addr=0x68 who=0x68 rst=1 pmrb0=0x40 pmrb=0x1 sr=19 cfg=4 gcfg=0x0 acfg=0x8 icfg=0x30 ien=0x1 armed=1
1788581053.732696 [ACC] reads=337 stale=336 rderr=0 ax=50 ay=-50 az=1121
1788581053.735449 [PWR] pm=0x1 drift=0 rderr=0
1788581053.739440 [DWT] ok=1 cyc=2011178383 cyc_per_ms=799889
1788581054.754061 [HB] up_ms=9078 frames=383 inf=383 hazard=41 canary_err=0 q=0 qovr=0
1788581054.765175 [I2C] init=0 gate=0 whoami=0x201e0 wr=0 wrseen=0x27 addr=0x5a ok=4498 err=0 tmo=0 recov=0 pclk1=200000000 sysclk=400000000
1788581054.766555 [NAK] nacks=0
1788581054.771171 [CLK] cpu=800000000 sysb=400000000 pclk1=200000000
1788581054.775671 [TOF] res=0 step=0 id=0xeacc blk=0xeacc10 ctl=0x0
1788581054.781554 [RNG] init=0 step=99 id=0xeacc boot=1 calls=93 xerr=0 dm=1 tb=15
1788581054.788551 [RNG] osc=41 imp=881 imprb=881 mstart=0x40 cfg=91 cfgfail=0x0 vhv=0 vpolls=0
1788581054.794543 [PRT] calls=1653 xerr=0 ler=1 lidx=0x0 perr=0 maxcnt=17 addr8=0x52
1788581054.798544 [RTY] wr=0 wmax=0 wref=0  rd=0 rmax=0 rref=0
1788581054.806367 [RNG] frames=385 last=55 min=40 max=63 nrdy=0 dxfer=0 dstat=0 lst=0 nrdyerr=0 dclr=0
1788581054.812549 [DRV] init=0 id=7 mode=0x1 lib=0x2 seq=0x1 odc=0x8b sts=0xe0 armed=1
1788581054.817667 [TRG] pulses=4 suppressed=37 cyc=1600 rst=1 rstmode=0x40
1788581054.820800 [HLT] polls=7 faults=0x0 cfglost=0
1788581054.826544 [EFF] n=4 last=58616 min=58570 max=58625 late=0 stuck=0 rderr=0
1788581054.836914 [IMU] init=0 addr=0x68 who=0x68 rst=1 pmrb0=0x40 pmrb=0x1 sr=19 cfg=4 gcfg=0x0 acfg=0x8 icfg=0x30 ien=0x1 armed=1
1788581054.841810 [ACC] reads=387 stale=386 rderr=0 ax=51 ay=-50 az=1124
1788581054.844553 [PWR] pm=0x1 drift=0 rderr=0
1788581054.848414 [DWT] ok=1 cyc=2891978395 cyc_per_ms=800000
1788581055.861643 [HB] up_ms=10178 frames=433 inf=433 hazard=41 canary_err=0 q=0 qovr=0
1788581055.872801 [I2C] init=0 gate=0 whoami=0x201e0 wr=0 wrseen=0x27 addr=0x5a ok=4800 err=0 tmo=0 recov=0 pclk1=200000000 sysclk=400000000
1788581055.874038 [NAK] nacks=0
1788581055.878642 [CLK] cpu=800000000 sysb=400000000 pclk1=200000000
1788581055.883134 [TOF] res=0 step=0 id=0xeacc blk=0xeacc10 ctl=0x0
1788581055.888894 [RNG] init=0 step=99 id=0xeacc boot=1 calls=93 xerr=0 dm=1 tb=15
1788581055.896022 [RNG] osc=41 imp=881 imprb=881 mstart=0x40 cfg=91 cfgfail=0x0 vhv=0 vpolls=0
1788581055.902013 [PRT] calls=1853 xerr=0 ler=1 lidx=0x0 perr=0 maxcnt=17 addr8=0x52
1788581055.906013 [RTY] wr=0 wmax=0 wref=0  rd=0 rmax=0 rref=0
1788581055.913643 [RNG] frames=435 last=55 min=39 max=63 nrdy=0 dxfer=0 dstat=0 lst=0 nrdyerr=0 dclr=0
1788581055.919998 [DRV] init=0 id=7 mode=0x1 lib=0x2 seq=0x1 odc=0x8b sts=0xe0 armed=1
1788581055.925118 [TRG] pulses=4 suppressed=37 cyc=1600 rst=1 rstmode=0x40
1788581055.928253 [HLT] polls=8 faults=0x0 cfglost=0
1788581055.934001 [EFF] n=4 last=58616 min=58570 max=58625 late=0 stuck=0 rderr=0
1788581055.944392 [IMU] init=0 addr=0x68 who=0x68 rst=1 pmrb0=0x40 pmrb=0x1 sr=19 cfg=4 gcfg=0x0 acfg=0x8 icfg=0x30 ien=0x1 armed=1
1788581055.949245 [ACC] reads=437 stale=436 rderr=0 ax=49 ay=-51 az=1122
1788581055.951871 [PWR] pm=0x1 drift=0 rderr=0
1788581055.955886 [DWT] ok=1 cyc=3772049013 cyc_per_ms=800064
1788581056.968876 [HB] up_ms=11278 frames=480 inf=480 hazard=81 canary_err=0 q=0 qovr=0
1788581056.979990 [I2C] init=0 gate=0 whoami=0x201e0 wr=0 wrseen=0x27 addr=0x5a ok=5592 err=0 tmo=0 recov=0 pclk1=200000000 sysclk=400000000
1788581056.981378 [NAK] nacks=0
1788581056.985978 [CLK] cpu=800000000 sysb=400000000 pclk1=200000000
1788581056.990490 [TOF] res=0 step=0 id=0xeacc blk=0xeacc10 ctl=0x0
1788581056.996376 [RNG] init=0 step=99 id=0xeacc boot=1 calls=93 xerr=0 dm=1 tb=15
1788581057.003388 [RNG] osc=41 imp=881 imprb=881 mstart=0x40 cfg=91 cfgfail=0x0 vhv=0 vpolls=0
1788581057.009386 [PRT] calls=2041 xerr=0 ler=1 lidx=0x0 perr=0 maxcnt=17 addr8=0x52
1788581057.013448 [RTY] wr=0 wmax=0 wref=0  rd=0 rmax=0 rref=0
1788581057.021115 [RNG] frames=482 last=56 min=39 max=63 nrdy=0 dxfer=0 dstat=0 lst=0 nrdyerr=0 dclr=0
1788581057.027390 [DRV] init=0 id=7 mode=0x1 lib=0x2 seq=0x1 odc=0x8b sts=0xe0 armed=1
1788581057.032380 [TRG] pulses=8 suppressed=74 cyc=1600 rst=1 rstmode=0x40
1788581057.035613 [HLT] polls=9 faults=0x0 cfglost=0
1788581057.041391 [EFF] n=5 last=58623 min=58570 max=58625 late=0 stuck=0 rderr=0
1788581057.051610 [IMU] init=0 addr=0x68 who=0x68 rst=1 pmrb0=0x40 pmrb=0x1 sr=19 cfg=4 gcfg=0x0 acfg=0x8 icfg=0x30 ien=0x1 armed=1
1788581057.057022 [ACC] reads=484 stale=483 rderr=0 ax=51 ay=-48 az=1121
1788581057.059238 [PWR] pm=0x1 drift=0 rderr=0
1788581057.063105 [DWT] ok=1 cyc=357082721 cyc_per_ms=800000
1788581058.075721 [HB] up_ms=12378 frames=530 inf=530 hazard=82 canary_err=0 q=0 qovr=0
1788581058.086835 [I2C] init=0 gate=0 whoami=0x201e0 wr=0 wrseen=0x27 addr=0x5a ok=5894 err=0 tmo=0 recov=0 pclk1=200000000 sysclk=400000000
1788581058.088078 [NAK] nacks=0
1788581058.092708 [CLK] cpu=800000000 sysb=400000000 pclk1=200000000
1788581058.097201 [TOF] res=0 step=0 id=0xeacc blk=0xeacc10 ctl=0x0
1788581058.102953 [RNG] init=0 step=99 id=0xeacc boot=1 calls=93 xerr=0 dm=1 tb=15
1788581058.110086 [RNG] osc=41 imp=881 imprb=881 mstart=0x40 cfg=91 cfgfail=0x0 vhv=0 vpolls=0
1788581058.116083 [PRT] calls=2241 xerr=0 ler=1 lidx=0x0 perr=0 maxcnt=17 addr8=0x52
1788581058.120083 [RTY] wr=0 wmax=0 wref=0  rd=0 rmax=0 rref=0
1788581058.127714 [RNG] frames=532 last=53 min=39 max=63 nrdy=0 dxfer=0 dstat=0 lst=0 nrdyerr=0 dclr=0
1788581058.134078 [DRV] init=0 id=7 mode=0x1 lib=0x2 seq=0x1 odc=0x8b sts=0xe0 armed=1
1788581058.139208 [TRG] pulses=8 suppressed=74 cyc=1600 rst=1 rstmode=0x40
1788581058.142455 [HLT] polls=10 faults=0x0 cfglost=0
1788581058.148208 [EFF] n=5 last=58623 min=58570 max=58625 late=0 stuck=0 rderr=0
1788581058.158457 [IMU] init=0 addr=0x68 who=0x68 rst=1 pmrb0=0x40 pmrb=0x1 sr=19 cfg=4 gcfg=0x0 acfg=0x8 icfg=0x30 ien=0x1 armed=1
1788581058.163460 [ACC] reads=534 stale=533 rderr=0 ax=53 ay=-50 az=1122
1788581058.166078 [PWR] pm=0x1 drift=0 rderr=0
1788581058.170086 [DWT] ok=1 cyc=1237151705 cyc_per_ms=800062
1788581059.183451 [HB] up_ms=13479 frames=580 inf=580 hazard=82 canary_err=0 q=0 qovr=0
1788581059.194304 [I2C] init=0 gate=0 whoami=0x201e0 wr=0 wrseen=0x27 addr=0x5a ok=6196 err=0 tmo=0 recov=0 pclk1=200000000 sysclk=400000000
1788581059.195800 [NAK] nacks=0
1788581059.200414 [CLK] cpu=800000000 sysb=400000000 pclk1=200000000
1788581059.204937 [TOF] res=0 step=0 id=0xeacc blk=0xeacc10 ctl=0x0
1788581059.210688 [RNG] init=0 step=99 id=0xeacc boot=1 calls=93 xerr=0 dm=1 tb=15
1788581059.217673 [RNG] osc=41 imp=881 imprb=881 mstart=0x40 cfg=91 cfgfail=0x0 vhv=0 vpolls=0
1788581059.223819 [PRT] calls=2437 xerr=0 ler=1 lidx=0x0 perr=0 maxcnt=17 addr8=0x52
1788581059.227799 [RTY] wr=0 wmax=0 wref=0  rd=0 rmax=0 rref=0
1788581059.235440 [RNG] frames=582 last=50 min=39 max=65 nrdy=0 dxfer=0 dstat=0 lst=0 nrdyerr=0 dclr=0
1788581059.241682 [DRV] init=0 id=7 mode=0x1 lib=0x2 seq=0x1 odc=0x8b sts=0xe0 armed=1
1788581059.246919 [TRG] pulses=8 suppressed=74 cyc=1600 rst=1 rstmode=0x40
1788581059.250167 [HLT] polls=11 faults=0x0 cfglost=0
1788581059.255925 [EFF] n=5 last=58623 min=58570 max=58625 late=0 stuck=0 rderr=0
1788581059.266296 [IMU] init=0 addr=0x68 who=0x68 rst=1 pmrb0=0x40 pmrb=0x1 sr=19 cfg=4 gcfg=0x0 acfg=0x8 icfg=0x30 ien=0x1 armed=1
1788581059.271174 [ACC] reads=584 stale=583 rderr=0 ax=51 ay=-49 az=1119
1788581059.273808 [PWR] pm=0x1 drift=0 rderr=0
1788581059.277807 [DWT] ok=1 cyc=2117952153 cyc_per_ms=800000
1788581060.291531 [HB] up_ms=14580 frames=630 inf=630 hazard=82 canary_err=0 q=0 qovr=0
1788581060.302520 [I2C] init=0 gate=0 whoami=0x201e0 wr=0 wrseen=0x27 addr=0x5a ok=6498 err=0 tmo=0 recov=0 pclk1=200000000 sysclk=400000000
1788581060.303775 [NAK] nacks=0
1788581060.308534 [CLK] cpu=800000000 sysb=400000000 pclk1=200000000
1788581060.313024 [TOF] res=0 step=0 id=0xeacc blk=0xeacc10 ctl=0x0
1788581060.318902 [RNG] init=0 step=99 id=0xeacc boot=1 calls=93 xerr=0 dm=1 tb=15
1788581060.325783 [RNG] osc=41 imp=881 imprb=881 mstart=0x40 cfg=91 cfgfail=0x0 vhv=0 vpolls=0
1788581060.332025 [PRT] calls=2637 xerr=0 ler=1 lidx=0x0 perr=0 maxcnt=17 addr8=0x52
1788581060.336014 [RTY] wr=0 wmax=0 wref=0  rd=0 rmax=0 rref=0
1788581060.343667 [RNG] frames=632 last=58 min=38 max=65 nrdy=0 dxfer=0 dstat=0 lst=0 nrdyerr=0 dclr=0
1788581060.349768 [DRV] init=0 id=7 mode=0x1 lib=0x2 seq=0x1 odc=0x8b sts=0xe0 armed=1
1788581060.355033 [TRG] pulses=8 suppressed=74 cyc=1600 rst=1 rstmode=0x40
1788581060.358439 [HLT] polls=12 faults=0x0 cfglost=0
1788581060.364031 [EFF] n=5 last=58623 min=58570 max=58625 late=0 stuck=0 rderr=0
1788581060.374285 [IMU] init=0 addr=0x68 who=0x68 rst=1 pmrb0=0x40 pmrb=0x1 sr=19 cfg=4 gcfg=0x0 acfg=0x8 icfg=0x30 ien=0x1 armed=1
1788581060.379436 [ACC] reads=633 stale=632 rderr=0 ax=52 ay=-49 az=1121
1788581060.382028 [PWR] pm=0x1 drift=0 rderr=0
1788581060.385899 [DWT] ok=1 cyc=2998751769 cyc_per_ms=799999
1788581061.399873 [HB] up_ms=15681 frames=679 inf=679 hazard=82 canary_err=0 q=0 qovr=0
1788581061.410866 [I2C] init=0 gate=0 whoami=0x201e0 wr=0 wrseen=0x27 addr=0x5a ok=6800 err=0 tmo=0 recov=0 pclk1=200000000 sysclk=400000000
1788581061.412118 [NAK] nacks=0
1788581061.416734 [CLK] cpu=800000000 sysb=400000000 pclk1=200000000
1788581061.421387 [TOF] res=0 step=0 id=0xeacc blk=0xeacc10 ctl=0x0
1788581061.427244 [RNG] init=0 step=99 id=0xeacc boot=1 calls=93 xerr=0 dm=1 tb=15
1788581061.434115 [RNG] osc=41 imp=881 imprb=881 mstart=0x40 cfg=91 cfgfail=0x0 vhv=0 vpolls=0
1788581061.440159 [PRT] calls=2837 xerr=0 ler=1 lidx=0x0 perr=0 maxcnt=17 addr8=0x52
1788581061.444392 [RTY] wr=0 wmax=0 wref=0  rd=0 rmax=0 rref=0
1788581061.452002 [RNG] frames=682 last=55 min=38 max=65 nrdy=0 dxfer=0 dstat=0 lst=0 nrdyerr=0 dclr=0
1788581061.458117 [DRV] init=0 id=7 mode=0x1 lib=0x2 seq=0x1 odc=0x8b sts=0xe0 armed=1
1788581061.463236 [TRG] pulses=8 suppressed=74 cyc=1600 rst=1 rstmode=0x40
1788581061.466748 [HLT] polls=13 faults=0x0 cfglost=0
1788581061.472395 [EFF] n=5 last=58623 min=58570 max=58625 late=0 stuck=0 rderr=0
1788581061.482610 [IMU] init=0 addr=0x68 who=0x68 rst=1 pmrb0=0x40 pmrb=0x1 sr=19 cfg=4 gcfg=0x0 acfg=0x8 icfg=0x30 ien=0x1 armed=1
1788581061.487611 [ACC] reads=683 stale=682 rderr=0 ax=51 ay=-49 az=1123
1788581061.490419 [PWR] pm=0x1 drift=0 rderr=0
1788581061.494391 [DWT] ok=1 cyc=3879686655 cyc_per_ms=800122
1788581062.508368 [HB] up_ms=16782 frames=729 inf=729 hazard=82 canary_err=0 q=0 qovr=0
1788581062.519357 [I2C] init=0 gate=0 whoami=0x201e0 wr=0 wrseen=0x27 addr=0x5a ok=7099 err=0 tmo=0 recov=0 pclk1=200000000 sysclk=400000000
1788581062.520585 [NAK] nacks=0
1788581062.525224 [CLK] cpu=800000000 sysb=400000000 pclk1=200000000
1788581062.529717 [TOF] res=0 step=0 id=0xeacc blk=0xeacc10 ctl=0x0
1788581062.535708 [RNG] init=0 step=99 id=0xeacc boot=1 calls=93 xerr=0 dm=1 tb=15
1788581062.542587 [RNG] osc=41 imp=881 imprb=881 mstart=0x40 cfg=91 cfgfail=0x0 vhv=0 vpolls=0
1788581062.548587 [PRT] calls=3037 xerr=0 ler=1 lidx=0x0 perr=0 maxcnt=17 addr8=0x52
1788581062.552707 [RTY] wr=0 wmax=0 wref=0  rd=0 rmax=0 rref=0
1788581062.560462 [RNG] frames=731 last=51 min=38 max=68 nrdy=0 dxfer=0 dstat=0 lst=0 nrdyerr=0 dclr=0
1788581062.566595 [DRV] init=0 id=7 mode=0x1 lib=0x2 seq=0x1 odc=0x8b sts=0xe0 armed=1
1788581062.571722 [TRG] pulses=8 suppressed=74 cyc=1600 rst=1 rstmode=0x40
1788581062.574963 [HLT] polls=14 faults=0x0 cfglost=0
1788581062.580971 [EFF] n=5 last=58623 min=58570 max=58625 late=0 stuck=0 rderr=0
1788581062.591095 [IMU] init=0 addr=0x68 who=0x68 rst=1 pmrb0=0x40 pmrb=0x1 sr=19 cfg=4 gcfg=0x0 acfg=0x8 icfg=0x30 ien=0x1 armed=1
1788581062.595972 [ACC] reads=733 stale=732 rderr=0 ax=52 ay=-50 az=1122
1788581062.598711 [PWR] pm=0x1 drift=0 rderr=0
1788581062.602708 [DWT] ok=1 cyc=465384357 cyc_per_ms=799877
1788581063.616818 [HB] up_ms=17883 frames=779 inf=779 hazard=101 canary_err=0 q=0 qovr=0
1788581063.627943 [I2C] init=0 gate=0 whoami=0x201e0 wr=0 wrseen=0x27 addr=0x5a ok=7398 err=0 tmo=0 recov=0 pclk1=200000000 sysclk=400000000
1788581063.629311 [NAK] nacks=0
1788581063.633806 [CLK] cpu=800000000 sysb=400000000 pclk1=200000000
1788581063.638312 [TOF] res=0 step=0 id=0xeacc blk=0xeacc10 ctl=0x0
1788581063.644311 [RNG] init=0 step=99 id=0xeacc boot=1 calls=93 xerr=0 dm=1 tb=15
1788581063.651184 [RNG] osc=41 imp=881 imprb=881 mstart=0x40 cfg=91 cfgfail=0x0 vhv=0 vpolls=0
1788581063.657194 [PRT] calls=3237 xerr=0 ler=1 lidx=0x0 perr=0 maxcnt=17 addr8=0x52
1788581063.661407 [RTY] wr=0 wmax=0 wref=0  rd=0 rmax=0 rref=0
1788581063.669064 [RNG] frames=781 last=62 min=38 max=68 nrdy=0 dxfer=0 dstat=0 lst=0 nrdyerr=0 dclr=0
1788581063.675186 [DRV] init=0 id=7 mode=0x1 lib=0x2 seq=0x1 odc=0x8b sts=0xe0 armed=1
1788581063.680453 [TRG] pulses=10 suppressed=94 cyc=1600 rst=1 rstmode=0x40
1788581063.683681 [HLT] polls=15 faults=0x0 cfglost=0
1788581063.689432 [EFF] n=5 last=58623 min=58570 max=58625 late=0 stuck=0 rderr=0
1788581063.699803 [IMU] init=0 addr=0x68 who=0x68 rst=1 pmrb0=0x40 pmrb=0x1 sr=19 cfg=4 gcfg=0x0 acfg=0x8 icfg=0x30 ien=0x1 armed=1
1788581063.704687 [ACC] reads=783 stale=782 rderr=0 ax=51 ay=-47 az=1124
1788581063.707310 [PWR] pm=0x1 drift=0 rderr=0
1788581063.711300 [DWT] ok=1 cyc=1346327983 cyc_per_ms=800130
1788581064.725494 [HB] up_ms=18984 frames=829 inf=829 hazard=123 canary_err=0 q=0 qovr=0
1788581064.736527 [I2C] init=0 gate=0 whoami=0x201e0 wr=0 wrseen=0x27 addr=0x5a ok=7700 err=0 tmo=0 recov=0 pclk1=200000000 sysclk=400000000
1788581064.737908 [NAK] nacks=0
1788581064.742545 [CLK] cpu=800000000 sysb=400000000 pclk1=200000000
1788581064.747031 [TOF] res=0 step=0 id=0xeacc blk=0xeacc10 ctl=0x0
1788581064.752779 [RNG] init=0 step=99 id=0xeacc boot=1 calls=93 xerr=0 dm=1 tb=15
1788581064.759914 [RNG] osc=41 imp=881 imprb=881 mstart=0x40 cfg=91 cfgfail=0x0 vhv=0 vpolls=0
1788581064.765904 [PRT] calls=3437 xerr=0 ler=1 lidx=0x0 perr=0 maxcnt=17 addr8=0x52
1788581064.769901 [RTY] wr=0 wmax=0 wref=0  rd=0 rmax=0 rref=0
1788581064.777531 [RNG] frames=831 last=55 min=38 max=68 nrdy=0 dxfer=0 dstat=0 lst=0 nrdyerr=0 dclr=0
1788581064.783900 [DRV] init=0 id=7 mode=0x1 lib=0x2 seq=0x1 odc=0x8b sts=0xe0 armed=1
1788581064.789151 [TRG] pulses=11 suppressed=112 cyc=1600 rst=1 rstmode=0x40
1788581064.792563 [HLT] polls=16 faults=0x0 cfglost=0
1788581064.798281 [EFF] n=5 last=58623 min=58570 max=58625 late=0 stuck=0 rderr=0
1788581064.808536 [IMU] init=0 addr=0x68 who=0x68 rst=1 pmrb0=0x40 pmrb=0x1 sr=19 cfg=4 gcfg=0x0 acfg=0x8 icfg=0x30 ien=0x1 armed=1
1788581064.813529 [ACC] reads=833 stale=832 rderr=0 ax=52 ay=-49 az=1121
1788581064.816156 [PWR] pm=0x1 drift=0 rderr=0
1788581064.820151 [DWT] ok=1 cyc=2227194587 cyc_per_ms=800060
1788581065.834638 [HB] up_ms=20085 frames=879 inf=879 hazard=123 canary_err=0 q=0 qovr=0
1788581065.845635 [I2C] init=0 gate=0 whoami=0x201e0 wr=0 wrseen=0x27 addr=0x5a ok=8002 err=0 tmo=0 recov=0 pclk1=200000000 sysclk=400000000
1788581065.847004 [NAK] nacks=0
1788581065.851623 [CLK] cpu=800000000 sysb=400000000 pclk1=200000000
1788581065.856125 [TOF] res=0 step=0 id=0xeacc blk=0xeacc10 ctl=0x0
1788581065.861872 [RNG] init=0 step=99 id=0xeacc boot=1 calls=93 xerr=0 dm=1 tb=15
1788581065.868999 [RNG] osc=41 imp=881 imprb=881 mstart=0x40 cfg=91 cfgfail=0x0 vhv=0 vpolls=0
1788581065.875001 [PRT] calls=3637 xerr=0 ler=1 lidx=0x0 perr=0 maxcnt=17 addr8=0x52
1788581065.879005 [RTY] wr=0 wmax=0 wref=0  rd=0 rmax=0 rref=0
1788581065.886620 [RNG] frames=881 last=59 min=38 max=68 nrdy=0 dxfer=0 dstat=0 lst=0 nrdyerr=0 dclr=0
1788581065.892996 [DRV] init=0 id=7 mode=0x1 lib=0x2 seq=0x1 odc=0x8b sts=0xe0 armed=1
1788581065.898248 [TRG] pulses=11 suppressed=112 cyc=1600 rst=1 rstmode=0x40
1788581065.901500 [HLT] polls=17 faults=0x0 cfglost=0
1788581065.907250 [EFF] n=5 last=58623 min=58570 max=58625 late=0 stuck=0 rderr=0
1788581065.917637 [IMU] init=0 addr=0x68 who=0x68 rst=1 pmrb0=0x40 pmrb=0x1 sr=19 cfg=4 gcfg=0x0 acfg=0x8 icfg=0x30 ien=0x1 armed=1
1788581065.922617 [ACC] reads=883 stale=882 rderr=0 ax=50 ay=-51 az=1120
1788581065.925246 [PWR] pm=0x1 drift=0 rderr=0
1788581065.929241 [DWT] ok=1 cyc=3107994375 cyc_per_ms=799999
1788581066.943099 [HB] up_ms=21186 frames=929 inf=929 hazard=123 canary_err=0 q=0 qovr=0
1788581066.954096 [I2C] init=0 gate=0 whoami=0x201e0 wr=0 wrseen=0x27 addr=0x5a ok=8304 err=0 tmo=0 recov=0 pclk1=200000000 sysclk=400000000
1788581066.955471 [NAK] nacks=0
1788581066.960094 [CLK] cpu=800000000 sysb=400000000 pclk1=200000000
1788581066.964611 [TOF] res=0 step=0 id=0xeacc blk=0xeacc10 ctl=0x0
1788581066.970483 [RNG] init=0 step=99 id=0xeacc boot=1 calls=93 xerr=0 dm=1 tb=15
1788581066.977380 [RNG] osc=41 imp=881 imprb=881 mstart=0x40 cfg=91 cfgfail=0x0 vhv=0 vpolls=0
1788581066.983463 [PRT] calls=3833 xerr=0 ler=1 lidx=0x0 perr=0 maxcnt=17 addr8=0x52
1788581066.987586 [RTY] wr=0 wmax=0 wref=0  rd=0 rmax=0 rref=0
1788581066.995210 [RNG] frames=931 last=60 min=38 max=68 nrdy=0 dxfer=0 dstat=0 lst=0 nrdyerr=0 dclr=0
1788581067.001357 [DRV] init=0 id=7 mode=0x1 lib=0x2 seq=0x1 odc=0x8b sts=0xe0 armed=1
1788581067.006853 [TRG] pulses=11 suppressed=112 cyc=1600 rst=1 rstmode=0x40
1788581067.010091 [HLT] polls=18 faults=0x0 cfglost=0
1788581067.015840 [EFF] n=5 last=58623 min=58570 max=58625 late=0 stuck=0 rderr=0
1788581067.026096 [IMU] init=0 addr=0x68 who=0x68 rst=1 pmrb0=0x40 pmrb=0x1 sr=19 cfg=4 gcfg=0x0 acfg=0x8 icfg=0x30 ien=0x1 armed=1
1788581067.031094 [ACC] reads=933 stale=932 rderr=0 ax=52 ay=-50 az=1123
1788581067.033717 [PWR] pm=0x1 drift=0 rderr=0
1788581067.037717 [DWT] ok=1 cyc=3988794255 cyc_per_ms=799999
1788581068.051086 [HB] up_ms=22287 frames=979 inf=979 hazard=123 canary_err=0 q=0 qovr=0
1788581068.061942 [I2C] init=0 gate=0 whoami=0x201e0 wr=0 wrseen=0x27 addr=0x5a ok=8606 err=0 tmo=0 recov=0 pclk1=200000000 sysclk=400000000
1788581068.063343 [NAK] nacks=0
1788581068.068072 [CLK] cpu=800000000 sysb=400000000 pclk1=200000000
1788581068.072568 [TOF] res=0 step=0 id=0xeacc blk=0xeacc10 ctl=0x0
1788581068.078348 [RNG] init=0 step=99 id=0xeacc boot=1 calls=93 xerr=0 dm=1 tb=15
1788581068.085314 [RNG] osc=41 imp=881 imprb=881 mstart=0x40 cfg=91 cfgfail=0x0 vhv=0 vpolls=0
1788581068.091429 [PRT] calls=4033 xerr=0 ler=1 lidx=0x0 perr=0 maxcnt=17 addr8=0x52
1788581068.095464 [RTY] wr=0 wmax=0 wref=0  rd=0 rmax=0 rref=0
1788581068.103074 [RNG] frames=981 last=55 min=38 max=68 nrdy=0 dxfer=0 dstat=0 lst=0 nrdyerr=0 dclr=0
1788581068.109336 [DRV] init=0 id=7 mode=0x1 lib=0x2 seq=0x1 odc=0x8b sts=0xe0 armed=1
1788581068.114696 [TRG] pulses=11 suppressed=112 cyc=1600 rst=1 rstmode=0x40
1788581068.117955 [HLT] polls=19 faults=0x0 cfglost=0
1788581068.123693 [EFF] n=5 last=58623 min=58570 max=58625 late=0 stuck=0 rderr=0
1788581068.133816 [IMU] init=0 addr=0x68 who=0x68 rst=1 pmrb0=0x40 pmrb=0x1 sr=19 cfg=4 gcfg=0x0 acfg=0x8 icfg=0x30 ien=0x1 armed=1
1788581068.138932 [ACC] reads=982 stale=981 rderr=0 ax=51 ay=-48 az=1124
1788581068.141567 [PWR] pm=0x1 drift=0 rderr=0
1788581068.145442 [DWT] ok=1 cyc=574655371 cyc_per_ms=800025
1788581069.159055 [HB] up_ms=23388 frames=1028 inf=1028 hazard=123 canary_err=0 q=0 qovr=0
1788581069.169920 [I2C] init=0 gate=0 whoami=0x201e0 wr=0 wrseen=0x27 addr=0x5a ok=8908 err=0 tmo=0 recov=0 pclk1=200000000 sysclk=400000000
1788581069.171288 [NAK] nacks=0
1788581069.175800 [CLK] cpu=800000000 sysb=400000000 pclk1=200000000
1788581069.180541 [TOF] res=0 step=0 id=0xeacc blk=0xeacc10 ctl=0x0
1788581069.186308 [RNG] init=0 step=99 id=0xeacc boot=1 calls=93 xerr=0 dm=1 tb=15
1788581069.193165 [RNG] osc=41 imp=881 imprb=881 mstart=0x40 cfg=91 cfgfail=0x0 vhv=0 vpolls=0
1788581069.199161 [PRT] calls=4233 xerr=0 ler=1 lidx=0x0 perr=0 maxcnt=17 addr8=0x52
1788581069.203438 [RTY] wr=0 wmax=0 wref=0  rd=0 rmax=0 rref=0
1788581069.211031 [RNG] frames=1031 last=49 min=38 max=68 nrdy=0 dxfer=0 dstat=0 lst=0 nrdyerr=0 dclr=0
1788581069.217291 [DRV] init=0 id=7 mode=0x1 lib=0x2 seq=0x1 odc=0x8b sts=0xe0 armed=1
1788581069.222545 [TRG] pulses=11 suppressed=112 cyc=1600 rst=1 rstmode=0x40
1788581069.226031 [HLT] polls=20 faults=0x0 cfglost=0
1788581069.231778 [EFF] n=5 last=58623 min=58570 max=58625 late=0 stuck=0 rderr=0
1788581069.241914 [IMU] init=0 addr=0x68 who=0x68 rst=1 pmrb0=0x40 pmrb=0x1 sr=19 cfg=4 gcfg=0x0 acfg=0x8 icfg=0x30 ien=0x1 armed=1
1788581069.247030 [ACC] reads=1032 stale=1030 rderr=0 ax=51 ay=-49 az=1125
1788581069.249781 [PWR] pm=0x1 drift=0 rderr=0
1788581069.253790 [DWT] ok=1 cyc=1455911407 cyc_per_ms=800414
1788581070.266640 [HB] up_ms=24489 frames=1078 inf=1078 hazard=123 canary_err=0 q=0 qovr=0
1788581070.277774 [I2C] init=0 gate=0 whoami=0x201e0 wr=0 wrseen=0x27 addr=0x5a ok=9205 err=0 tmo=0 recov=0 pclk1=200000000 sysclk=400000000
1788581070.279004 [NAK] nacks=0
1788581070.283623 [CLK] cpu=800000000 sysb=400000000 pclk1=200000000
1788581070.288142 [TOF] res=0 step=0 id=0xeacc blk=0xeacc10 ctl=0x0
1788581070.294140 [RNG] init=0 step=99 id=0xeacc boot=1 calls=93 xerr=0 dm=1 tb=15
1788581070.301009 [RNG] osc=41 imp=881 imprb=881 mstart=0x40 cfg=91 cfgfail=0x0 vhv=0 vpolls=0
1788581070.307031 [PRT] calls=4433 xerr=0 ler=1 lidx=0x0 perr=0 maxcnt=17 addr8=0x52
1788581070.311000 [RTY] wr=0 wmax=0 wref=0  rd=0 rmax=0 rref=0
1788581070.318884 [RNG] frames=1080 last=54 min=38 max=68 nrdy=0 dxfer=0 dstat=0 lst=0 nrdyerr=0 dclr=0
1788581070.325141 [DRV] init=0 id=7 mode=0x1 lib=0x2 seq=0x1 odc=0x8b sts=0xe0 armed=1
1788581070.330410 [TRG] pulses=12 suppressed=112 cyc=1600 rst=1 rstmode=0x40
1788581070.333631 [HLT] polls=21 faults=0x0 cfglost=0
1788581070.339640 [EFF] n=5 last=58623 min=58570 max=58625 late=0 stuck=0 rderr=0
1788581070.349752 [IMU] init=0 addr=0x68 who=0x68 rst=1 pmrb0=0x40 pmrb=0x1 sr=19 cfg=4 gcfg=0x0 acfg=0x8 icfg=0x30 ien=0x1 armed=1
1788581070.354873 [ACC] reads=1082 stale=1080 rderr=0 ax=50 ay=-50 az=1121
1788581070.357515 [PWR] pm=0x1 drift=0 rderr=0
1788581070.361629 [DWT] ok=1 cyc=2336581371 cyc_per_ms=799881
1788581071.374864 [HB] up_ms=25590 frames=1128 inf=1128 hazard=164 canary_err=0 q=0 qovr=0
1788581071.385962 [I2C] init=0 gate=0 whoami=0x201e0 wr=0 wrseen=0x27 addr=0x5a ok=9506 err=0 tmo=0 recov=0 pclk1=200000000 sysclk=400000000
1788581071.387237 [NAK] nacks=0
1788581071.391817 [CLK] cpu=800000000 sysb=400000000 pclk1=200000000
1788581071.396382 [TOF] res=0 step=0 id=0xeacc blk=0xeacc10 ctl=0x0
1788581071.402218 [RNG] init=0 step=99 id=0xeacc boot=1 calls=93 xerr=0 dm=1 tb=15
1788581071.409231 [RNG] osc=41 imp=881 imprb=881 mstart=0x40 cfg=91 cfgfail=0x0 vhv=0 vpolls=0
1788581071.415207 [PRT] calls=4633 xerr=0 ler=1 lidx=0x0 perr=0 maxcnt=17 addr8=0x52
1788581071.419379 [RTY] wr=0 wmax=0 wref=0  rd=0 rmax=0 rref=0
1788581071.427224 [RNG] frames=1130 last=50 min=38 max=68 nrdy=0 dxfer=0 dstat=0 lst=0 nrdyerr=0 dclr=0
1788581071.433373 [DRV] init=0 id=7 mode=0x1 lib=0x2 seq=0x1 odc=0x8b sts=0xe0 armed=1
1788581071.438585 [TRG] pulses=14 suppressed=150 cyc=1600 rst=1 rstmode=0x40
1788581071.441990 [HLT] polls=22 faults=0x0 cfglost=0
1788581071.447574 [EFF] n=5 last=58623 min=58570 max=58625 late=0 stuck=0 rderr=0
1788581071.457946 [IMU] init=0 addr=0x68 who=0x68 rst=1 pmrb0=0x40 pmrb=0x1 sr=19 cfg=4 gcfg=0x0 acfg=0x8 icfg=0x30 ien=0x1 armed=1
1788581071.463081 [ACC] reads=1132 stale=1130 rderr=0 ax=55 ay=-51 az=1123
1788581071.465699 [PWR] pm=0x1 drift=0 rderr=0
1788581071.469699 [DWT] ok=1 cyc=3217376951 cyc_per_ms=799995
1788581072.482592 [HB] up_ms=26691 frames=1178 inf=1178 hazard=164 canary_err=0 q=0 qovr=0
1788581072.493720 [I2C] init=0 gate=0 whoami=0x201e0 wr=0 wrseen=0x27 addr=0x5a ok=9808 err=0 tmo=0 recov=0 pclk1=200000000 sysclk=400000000
1788581072.494931 [NAK] nacks=0
1788581072.499573 [CLK] cpu=800000000 sysb=400000000 pclk1=200000000
1788581072.504066 [TOF] res=0 step=0 id=0xeacc blk=0xeacc10 ctl=0x0
1788581072.509969 [RNG] init=0 step=99 id=0xeacc boot=1 calls=93 xerr=0 dm=1 tb=15
1788581072.516945 [RNG] osc=41 imp=881 imprb=881 mstart=0x40 cfg=91 cfgfail=0x0 vhv=0 vpolls=0
1788581072.522955 [PRT] calls=4833 xerr=0 ler=1 lidx=0x0 perr=0 maxcnt=17 addr8=0x52
1788581072.526953 [RTY] wr=0 wmax=0 wref=0  rd=0 rmax=0 rref=0
1788581072.534697 [RNG] frames=1180 last=54 min=38 max=68 nrdy=0 dxfer=0 dstat=0 lst=0 nrdyerr=0 dclr=0
1788581072.541096 [DRV] init=0 id=7 mode=0x1 lib=0x2 seq=0x1 odc=0x8b sts=0xe0 armed=1
1788581072.546440 [TRG] pulses=14 suppressed=150 cyc=1600 rst=1 rstmode=0x40
1788581072.549577 [HLT] polls=23 faults=0x0 cfglost=0
1788581072.555388 [EFF] n=5 last=58623 min=58570 max=58625 late=0 stuck=0 rderr=0
1788581072.565740 [IMU] init=0 addr=0x68 who=0x68 rst=1 pmrb0=0x40 pmrb=0x1 sr=19 cfg=4 gcfg=0x0 acfg=0x8 icfg=0x30 ien=0x1 armed=1
1788581072.570801 [ACC] reads=1182 stale=1180 rderr=0 ax=51 ay=-50 az=1119
1788581072.573468 [PWR] pm=0x1 drift=0 rderr=0
1788581072.577352 [DWT] ok=1 cyc=4098177023 cyc_per_ms=800000
1788581073.590362 [HB] up_ms=27792 frames=1228 inf=1228 hazard=164 canary_err=0 q=0 qovr=0
1788581073.601579 [I2C] init=0 gate=0 whoami=0x201e0 wr=0 wrseen=0x27 addr=0x5a ok=10110 err=0 tmo=0 recov=0 pclk1=200000000 sysclk=400000000
1788581073.602944 [NAK] nacks=0
1788581073.607574 [CLK] cpu=800000000 sysb=400000000 pclk1=200000000
1788581073.611955 [TOF] res=0 step=0 id=0xeacc blk=0xeacc10 ctl=0x0
1788581073.617859 [RNG] init=0 step=99 id=0xeacc boot=1 calls=93 xerr=0 dm=1 tb=15
1788581073.624851 [RNG] osc=41 imp=881 imprb=881 mstart=0x40 cfg=91 cfgfail=0x0 vhv=0 vpolls=0
1788581073.630830 [PRT] calls=5032 xerr=0 ler=1 lidx=0x0 perr=0 maxcnt=17 addr8=0x52
1788581073.634943 [RTY] wr=0 wmax=0 wref=0  rd=0 rmax=0 rref=0
1788581073.642583 [RNG] frames=1230 last=60 min=38 max=68 nrdy=0 dxfer=0 dstat=0 lst=0 nrdyerr=0 dclr=0
1788581073.648966 [DRV] init=0 id=7 mode=0x1 lib=0x2 seq=0x1 odc=0x8b sts=0xe0 armed=1
1788581073.654207 [TRG] pulses=14 suppressed=150 cyc=1600 rst=1 rstmode=0x40
1788581073.657547 [HLT] polls=24 faults=0x0 cfglost=0
1788581073.663252 [EFF] n=5 last=58623 min=58570 max=58625 late=0 stuck=0 rderr=0
1788581073.673597 [IMU] init=0 addr=0x68 who=0x68 rst=1 pmrb0=0x40 pmrb=0x1 sr=19 cfg=4 gcfg=0x0 acfg=0x8 icfg=0x30 ien=0x1 armed=1
1788581073.678695 [ACC] reads=1232 stale=1230 rderr=0 ax=51 ay=-49 az=1122
1788581073.681309 [PWR] pm=0x1 drift=0 rderr=0
1788581073.685167 [DWT] ok=1 cyc=684079903 cyc_per_ms=800063
1788581074.698311 [HB] up_ms=28893 frames=1278 inf=1278 hazard=164 canary_err=0 q=0 qovr=0
1788581074.709312 [I2C] init=0 gate=0 whoami=0x201e0 wr=0 wrseen=0x27 addr=0x5a ok=10412 err=0 tmo=0 recov=0 pclk1=200000000 sysclk=400000000
1788581074.710669 [NAK] nacks=0
1788581074.715417 [CLK] cpu=800000000 sysb=400000000 pclk1=200000000
1788581074.719920 [TOF] res=0 step=0 id=0xeacc blk=0xeacc10 ctl=0x0
1788581074.725679 [RNG] init=0 step=99 id=0xeacc boot=1 calls=93 xerr=0 dm=1 tb=15
1788581074.732563 [RNG] osc=41 imp=881 imprb=881 mstart=0x40 cfg=91 cfgfail=0x0 vhv=0 vpolls=0
1788581074.738797 [PRT] calls=5229 xerr=0 ler=1 lidx=0x0 perr=0 maxcnt=17 addr8=0x52
1788581074.742808 [RTY] wr=0 wmax=0 wref=0  rd=0 rmax=0 rref=0
1788581074.750533 [RNG] frames=1280 last=52 min=38 max=68 nrdy=0 dxfer=0 dstat=0 lst=0 nrdyerr=0 dclr=0
1788581074.757375 [DRV] init=0 id=7 mode=0x1 lib=0x2 seq=0x1 odc=0x8b sts=0xe0 armed=1
1788581074.762550 [TRG] pulses=14 suppressed=150 cyc=1600 rst=1 rstmode=0x40
1788581074.766039 [HLT] polls=25 faults=0x0 cfglost=0
1788581074.771148 [EFF] n=5 last=58623 min=58570 max=58625 late=0 stuck=0 rderr=0
1788581074.781651 [IMU] init=0 addr=0x68 who=0x68 rst=1 pmrb0=0x40 pmrb=0x1 sr=19 cfg=4 gcfg=0x0 acfg=0x8 icfg=0x30 ien=0x1 armed=1
1788581074.786639 [ACC] reads=1282 stale=1280 rderr=0 ax=50 ay=-49 az=1121
1788581074.789249 [PWR] pm=0x1 drift=0 rderr=0
1788581074.793455 [DWT] ok=1 cyc=1564879823 cyc_per_ms=799999
1788581075.806649 [HB] up_ms=29994 frames=1327 inf=1327 hazard=164 canary_err=0 q=0 qovr=0
1788581075.817771 [I2C] init=0 gate=0 whoami=0x201e0 wr=0 wrseen=0x27 addr=0x5a ok=10714 err=0 tmo=0 recov=0 pclk1=200000000 sysclk=400000000
1788581075.819007 [NAK] nacks=0
1788581075.823650 [CLK] cpu=800000000 sysb=400000000 pclk1=200000000
1788581075.828211 [TOF] res=0 step=0 id=0xeacc blk=0xeacc10 ctl=0x0
1788581075.834085 [RNG] init=0 step=99 id=0xeacc boot=1 calls=93 xerr=0 dm=1 tb=15
1788581075.840980 [RNG] osc=41 imp=881 imprb=881 mstart=0x40 cfg=91 cfgfail=0x0 vhv=0 vpolls=0
1788581075.847089 [PRT] calls=5429 xerr=0 ler=1 lidx=0x0 perr=0 maxcnt=17 addr8=0x52
1788581075.851206 [RTY] wr=0 wmax=0 wref=0  rd=0 rmax=0 rref=0
1788581075.858862 [RNG] frames=1330 last=51 min=38 max=68 nrdy=0 dxfer=0 dstat=0 lst=0 nrdyerr=0 dclr=0
1788581075.865111 [DRV] init=0 id=7 mode=0x1 lib=0x2 seq=0x1 odc=0x8b sts=0xe0 armed=1
1788581075.870483 [TRG] pulses=14 suppressed=150 cyc=1600 rst=1 rstmode=0x40
1788581075.873842 [HLT] polls=26 faults=0x0 cfglost=0
1788581075.879591 [EFF] n=5 last=58623 min=58570 max=58625 late=0 stuck=0 rderr=0
1788581075.890191 [IMU] init=0 addr=0x68 who=0x68 rst=1 pmrb0=0x40 pmrb=0x1 sr=19 cfg=4 gcfg=0x0 acfg=0x8 icfg=0x30 ien=0x1 armed=1
1788581075.894991 [ACC] reads=1331 stale=1329 rderr=0 ax=51 ay=-48 az=1124
1788581075.897588 [PWR] pm=0x1 drift=0 rderr=0
1788581075.901603 [DWT] ok=1 cyc=2445813721 cyc_per_ms=800121
1788581076.914715 [HB] up_ms=31095 frames=1377 inf=1377 hazard=164 canary_err=0 q=0 qovr=0
1788581076.925855 [I2C] init=0 gate=0 whoami=0x201e0 wr=0 wrseen=0x27 addr=0x5a ok=11016 err=0 tmo=0 recov=0 pclk1=200000000 sysclk=400000000
1788581076.927197 [NAK] nacks=0
1788581076.931731 [CLK] cpu=800000000 sysb=400000000 pclk1=200000000
1788581076.936314 [TOF] res=0 step=0 id=0xeacc blk=0xeacc10 ctl=0x0
1788581076.942189 [RNG] init=0 step=99 id=0xeacc boot=1 calls=93 xerr=0 dm=1 tb=15
1788581076.949089 [RNG] osc=41 imp=881 imprb=881 mstart=0x40 cfg=91 cfgfail=0x0 vhv=0 vpolls=0
1788581076.955081 [PRT] calls=5629 xerr=0 ler=1 lidx=0x0 perr=0 maxcnt=17 addr8=0x52
1788581076.959193 [RTY] wr=0 wmax=0 wref=0  rd=0 rmax=0 rref=0
1788581076.966937 [RNG] frames=1379 last=54 min=38 max=68 nrdy=0 dxfer=0 dstat=0 lst=0 nrdyerr=0 dclr=0
1788581076.973213 [DRV] init=0 id=7 mode=0x1 lib=0x2 seq=0x1 odc=0x8b sts=0xe0 armed=1
1788581076.978446 [TRG] pulses=14 suppressed=150 cyc=1600 rst=1 rstmode=0x40
1788581076.981671 [HLT] polls=27 faults=0x0 cfglost=0
1788581076.987564 [EFF] n=5 last=58623 min=58570 max=58625 late=0 stuck=0 rderr=0
1788581076.997701 [IMU] init=0 addr=0x68 who=0x68 rst=1 pmrb0=0x40 pmrb=0x1 sr=19 cfg=4 gcfg=0x0 acfg=0x8 icfg=0x30 ien=0x1 armed=1
1788581077.002837 [ACC] reads=1381 stale=1379 rderr=0 ax=50 ay=-53 az=1119
1788581077.005584 [PWR] pm=0x1 drift=0 rderr=0
1788581077.009728 [DWT] ok=1 cyc=3326549371 cyc_per_ms=799941
1788581078.022296 [HB] up_ms=32196 frames=1427 inf=1427 hazard=191 canary_err=0 q=0 qovr=0
1788581078.033560 [I2C] init=0 gate=0 whoami=0x201e0 wr=0 wrseen=0x27 addr=0x5a ok=11312 err=0 tmo=0 recov=0 pclk1=200000000 sysclk=400000000
1788581078.034926 [NAK] nacks=0
1788581078.039427 [CLK] cpu=800000000 sysb=400000000 pclk1=200000000
1788581078.043922 [TOF] res=0 step=0 id=0xeacc blk=0xeacc10 ctl=0x0
1788581078.049911 [RNG] init=0 step=99 id=0xeacc boot=1 calls=93 xerr=0 dm=1 tb=15
1788581078.056788 [RNG] osc=41 imp=881 imprb=881 mstart=0x40 cfg=91 cfgfail=0x0 vhv=0 vpolls=0
1788581078.062806 [PRT] calls=5829 xerr=0 ler=1 lidx=0x0 perr=0 maxcnt=17 addr8=0x52
1788581078.066906 [RTY] wr=0 wmax=0 wref=0  rd=0 rmax=0 rref=0
1788581078.074798 [RNG] frames=1429 last=61 min=38 max=68 nrdy=0 dxfer=0 dstat=0 lst=0 nrdyerr=0 dclr=0
1788581078.080905 [DRV] init=0 id=7 mode=0x1 lib=0x2 seq=0x1 odc=0x8b sts=0xe0 armed=1
1788581078.086141 [TRG] pulses=17 suppressed=177 cyc=1600 rst=1 rstmode=0x40
1788581078.089579 [HLT] polls=28 faults=0x0 cfglost=0
1788581078.095419 [EFF] n=5 last=58623 min=58570 max=58625 late=0 stuck=0 rderr=0
1788581078.105550 [IMU] init=0 addr=0x68 who=0x68 rst=1 pmrb0=0x40 pmrb=0x1 sr=19 cfg=4 gcfg=0x0 acfg=0x8 icfg=0x30 ien=0x1 armed=1
1788581078.110680 [ACC] reads=1431 stale=1429 rderr=0 ax=50 ay=-50 az=1123
1788581078.113294 [PWR] pm=0x1 drift=0 rderr=0
1788581078.117299 [DWT] ok=1 cyc=4207285831 cyc_per_ms=799942
1788581079.130778 [HB] up_ms=33297 frames=1477 inf=1477 hazard=205 canary_err=0 q=0 qovr=0
1788581079.141906 [I2C] init=0 gate=0 whoami=0x201e0 wr=0 wrseen=0x27 addr=0x5a ok=11614 err=0 tmo=0 recov=0 pclk1=200000000 sysclk=400000000
1788581079.143256 [NAK] nacks=0
1788581079.147877 [CLK] cpu=800000000 sysb=400000000 pclk1=200000000
1788581079.152420 [TOF] res=0 step=0 id=0xeacc blk=0xeacc10 ctl=0x0
1788581079.158146 [RNG] init=0 step=99 id=0xeacc boot=1 calls=93 xerr=0 dm=1 tb=15
1788581079.165258 [RNG] osc=41 imp=881 imprb=881 mstart=0x40 cfg=91 cfgfail=0x0 vhv=0 vpolls=0
1788581079.171239 [PRT] calls=6029 xerr=0 ler=1 lidx=0x0 perr=0 maxcnt=17 addr8=0x52
1788581079.175239 [RTY] wr=0 wmax=0 wref=0  rd=0 rmax=0 rref=0
1788581079.183151 [RNG] frames=1479 last=55 min=38 max=68 nrdy=0 dxfer=0 dstat=0 lst=0 nrdyerr=0 dclr=0
1788581079.189432 [DRV] init=0 id=7 mode=0x1 lib=0x2 seq=0x1 odc=0x8b sts=0xe0 armed=1
1788581079.194619 [TRG] pulses=17 suppressed=188 cyc=1600 rst=1 rstmode=0x40
1788581079.197876 [HLT] polls=29 faults=0x0 cfglost=0
1788581079.203655 [EFF] n=5 last=58623 min=58570 max=58625 late=0 stuck=0 rderr=0
1788581079.213991 [IMU] init=0 addr=0x68 who=0x68 rst=1 pmrb0=0x40 pmrb=0x1 sr=19 cfg=4 gcfg=0x0 acfg=0x8 icfg=0x30 ien=0x1 armed=1
1788581079.219119 [ACC] reads=1481 stale=1479 rderr=0 ax=50 ay=-50 az=1122
1788581079.221734 [PWR] pm=0x1 drift=0 rderr=0
1788581079.225760 [DWT] ok=1 cyc=793112567 cyc_per_ms=799994
1788581080.238982 [HB] up_ms=34398 frames=1527 inf=1527 hazard=205 canary_err=0 q=0 qovr=0
1788581080.250120 [I2C] init=0 gate=0 whoami=0x201e0 wr=0 wrseen=0x27 addr=0x5a ok=11916 err=0 tmo=0 recov=0 pclk1=200000000 sysclk=400000000
1788581080.251486 [NAK] nacks=0
1788581080.256118 [CLK] cpu=800000000 sysb=400000000 pclk1=200000000
1788581080.260606 [TOF] res=0 step=0 id=0xeacc blk=0xeacc10 ctl=0x0
1788581080.266382 [RNG] init=0 step=99 id=0xeacc boot=1 calls=93 xerr=0 dm=1 tb=15
1788581080.273526 [RNG] osc=41 imp=881 imprb=881 mstart=0x40 cfg=91 cfgfail=0x0 vhv=0 vpolls=0
1788581080.279500 [PRT] calls=6229 xerr=0 ler=1 lidx=0x0 perr=0 maxcnt=17 addr8=0x52
1788581080.283468 [RTY] wr=0 wmax=0 wref=0  rd=0 rmax=0 rref=0
1788581080.291226 [RNG] frames=1529 last=62 min=38 max=68 nrdy=0 dxfer=0 dstat=0 lst=0 nrdyerr=0 dclr=0
1788581080.297482 [DRV] init=0 id=7 mode=0x1 lib=0x2 seq=0x1 odc=0x8b sts=0xe0 armed=1
1788581080.302838 [TRG] pulses=17 suppressed=188 cyc=1600 rst=1 rstmode=0x40
1788581080.306096 [HLT] polls=30 faults=0x0 cfglost=0
1788581080.311861 [EFF] n=5 last=58623 min=58570 max=58625 late=0 stuck=0 rderr=0
1788581080.322129 [IMU] init=0 addr=0x68 who=0x68 rst=1 pmrb0=0x40 pmrb=0x1 sr=19 cfg=4 gcfg=0x0 acfg=0x8 icfg=0x30 ien=0x1 armed=1
1788581080.327241 [ACC] reads=1531 stale=1529 rderr=0 ax=50 ay=-50 az=1123
1788581080.329860 [PWR] pm=0x1 drift=0 rderr=0
1788581080.333863 [DWT] ok=1 cyc=1673912363 cyc_per_ms=799999
1788581081.346580 [HB] up_ms=35499 frames=1577 inf=1577 hazard=205 canary_err=0 q=0 qovr=0
1788581081.357860 [I2C] init=0 gate=0 whoami=0x201e0 wr=0 wrseen=0x27 addr=0x5a ok=12218 err=0 tmo=0 recov=0 pclk1=200000000 sysclk=400000000
1788581081.359162 [NAK] nacks=0
1788581081.363687 [CLK] cpu=800000000 sysb=400000000 pclk1=200000000
1788581081.373430 [TOF] res=0 step=0 id=0xeacc blk=0xeacc10 ctl=0x0
1788581081.374069 [RNG] init=0 step=99 id=0xeacc boot=1 calls=93 xerr=0 dm=1 tb=15
1788581081.381408 [RNG] osc=41 imp=881 imprb=881 mstart=0x40 cfg=91 cfgfail=0x0 vhv=0 vpolls=0
1788581081.387442 [PRT] calls=6425 xerr=0 ler=1 lidx=0x0 perr=0 maxcnt=17 addr8=0x52
1788581081.393274 [RTY] wr=0 wmax=0 wref=0  rd=0 rmax=0 rref=0
1788581081.398803 [RNG] frames=1579 last=56 min=38 max=68 nrdy=0 dxfer=0 dstat=0 lst=0 nrdyerr=0 dclr=0
1788581081.405286 [DRV] init=0 id=7 mode=0x1 lib=0x2 seq=0x1 odc=0x8b sts=0xe0 armed=1
1788581081.410806 [TRG] pulses=17 suppressed=188 cyc=1600 rst=1 rstmode=0x40
1788581081.413720 [HLT] polls=31 faults=0x0 cfglost=0
1788581081.419443 [EFF] n=5 last=58623 min=58570 max=58625 late=0 stuck=0 rderr=0
1788581081.429802 [IMU] init=0 addr=0x68 who=0x68 rst=1 pmrb0=0x40 pmrb=0x1 sr=19 cfg=4 gcfg=0x0 acfg=0x8 icfg=0x30 ien=0x1 armed=1
1788581081.434943 [ACC] reads=1581 stale=1579 rderr=0 ax=51 ay=-49 az=1123
1788581081.437570 [PWR] pm=0x1 drift=0 rderr=0
1788581081.441565 [DWT] ok=1 cyc=2554712635 cyc_per_ms=800000
1788581082.454184 [HB] up_ms=36600 frames=1627 inf=1627 hazard=205 canary_err=0 q=0 qovr=0
1788581082.465282 [I2C] init=0 gate=0 whoami=0x201e0 wr=0 wrseen=0x27 addr=0x5a ok=12520 err=0 tmo=0 recov=0 pclk1=200000000 sysclk=400000000
1788581082.466526 [NAK] nacks=0
1788581082.471278 [CLK] cpu=800000000 sysb=400000000 pclk1=200000000
1788581082.475787 [TOF] res=0 step=0 id=0xeacc blk=0xeacc10 ctl=0x0
1788581082.481658 [RNG] init=0 step=99 id=0xeacc boot=1 calls=93 xerr=0 dm=1 tb=15
1788581082.488546 [RNG] osc=41 imp=881 imprb=881 mstart=0x40 cfg=91 cfgfail=0x0 vhv=0 vpolls=0
1788581082.495079 [PRT] calls=6625 xerr=0 ler=1 lidx=0x0 perr=0 maxcnt=17 addr8=0x52
1788581082.498702 [RTY] wr=0 wmax=0 wref=0  rd=0 rmax=0 rref=0
1788581082.506411 [RNG] frames=1629 last=57 min=38 max=68 nrdy=0 dxfer=0 dstat=0 lst=0 nrdyerr=0 dclr=0
1788581082.512542 [DRV] init=0 id=7 mode=0x1 lib=0x2 seq=0x1 odc=0x8b sts=0xe0 armed=1
1788581082.518033 [TRG] pulses=17 suppressed=188 cyc=1600 rst=1 rstmode=0x40
1788581082.521299 [HLT] polls=32 faults=0x0 cfglost=0
1788581082.527427 [EFF] n=5 last=58623 min=58570 max=58625 late=0 stuck=0 rderr=0
1788581082.537157 [IMU] init=0 addr=0x68 who=0x68 rst=1 pmrb0=0x40 pmrb=0x1 sr=19 cfg=4 gcfg=0x0 acfg=0x8 icfg=0x30 ien=0x1 armed=1
1788581082.542598 [ACC] reads=1630 stale=1628 rderr=0 ax=51 ay=-49 az=1121
1788581082.545177 [PWR] pm=0x1 drift=0 rderr=0
1788581082.549028 [DWT] ok=1 cyc=3435512391 cyc_per_ms=799999
1788581083.562172 [HB] up_ms=37701 frames=1676 inf=1676 hazard=205 canary_err=0 q=0 qovr=0
1788581083.573881 [I2C] init=0 gate=0 whoami=0x201e0 wr=0 wrseen=0x27 addr=0x5a ok=12822 err=0 tmo=0 recov=0 pclk1=200000000 sysclk=400000000
1788581083.574727 [NAK] nacks=0
1788581083.579122 [CLK] cpu=800000000 sysb=400000000 pclk1=200000000
1788581083.583631 [TOF] res=0 step=0 id=0xeacc blk=0xeacc10 ctl=0x0
1788581083.589503 [RNG] init=0 step=99 id=0xeacc boot=1 calls=93 xerr=0 dm=1 tb=15
1788581083.596395 [RNG] osc=41 imp=881 imprb=881 mstart=0x40 cfg=91 cfgfail=0x0 vhv=0 vpolls=0
1788581083.602387 [PRT] calls=6825 xerr=0 ler=1 lidx=0x0 perr=0 maxcnt=17 addr8=0x52
1788581083.606653 [RTY] wr=0 wmax=0 wref=0  rd=0 rmax=0 rref=0
1788581083.614266 [RNG] frames=1679 last=55 min=38 max=68 nrdy=0 dxfer=0 dstat=0 lst=0 nrdyerr=0 dclr=0
1788581083.620513 [DRV] init=0 id=7 mode=0x1 lib=0x2 seq=0x1 odc=0x8b sts=0xe0 armed=1
1788581083.626239 [TRG] pulses=17 suppressed=188 cyc=1600 rst=1 rstmode=0x40
1788581083.629302 [HLT] polls=33 faults=0x0 cfglost=0
1788581083.635007 [EFF] n=5 last=58623 min=58570 max=58625 late=0 stuck=0 rderr=0
1788581083.645156 [IMU] init=0 addr=0x68 who=0x68 rst=1 pmrb0=0x40 pmrb=0x1 sr=19 cfg=4 gcfg=0x0 acfg=0x8 icfg=0x30 ien=0x1 armed=1
1788581083.650387 [ACC] reads=1680 stale=1678 rderr=0 ax=50 ay=-48 az=1122
1788581083.652999 [PWR] pm=0x1 drift=0 rderr=0
1788581083.657179 [DWT] ok=1 cyc=21479709 cyc_per_ms=800122
1788581084.669977 [HB] up_ms=38802 frames=1726 inf=1726 hazard=211 canary_err=0 q=0 qovr=0
1788581084.681104 [I2C] init=0 gate=0 whoami=0x201e0 wr=0 wrseen=0x27 addr=0x5a ok=13122 err=0 tmo=0 recov=0 pclk1=200000000 sysclk=400000000
1788581084.682366 [NAK] nacks=0
1788581084.686973 [CLK] cpu=800000000 sysb=400000000 pclk1=200000000
1788581084.691700 [TOF] res=0 step=0 id=0xeacc blk=0xeacc10 ctl=0x0
1788581084.697475 [RNG] init=0 step=99 id=0xeacc boot=1 calls=93 xerr=0 dm=1 tb=15
1788581084.704356 [RNG] osc=41 imp=881 imprb=881 mstart=0x40 cfg=91 cfgfail=0x0 vhv=0 vpolls=0
1788581084.710393 [PRT] calls=7025 xerr=0 ler=1 lidx=0x0 perr=0 maxcnt=17 addr8=0x52
1788581084.714367 [RTY] wr=0 wmax=0 wref=0  rd=0 rmax=0 rref=0
1788581084.722231 [RNG] frames=1728 last=64 min=38 max=68 nrdy=0 dxfer=0 dstat=0 lst=0 nrdyerr=0 dclr=0
1788581084.728375 [DRV] init=0 id=7 mode=0x1 lib=0x2 seq=0x1 odc=0x8b sts=0xe0 armed=1
1788581084.733721 [TRG] pulses=18 suppressed=196 cyc=1600 rst=1 rstmode=0x40
1788581084.736973 [HLT] polls=34 faults=0x0 cfglost=0
1788581084.742869 [EFF] n=5 last=58623 min=58570 max=58625 late=0 stuck=0 rderr=0
1788581084.752976 [IMU] init=0 addr=0x68 who=0x68 rst=1 pmrb0=0x40 pmrb=0x1 sr=19 cfg=4 gcfg=0x0 acfg=0x8 icfg=0x30 ien=0x1 armed=1
1788581084.758197 [ACC] reads=1730 stale=1727 rderr=0 ax=52 ay=-49 az=1120
1788581084.760794 [PWR] pm=0x1 drift=0 rderr=0
1788581084.764723 [DWT] ok=1 cyc=902148647 cyc_per_ms=799880
1788581085.777379 [HB] up_ms=39903 frames=1776 inf=1776 hazard=246 canary_err=0 q=0 qovr=0
1788581085.787962 [I2C] init=0 gate=0 whoami=0x201e0 wr=0 wrseen=0x27 addr=0x5a ok=13420 err=0 tmo=0 recov=0 pclk1=200000000 sysclk=400000000
1788581085.789360 [NAK] nacks=0
1788581085.793998 [CLK] cpu=800000000 sysb=400000000 pclk1=200000000
1788581085.798453 [TOF] res=0 step=0 id=0xeacc blk=0xeacc10 ctl=0x0
1788581085.804344 [RNG] init=0 step=99 id=0xeacc boot=1 calls=93 xerr=0 dm=1 tb=15
1788581085.811405 [RNG] osc=41 imp=881 imprb=881 mstart=0x40 cfg=91 cfgfail=0x0 vhv=0 vpolls=0
1788581085.817359 [PRT] calls=7225 xerr=0 ler=1 lidx=0x0 perr=0 maxcnt=17 addr8=0x52
1788581085.821506 [RTY] wr=0 wmax=0 wref=0  rd=0 rmax=0 rref=0
1788581085.829359 [RNG] frames=1778 last=51 min=38 max=68 nrdy=0 dxfer=0 dstat=0 lst=0 nrdyerr=0 dclr=0
1788581085.835338 [DRV] init=0 id=7 mode=0x1 lib=0x2 seq=0x1 odc=0x8b sts=0xe0 armed=1
1788581085.842702 [TRG] pulses=20 suppressed=226 cyc=1600 rst=1 rstmode=0x40
1788581085.844172 [HLT] polls=35 faults=0x0 cfglost=0
1788581085.849703 [EFF] n=5 last=58623 min=58570 max=58625 late=0 stuck=0 rderr=0
1788581085.860350 [IMU] init=0 addr=0x68 who=0x68 rst=1 pmrb0=0x40 pmrb=0x1 sr=19 cfg=4 gcfg=0x0 acfg=0x8 icfg=0x30 ien=0x1 armed=1
1788581085.865066 [ACC] reads=1780 stale=1777 rderr=0 ax=51 ay=-48 az=1122
1788581085.867713 [PWR] pm=0x1 drift=0 rderr=0
1788581085.871713 [DWT] ok=1 cyc=1782945115 cyc_per_ms=799996
1788581086.884671 [HB] up_ms=41004 frames=1826 inf=1826 hazard=246 canary_err=0 q=0 qovr=0
1788581086.895809 [I2C] init=0 gate=0 whoami=0x201e0 wr=0 wrseen=0x27 addr=0x5a ok=13722 err=0 tmo=0 recov=0 pclk1=200000000 sysclk=400000000
1788581086.897173 [NAK] nacks=0
1788581086.901866 [CLK] cpu=800000000 sysb=400000000 pclk1=200000000
1788581086.906793 [TOF] res=0 step=0 id=0xeacc blk=0xeacc10 ctl=0x0
1788581086.912160 [RNG] init=0 step=99 id=0xeacc boot=1 calls=93 xerr=0 dm=1 tb=15
1788581086.919166 [RNG] osc=41 imp=881 imprb=881 mstart=0x40 cfg=91 cfgfail=0x0 vhv=0 vpolls=0
1788581086.925211 [PRT] calls=7425 xerr=0 ler=1 lidx=0x0 perr=0 maxcnt=17 addr8=0x52
1788581086.929227 [RTY] wr=0 wmax=0 wref=0  rd=0 rmax=0 rref=0
1788581086.936920 [RNG] frames=1828 last=52 min=38 max=68 nrdy=0 dxfer=0 dstat=0 lst=0 nrdyerr=0 dclr=0
1788581086.943205 [DRV] init=0 id=7 mode=0x1 lib=0x2 seq=0x1 odc=0x8b sts=0xe0 armed=1
1788581086.948540 [TRG] pulses=20 suppressed=226 cyc=1600 rst=1 rstmode=0x40
1788581086.951791 [HLT] polls=36 faults=0x0 cfglost=0
1788581086.957830 [EFF] n=5 last=58623 min=58570 max=58625 late=0 stuck=0 rderr=0
1788581086.967808 [IMU] init=0 addr=0x68 who=0x68 rst=1 pmrb0=0x40 pmrb=0x1 sr=19 cfg=4 gcfg=0x0 acfg=0x8 icfg=0x30 ien=0x1 armed=1
1788581086.972916 [ACC] reads=1830 stale=1827 rderr=0 ax=49 ay=-48 az=1123
1788581086.975651 [PWR] pm=0x1 drift=0 rderr=0
1788581086.979589 [DWT] ok=1 cyc=2663745447 cyc_per_ms=800000
1788581087.992295 [HB] up_ms=42105 frames=1876 inf=1876 hazard=246 canary_err=0 q=0 qovr=0
1788581088.003517 [I2C] init=0 gate=0 whoami=0x201e0 wr=0 wrseen=0x27 addr=0x5a ok=14024 err=0 tmo=0 recov=0 pclk1=200000000 sysclk=400000000
1788581088.004884 [NAK] nacks=0
1788581088.009409 [CLK] cpu=800000000 sysb=400000000 pclk1=200000000
1788581088.013902 [TOF] res=0 step=0 id=0xeacc blk=0xeacc10 ctl=0x0
1788581088.019766 [RNG] init=0 step=99 id=0xeacc boot=1 calls=93 xerr=0 dm=1 tb=15
1788581088.026780 [RNG] osc=41 imp=881 imprb=881 mstart=0x40 cfg=91 cfgfail=0x0 vhv=0 vpolls=0
1788581088.032889 [PRT] calls=7625 xerr=0 ler=1 lidx=0x0 perr=0 maxcnt=17 addr8=0x52
1788581088.036889 [RTY] wr=0 wmax=0 wref=0  rd=0 rmax=0 rref=0
1788581088.044524 [RNG] frames=1878 last=61 min=38 max=68 nrdy=0 dxfer=0 dstat=0 lst=0 nrdyerr=0 dclr=0
1788581088.050886 [DRV] init=0 id=7 mode=0x1 lib=0x2 seq=0x1 odc=0x8b sts=0xe0 armed=1
1788581088.056271 [TRG] pulses=20 suppressed=226 cyc=1600 rst=1 rstmode=0x40
1788581088.060930 [HLT] polls=37 faults=0x0 cfglost=0
1788581088.065260 [EFF] n=5 last=58623 min=58570 max=58625 late=0 stuck=0 rderr=0
1788581088.075518 [IMU] init=0 addr=0x68 who=0x68 rst=1 pmrb0=0x40 pmrb=0x1 sr=19 cfg=4 gcfg=0x0 acfg=0x8 icfg=0x30 ien=0x1 armed=1
1788581088.080651 [ACC] reads=1880 stale=1877 rderr=0 ax=52 ay=-50 az=1120
1788581088.083253 [PWR] pm=0x1 drift=0 rderr=0
1788581088.087258 [DWT] ok=1 cyc=3544545063 cyc_per_ms=799999
1788581089.100118 [HB] up_ms=43206 frames=1926 inf=1926 hazard=246 canary_err=0 q=0 qovr=0
1788581089.111137 [I2C] init=0 gate=0 whoami=0x201e0 wr=0 wrseen=0x27 addr=0x5a ok=14326 err=0 tmo=0 recov=0 pclk1=200000000 sysclk=400000000
1788581089.112493 [NAK] nacks=0
1788581089.117145 [CLK] cpu=800000000 sysb=400000000 pclk1=200000000
1788581089.121620 [TOF] res=0 step=0 id=0xeacc blk=0xeacc10 ctl=0x0
1788581089.127519 [RNG] init=0 step=99 id=0xeacc boot=1 calls=93 xerr=0 dm=1 tb=15
1788581089.134405 [RNG] osc=41 imp=881 imprb=881 mstart=0x40 cfg=91 cfgfail=0x0 vhv=0 vpolls=0
1788581089.140506 [PRT] calls=7821 xerr=0 ler=1 lidx=0x0 perr=0 maxcnt=17 addr8=0x52
1788581089.144626 [RTY] wr=0 wmax=0 wref=0  rd=0 rmax=0 rref=0
1788581089.152240 [RNG] frames=1928 last=59 min=38 max=68 nrdy=0 dxfer=0 dstat=0 lst=0 nrdyerr=0 dclr=0
1788581089.158491 [DRV] init=0 id=7 mode=0x1 lib=0x2 seq=0x1 odc=0x8b sts=0xe0 armed=1
1788581089.163883 [TRG] pulses=20 suppressed=226 cyc=1600 rst=1 rstmode=0x40
1788581089.167253 [HLT] polls=38 faults=0x0 cfglost=0
1788581089.172887 [EFF] n=5 last=58623 min=58570 max=58625 late=0 stuck=0 rderr=0
1788581089.183875 [IMU] init=0 addr=0x68 who=0x68 rst=1 pmrb0=0x40 pmrb=0x1 sr=19 cfg=4 gcfg=0x0 acfg=0x8 icfg=0x30 ien=0x1 armed=1
1788581089.188422 [ACC] reads=1930 stale=1927 rderr=0 ax=50 ay=-49 az=1123
1788581089.190989 [PWR] pm=0x1 drift=0 rderr=0
1788581089.194869 [DWT] ok=1 cyc=130377927 cyc_per_ms=800000
1788581090.207958 [HB] up_ms=44307 frames=1976 inf=1976 hazard=246 canary_err=0 q=0 qovr=0
1788581090.219248 [I2C] init=0 gate=0 whoami=0x201e0 wr=0 wrseen=0x27 addr=0x5a ok=14628 err=0 tmo=0 recov=0 pclk1=200000000 sysclk=400000000
1788581090.220355 [NAK] nacks=0
1788581090.225099 [CLK] cpu=800000000 sysb=400000000 pclk1=200000000
1788581090.229587 [TOF] res=0 step=0 id=0xeacc blk=0xeacc10 ctl=0x0
1788581090.235470 [RNG] init=0 step=99 id=0xeacc boot=1 calls=93 xerr=0 dm=1 tb=15
1788581090.243036 [RNG] osc=41 imp=881 imprb=881 mstart=0x40 cfg=91 cfgfail=0x0 vhv=0 vpolls=0
1788581090.248456 [PRT] calls=8021 xerr=0 ler=1 lidx=0x0 perr=0 maxcnt=17 addr8=0x52
1788581090.252608 [RTY] wr=0 wmax=0 wref=0  rd=0 rmax=0 rref=0
1788581090.260289 [RNG] frames=1978 last=59 min=38 max=68 nrdy=0 dxfer=0 dstat=0 lst=0 nrdyerr=0 dclr=0
1788581090.266479 [DRV] init=0 id=7 mode=0x1 lib=0x2 seq=0x1 odc=0x8b sts=0xe0 armed=1
1788581090.271842 [TRG] pulses=20 suppressed=226 cyc=1600 rst=1 rstmode=0x40
1788581090.275097 [HLT] polls=39 faults=0x0 cfglost=0
1788581090.280832 [EFF] n=5 last=58623 min=58570 max=58625 late=0 stuck=0 rderr=0
1788581090.291411 [IMU] init=0 addr=0x68 who=0x68 rst=1 pmrb0=0x40 pmrb=0x1 sr=19 cfg=4 gcfg=0x0 acfg=0x8 icfg=0x30 ien=0x1 armed=1
1788581090.296367 [ACC] reads=1979 stale=1976 rderr=0 ax=52 ay=-49 az=1123
1788581090.298971 [PWR] pm=0x1 drift=0 rderr=0
1788581090.302968 [DWT] ok=1 cyc=1011206035 cyc_per_ms=800025
1788581091.316194 [HB] up_ms=45408 frames=2025 inf=2025 hazard=246 canary_err=0 q=0 qovr=0
1788581091.327202 [I2C] init=0 gate=0 whoami=0x201e0 wr=0 wrseen=0x27 addr=0x5a ok=14930 err=0 tmo=0 recov=0 pclk1=200000000 sysclk=400000000
1788581091.328614 [NAK] nacks=0
1788581091.333084 [CLK] cpu=800000000 sysb=400000000 pclk1=200000000
1788581091.337824 [TOF] res=0 step=0 id=0xeacc blk=0xeacc10 ctl=0x0
1788581091.343718 [RNG] init=0 step=99 id=0xeacc boot=1 calls=93 xerr=0 dm=1 tb=15
1788581091.350556 [RNG] osc=41 imp=881 imprb=881 mstart=0x40 cfg=91 cfgfail=0x0 vhv=0 vpolls=0
1788581091.356557 [PRT] calls=8221 xerr=0 ler=1 lidx=0x0 perr=0 maxcnt=17 addr8=0x52
1788581091.360827 [RTY] wr=0 wmax=0 wref=0  rd=0 rmax=0 rref=0
1788581091.368467 [RNG] frames=2028 last=50 min=38 max=68 nrdy=0 dxfer=0 dstat=0 lst=0 nrdyerr=0 dclr=0
1788581091.374677 [DRV] init=0 id=7 mode=0x1 lib=0x2 seq=0x1 odc=0x8b sts=0xe0 armed=1
1788581091.379927 [TRG] pulses=20 suppressed=226 cyc=1600 rst=1 rstmode=0x40
1788581091.383334 [HLT] polls=40 faults=0x0 cfglost=0
1788581091.389072 [EFF] n=5 last=58623 min=58570 max=58625 late=0 stuck=0 rderr=0
1788581091.399316 [IMU] init=0 addr=0x68 who=0x68 rst=1 pmrb0=0x40 pmrb=0x1 sr=19 cfg=4 gcfg=0x0 acfg=0x8 icfg=0x30 ien=0x1 armed=1
1788581091.404433 [ACC] reads=2029 stale=2026 rderr=0 ax=51 ay=-49 az=1122
1788581091.407385 [PWR] pm=0x1 drift=0 rderr=0
1788581091.411374 [DWT] ok=1 cyc=1892112817 cyc_per_ms=800096
1788581092.424295 [HB] up_ms=46509 frames=2075 inf=2075 hazard=281 canary_err=0 q=0 qovr=0
1788581092.435398 [I2C] init=0 gate=0 whoami=0x201e0 wr=0 wrseen=0x27 addr=0x5a ok=15227 err=0 tmo=0 recov=0 pclk1=200000000 sysclk=400000000
1788581092.436772 [NAK] nacks=0
1788581092.441412 [CLK] cpu=800000000 sysb=400000000 pclk1=200000000
1788581092.445964 [TOF] res=0 step=0 id=0xeacc blk=0xeacc10 ctl=0x0
1788581092.451913 [RNG] init=0 step=99 id=0xeacc boot=1 calls=93 xerr=0 dm=1 tb=15
1788581092.458790 [RNG] osc=41 imp=881 imprb=881 mstart=0x40 cfg=91 cfgfail=0x0 vhv=0 vpolls=0
1788581092.464778 [PRT] calls=8421 xerr=0 ler=1 lidx=0x0 perr=0 maxcnt=17 addr8=0x52
1788581092.468777 [RTY] wr=0 wmax=0 wref=0  rd=0 rmax=0 rref=0
1788581092.476670 [RNG] frames=2077 last=51 min=38 max=68 nrdy=0 dxfer=0 dstat=0 lst=0 nrdyerr=0 dclr=0
1788581092.482769 [DRV] init=0 id=7 mode=0x1 lib=0x2 seq=0x1 odc=0x8b sts=0xe0 armed=1
1788581092.488151 [TRG] pulses=23 suppressed=261 cyc=1600 rst=1 rstmode=0x40
1788581092.491419 [HLT] polls=41 faults=0x0 cfglost=0
1788581092.497277 [EFF] n=5 last=58623 min=58570 max=58625 late=0 stuck=0 rderr=0
1788581092.507439 [IMU] init=0 addr=0x68 who=0x68 rst=1 pmrb0=0x40 pmrb=0x1 sr=19 cfg=4 gcfg=0x0 acfg=0x8 icfg=0x30 ien=0x1 armed=1
1788581092.512534 [ACC] reads=2079 stale=2075 rderr=0 ax=51 ay=-50 az=1122
1788581092.515164 [PWR] pm=0x1 drift=0 rderr=0
1788581092.519279 [DWT] ok=1 cyc=2772781471 cyc_per_ms=799880
1788581093.531845 [HB] up_ms=47610 frames=2125 inf=2125 hazard=287 canary_err=0 q=0 qovr=0
1788581093.543002 [I2C] init=0 gate=0 whoami=0x201e0 wr=0 wrseen=0x27 addr=0x5a ok=15528 err=0 tmo=0 recov=0 pclk1=200000000 sysclk=400000000
1788581093.544261 [NAK] nacks=0
1788581093.548886 [CLK] cpu=800000000 sysb=400000000 pclk1=200000000
1788581093.553441 [TOF] res=0 step=0 id=0xeacc blk=0xeacc10 ctl=0x0
1788581093.559916 [RNG] init=0 step=99 id=0xeacc boot=1 calls=93 xerr=0 dm=1 tb=15
1788581093.566287 [RNG] osc=41 imp=881 imprb=881 mstart=0x40 cfg=91 cfgfail=0x0 vhv=0 vpolls=0
1788581093.572264 [PRT] calls=8621 xerr=0 ler=1 lidx=0x0 perr=0 maxcnt=17 addr8=0x52
1788581093.576440 [RTY] wr=0 wmax=0 wref=0  rd=0 rmax=0 rref=0
1788581093.584413 [RNG] frames=2127 last=51 min=38 max=68 nrdy=0 dxfer=0 dstat=0 lst=0 nrdyerr=0 dclr=0
1788581093.590409 [DRV] init=0 id=7 mode=0x1 lib=0x2 seq=0x1 odc=0x8b sts=0xe0 armed=1
1788581093.596345 [TRG] pulses=23 suppressed=264 cyc=1600 rst=1 rstmode=0x40
1788581093.598887 [HLT] polls=42 faults=0x0 cfglost=0
1788581093.604627 [EFF] n=5 last=58623 min=58570 max=58625 late=0 stuck=0 rderr=0
1788581093.615005 [IMU] init=0 addr=0x68 who=0x68 rst=1 pmrb0=0x40 pmrb=0x1 sr=19 cfg=4 gcfg=0x0 acfg=0x8 icfg=0x30 ien=0x1 armed=1
1788581093.620467 [ACC] reads=2129 stale=2124 rderr=0 ax=50 ay=-48 az=1118
1788581093.622769 [PWR] pm=0x1 drift=0 rderr=0
1788581093.626794 [DWT] ok=1 cyc=3653577715 cyc_per_ms=799996
1788581094.639600 [HB] up_ms=48711 frames=2175 inf=2175 hazard=287 canary_err=0 q=0 qovr=0
1788581094.650733 [I2C] init=0 gate=0 whoami=0x201e0 wr=0 wrseen=0x27 addr=0x5a ok=15830 err=0 tmo=0 recov=0 pclk1=200000000 sysclk=400000000
1788581094.652106 [NAK] nacks=0
1788581094.656746 [CLK] cpu=800000000 sysb=400000000 pclk1=200000000
1788581094.661220 [TOF] res=0 step=0 id=0xeacc blk=0xeacc10 ctl=0x0
1788581094.666969 [RNG] init=0 step=99 id=0xeacc boot=1 calls=93 xerr=0 dm=1 tb=15
1788581094.675362 [RNG] osc=41 imp=881 imprb=881 mstart=0x40 cfg=91 cfgfail=0x0 vhv=0 vpolls=0
1788581094.680126 [PRT] calls=8821 xerr=0 ler=1 lidx=0x0 perr=0 maxcnt=17 addr8=0x52
1788581094.684093 [RTY] wr=0 wmax=0 wref=0  rd=0 rmax=0 rref=0
1788581094.691747 [RNG] frames=2177 last=54 min=38 max=68 nrdy=0 dxfer=0 dstat=0 lst=0 nrdyerr=0 dclr=0
1788581094.698181 [DRV] init=0 id=7 mode=0x1 lib=0x2 seq=0x1 odc=0x8b sts=0xe0 armed=1
1788581094.703395 [TRG] pulses=23 suppressed=264 cyc=1600 rst=1 rstmode=0x40
1788581094.706751 [HLT] polls=43 faults=0x0 cfglost=0
1788581094.712381 [EFF] n=5 last=58623 min=58570 max=58625 late=0 stuck=0 rderr=0
1788581094.722739 [IMU] init=0 addr=0x68 who=0x68 rst=1 pmrb0=0x40 pmrb=0x1 sr=19 cfg=4 gcfg=0x0 acfg=0x8 icfg=0x30 ien=0x1 armed=1
1788581094.727901 [ACC] reads=2179 stale=2174 rderr=0 ax=50 ay=-47 az=1121
1788581094.730669 [PWR] pm=0x1 drift=0 rderr=0
1788581094.734361 [DWT] ok=1 cyc=239410571 cyc_per_ms=800000
1788581095.747337 [HB] up_ms=49812 frames=2225 inf=2225 hazard=287 canary_err=0 q=0 qovr=0
1788581095.758608 [I2C] init=0 gate=0 whoami=0x201e0 wr=0 wrseen=0x27 addr=0x5a ok=16132 err=0 tmo=0 recov=0 pclk1=200000000 sysclk=400000000
1788581095.759828 [NAK] nacks=0
1788581095.764472 [CLK] cpu=800000000 sysb=400000000 pclk1=200000000
1788581095.769030 [TOF] res=0 step=0 id=0xeacc blk=0xeacc10 ctl=0x0
1788581095.774855 [RNG] init=0 step=99 id=0xeacc boot=1 calls=93 xerr=0 dm=1 tb=15
1788581095.781880 [RNG] osc=41 imp=881 imprb=881 mstart=0x40 cfg=91 cfgfail=0x0 vhv=0 vpolls=0
1788581095.787839 [PRT] calls=9020 xerr=0 ler=1 lidx=0x0 perr=0 maxcnt=17 addr8=0x52
1788581095.791937 [RTY] wr=0 wmax=0 wref=0  rd=0 rmax=0 rref=0
1788581095.799603 [RNG] frames=2227 last=53 min=38 max=68 nrdy=0 dxfer=0 dstat=0 lst=0 nrdyerr=0 dclr=0
1788581095.805943 [DRV] init=0 id=7 mode=0x1 lib=0x2 seq=0x1 odc=0x8b sts=0xe0 armed=1
1788581095.811203 [TRG] pulses=23 suppressed=264 cyc=1600 rst=1 rstmode=0x40
1788581095.814576 [HLT] polls=44 faults=0x0 cfglost=0
1788581095.820329 [EFF] n=5 last=58623 min=58570 max=58625 late=0 stuck=0 rderr=0
1788581095.830581 [IMU] init=0 addr=0x68 who=0x68 rst=1 pmrb0=0x40 pmrb=0x1 sr=19 cfg=4 gcfg=0x0 acfg=0x8 icfg=0x30 ien=0x1 armed=1
1788581095.835696 [ACC] reads=2229 stale=2224 rderr=0 ax=50 ay=-49 az=1124
1788581095.838352 [PWR] pm=0x1 drift=0 rderr=0
1788581095.842361 [DWT] ok=1 cyc=1120210643 cyc_per_ms=800000
1788581096.855960 [HB] up_ms=50913 frames=2275 inf=2275 hazard=287 canary_err=0 q=0 qovr=0
1788581096.866963 [I2C] init=0 gate=0 whoami=0x201e0 wr=0 wrseen=0x27 addr=0x5a ok=16434 err=0 tmo=0 recov=0 pclk1=200000000 sysclk=400000000
1788581096.868336 [NAK] nacks=0
1788581096.873050 [CLK] cpu=800000000 sysb=400000000 pclk1=200000000
1788581096.877565 [TOF] res=0 step=0 id=0xeacc blk=0xeacc10 ctl=0x0
1788581096.883339 [RNG] init=0 step=99 id=0xeacc boot=1 calls=93 xerr=0 dm=1 tb=15
1788581096.890345 [RNG] osc=41 imp=881 imprb=881 mstart=0x40 cfg=91 cfgfail=0x0 vhv=0 vpolls=0
1788581096.896443 [PRT] calls=9217 xerr=0 ler=1 lidx=0x0 perr=0 maxcnt=17 addr8=0x52
1788581096.900437 [RTY] wr=0 wmax=0 wref=0  rd=0 rmax=0 rref=0
1788581096.908199 [RNG] frames=2277 last=52 min=38 max=68 nrdy=0 dxfer=0 dstat=0 lst=0 nrdyerr=0 dclr=0
1788581096.914302 [DRV] init=0 id=7 mode=0x1 lib=0x2 seq=0x1 odc=0x8b sts=0xe0 armed=1
1788581096.919785 [TRG] pulses=23 suppressed=264 cyc=1600 rst=1 rstmode=0x40
1788581096.923034 [HLT] polls=45 faults=0x0 cfglost=0
1788581096.928846 [EFF] n=5 last=58623 min=58570 max=58625 late=0 stuck=0 rderr=0
1788581096.939053 [IMU] init=0 addr=0x68 who=0x68 rst=1 pmrb0=0x40 pmrb=0x1 sr=19 cfg=4 gcfg=0x0 acfg=0x8 icfg=0x30 ien=0x1 armed=1
1788581096.944290 [ACC] reads=2279 stale=2274 rderr=0 ax=51 ay=-46 az=1122
1788581096.946922 [PWR] pm=0x1 drift=0 rderr=0
1788581096.950955 [DWT] ok=1 cyc=2001010627 cyc_per_ms=799999
1788581097.964313 [HB] up_ms=52014 frames=2324 inf=2324 hazard=287 canary_err=0 q=0 qovr=0
1788581097.975311 [I2C] init=0 gate=0 whoami=0x201e0 wr=0 wrseen=0x27 addr=0x5a ok=16736 err=0 tmo=0 recov=0 pclk1=200000000 sysclk=400000000
1788581097.976664 [NAK] nacks=0
1788581097.981288 [CLK] cpu=800000000 sysb=400000000 pclk1=200000000
1788581097.985888 [TOF] res=0 step=0 id=0xeacc blk=0xeacc10 ctl=0x0
1788581097.991691 [RNG] init=0 step=99 id=0xeacc boot=1 calls=93 xerr=0 dm=1 tb=15
1788581097.998541 [RNG] osc=41 imp=881 imprb=881 mstart=0x40 cfg=91 cfgfail=0x0 vhv=0 vpolls=0
1788581098.004649 [PRT] calls=9417 xerr=0 ler=1 lidx=0x0 perr=0 maxcnt=17 addr8=0x52
1788581098.008779 [RTY] wr=0 wmax=0 wref=0  rd=0 rmax=0 rref=0
1788581098.016522 [RNG] frames=2327 last=59 min=38 max=68 nrdy=0 dxfer=0 dstat=0 lst=0 nrdyerr=0 dclr=0
1788581098.022651 [DRV] init=0 id=7 mode=0x1 lib=0x2 seq=0x1 odc=0x8b sts=0xe0 armed=1
1788581098.028027 [TRG] pulses=23 suppressed=264 cyc=1600 rst=1 rstmode=0x40
1788581098.031493 [HLT] polls=46 faults=0x0 cfglost=0
1788581098.037158 [EFF] n=5 last=58623 min=58570 max=58625 late=0 stuck=0 rderr=0
1788581098.047281 [IMU] init=0 addr=0x68 who=0x68 rst=1 pmrb0=0x40 pmrb=0x1 sr=19 cfg=4 gcfg=0x0 acfg=0x8 icfg=0x30 ien=0x1 armed=1
1788581098.052642 [ACC] reads=2328 stale=2323 rderr=0 ax=51 ay=-49 az=1122
1788581098.055284 [PWR] pm=0x1 drift=0 rderr=0
1788581098.059298 [DWT] ok=1 cyc=2881944509 cyc_per_ms=800121
1788581099.071754 [HB] up_ms=53115 frames=2374 inf=2374 hazard=301 canary_err=0 q=0 qovr=0
1788581099.082747 [I2C] init=0 gate=0 whoami=0x201e0 wr=0 wrseen=0x27 addr=0x5a ok=17038 err=0 tmo=0 recov=0 pclk1=200000000 sysclk=400000000
1788581099.084002 [NAK] nacks=0
1788581099.088642 [CLK] cpu=800000000 sysb=400000000 pclk1=200000000
1788581099.093254 [TOF] res=0 step=0 id=0xeacc blk=0xeacc10 ctl=0x0
1788581099.099117 [RNG] init=0 step=99 id=0xeacc boot=1 calls=93 xerr=0 dm=1 tb=15
1788581099.105992 [RNG] osc=41 imp=881 imprb=881 mstart=0x40 cfg=91 cfgfail=0x0 vhv=0 vpolls=0
1788581099.112013 [PRT] calls=9617 xerr=0 ler=1 lidx=0x0 perr=0 maxcnt=17 addr8=0x52
1788581099.116146 [RTY] wr=0 wmax=0 wref=0  rd=0 rmax=0 rref=0
1788581099.123889 [RNG] frames=2376 last=53 min=38 max=68 nrdy=0 dxfer=0 dstat=0 lst=0 nrdyerr=0 dclr=0
1788581099.130131 [DRV] init=0 id=7 mode=0x1 lib=0x2 seq=0x1 odc=0x8b sts=0xe0 armed=1
1788581099.135388 [TRG] pulses=25 suppressed=279 cyc=1600 rst=1 rstmode=0x40
1788581099.138621 [HLT] polls=47 faults=0x0 cfglost=0
1788581099.144517 [EFF] n=5 last=58623 min=58570 max=58625 late=0 stuck=0 rderr=0
1788581099.155040 [IMU] init=0 addr=0x68 who=0x68 rst=1 pmrb0=0x40 pmrb=0x1 sr=19 cfg=4 gcfg=0x0 acfg=0x8 icfg=0x30 ien=0x1 armed=1
1788581099.159854 [ACC] reads=2378 stale=2373 rderr=0 ax=43 ay=-50 az=1128
1788581099.162492 [PWR] pm=0x1 drift=0 rderr=0
1788581099.166654 [DWT] ok=1 cyc=3762687131 cyc_per_ms=799947
1788581100.179099 [HB] up_ms=54216 frames=2424 inf=2424 hazard=328 canary_err=0 q=0 qovr=0
1788581100.190394 [I2C] init=0 gate=0 whoami=0x201e0 wr=0 wrseen=0x27 addr=0x5a ok=17334 err=0 tmo=0 recov=0 pclk1=200000000 sysclk=400000000
1788581100.191609 [NAK] nacks=0
1788581100.196237 [CLK] cpu=800000000 sysb=400000000 pclk1=200000000
1788581100.200734 [TOF] res=0 step=0 id=0xeacc blk=0xeacc10 ctl=0x0
1788581100.206733 [RNG] init=0 step=99 id=0xeacc boot=1 calls=93 xerr=0 dm=1 tb=15
1788581100.213622 [RNG] osc=41 imp=881 imprb=881 mstart=0x40 cfg=91 cfgfail=0x0 vhv=0 vpolls=0
1788581100.219629 [PRT] calls=9817 xerr=0 ler=1 lidx=0x0 perr=0 maxcnt=17 addr8=0x52
1788581100.223603 [RTY] wr=0 wmax=0 wref=0  rd=0 rmax=0 rref=0
1788581100.231466 [RNG] frames=2426 last=60 min=38 max=68 nrdy=0 dxfer=0 dstat=0 lst=0 nrdyerr=0 dclr=0
1788581100.237718 [DRV] init=0 id=7 mode=0x1 lib=0x2 seq=0x1 odc=0x8b sts=0xe0 armed=1
1788581100.242991 [TRG] pulses=26 suppressed=302 cyc=1600 rst=1 rstmode=0x40
1788581100.246236 [HLT] polls=48 faults=0x0 cfglost=0
1788581100.252102 [EFF] n=5 last=58623 min=58570 max=58625 late=0 stuck=0 rderr=0
1788581100.262391 [IMU] init=0 addr=0x68 who=0x68 rst=1 pmrb0=0x40 pmrb=0x1 sr=19 cfg=4 gcfg=0x0 acfg=0x8 icfg=0x30 ien=0x1 armed=1
1788581100.267460 [ACC] reads=2428 stale=2423 rderr=0 ax=52 ay=-49 az=1127
1788581100.270087 [PWR] pm=0x1 drift=0 rderr=0
1788581100.273966 [DWT] ok=1 cyc=348443327 cyc_per_ms=799930
1788581101.287360 [HB] up_ms=55317 frames=2474 inf=2474 hazard=328 canary_err=0 q=0 qovr=0
1788581101.298459 [I2C] init=0 gate=0 whoami=0x201e0 wr=0 wrseen=0x27 addr=0x5a ok=17636 err=0 tmo=0 recov=0 pclk1=200000000 sysclk=400000000
1788581101.299830 [NAK] nacks=0
1788581101.304452 [CLK] cpu=800000000 sysb=400000000 pclk1=200000000
1788581101.308939 [TOF] res=0 step=0 id=0xeacc blk=0xeacc10 ctl=0x0
1788581101.314697 [RNG] init=0 step=99 id=0xeacc boot=1 calls=93 xerr=0 dm=1 tb=15
1788581101.321845 [RNG] osc=41 imp=881 imprb=881 mstart=0x40 cfg=91 cfgfail=0x0 vhv=0 vpolls=0
1788581101.327805 [PRT] calls=10017 xerr=0 ler=1 lidx=0x0 perr=0 maxcnt=17 addr8=0x52
1788581101.331938 [RTY] wr=0 wmax=0 wref=0  rd=0 rmax=0 rref=0
1788581101.339742 [RNG] frames=2476 last=55 min=38 max=68 nrdy=0 dxfer=0 dstat=0 lst=0 nrdyerr=0 dclr=0
1788581101.345957 [DRV] init=0 id=7 mode=0x1 lib=0x2 seq=0x1 odc=0x8b sts=0xe0 armed=1
1788581101.351185 [TRG] pulses=26 suppressed=302 cyc=1600 rst=1 rstmode=0x40
1788581101.354952 [HLT] polls=49 faults=0x0 cfglost=0
1788581101.360190 [EFF] n=5 last=58623 min=58570 max=58625 late=0 stuck=0 rderr=0
1788581101.370570 [IMU] init=0 addr=0x68 who=0x68 rst=1 pmrb0=0x40 pmrb=0x1 sr=19 cfg=4 gcfg=0x0 acfg=0x8 icfg=0x30 ien=0x1 armed=1
1788581101.375693 [ACC] reads=2478 stale=2473 rderr=0 ax=48 ay=-50 az=1121
1788581101.378312 [PWR] pm=0x1 drift=0 rderr=0
1788581101.382304 [DWT] ok=1 cyc=1229313375 cyc_per_ms=800063
1788581102.395534 [HB] up_ms=56418 frames=2524 inf=2524 hazard=328 canary_err=0 q=0 qovr=0
1788581102.406661 [I2C] init=0 gate=0 whoami=0x201e0 wr=0 wrseen=0x27 addr=0x5a ok=17938 err=0 tmo=0 recov=0 pclk1=200000000 sysclk=400000000
1788581102.408034 [NAK] nacks=0
1788581102.412616 [CLK] cpu=800000000 sysb=400000000 pclk1=200000000
1788581102.417077 [TOF] res=0 step=0 id=0xeacc blk=0xeacc10 ctl=0x0
1788581102.422934 [RNG] init=0 step=99 id=0xeacc boot=1 calls=93 xerr=0 dm=1 tb=15
1788581102.429917 [RNG] osc=41 imp=881 imprb=881 mstart=0x40 cfg=91 cfgfail=0x0 vhv=0 vpolls=0
1788581102.436066 [PRT] calls=10217 xerr=0 ler=1 lidx=0x0 perr=0 maxcnt=17 addr8=0x52
1788581102.440192 [RTY] wr=0 wmax=0 wref=0  rd=0 rmax=0 rref=0
1788581102.447794 [RNG] frames=2526 last=53 min=38 max=68 nrdy=0 dxfer=0 dstat=0 lst=0 nrdyerr=0 dclr=0
1788581102.454498 [DRV] init=0 id=7 mode=0x1 lib=0x2 seq=0x1 odc=0x8b sts=0xe0 armed=1
1788581102.459498 [TRG] pulses=26 suppressed=302 cyc=1600 rst=1 rstmode=0x40
1788581102.462680 [HLT] polls=50 faults=0x0 cfglost=0
1788581102.468439 [EFF] n=5 last=58623 min=58570 max=58625 late=0 stuck=0 rderr=0
1788581102.478813 [IMU] init=0 addr=0x68 who=0x68 rst=1 pmrb0=0x40 pmrb=0x1 sr=19 cfg=4 gcfg=0x0 acfg=0x8 icfg=0x30 ien=0x1 armed=1
1788581102.483936 [ACC] reads=2528 stale=2523 rderr=0 ax=50 ay=-49 az=1124
1788581102.486556 [PWR] pm=0x1 drift=0 rderr=0
1788581102.490544 [DWT] ok=1 cyc=2110113151 cyc_per_ms=799999
1788581103.503536 [HB] up_ms=57519 frames=2574 inf=2574 hazard=328 canary_err=0 q=0 qovr=0
1788581103.514505 [I2C] init=0 gate=0 whoami=0x201e0 wr=0 wrseen=0x27 addr=0x5a ok=18240 err=0 tmo=0 recov=0 pclk1=200000000 sysclk=400000000
1788581103.516001 [NAK] nacks=0
1788581103.520638 [CLK] cpu=800000000 sysb=400000000 pclk1=200000000
1788581103.525128 [TOF] res=0 step=0 id=0xeacc blk=0xeacc10 ctl=0x0
1788581103.530876 [RNG] init=0 step=99 id=0xeacc boot=1 calls=93 xerr=0 dm=1 tb=15
1788581103.537877 [RNG] osc=41 imp=881 imprb=881 mstart=0x40 cfg=91 cfgfail=0x0 vhv=0 vpolls=0
1788581103.543998 [PRT] calls=10413 xerr=0 ler=1 lidx=0x0 perr=0 maxcnt=17 addr8=0x52
1788581103.548128 [RTY] wr=0 wmax=0 wref=0  rd=0 rmax=0 rref=0
1788581103.555755 [RNG] frames=2576 last=59 min=38 max=68 nrdy=0 dxfer=0 dstat=0 lst=0 nrdyerr=0 dclr=0
1788581103.562134 [DRV] init=0 id=7 mode=0x1 lib=0x2 seq=0x1 odc=0x8b sts=0xe0 armed=1
1788581103.567394 [TRG] pulses=26 suppressed=302 cyc=1600 rst=1 rstmode=0x40
1788581103.570885 [HLT] polls=51 faults=0x0 cfglost=0
1788581103.576738 [EFF] n=5 last=58623 min=58570 max=58625 late=0 stuck=0 rderr=0
1788581103.586749 [IMU] init=0 addr=0x68 who=0x68 rst=1 pmrb0=0x40 pmrb=0x1 sr=19 cfg=4 gcfg=0x0 acfg=0x8 icfg=0x30 ien=0x1 armed=1
1788581103.591879 [ACC] reads=2578 stale=2573 rderr=0 ax=48 ay=-52 az=1119
1788581103.594502 [PWR] pm=0x1 drift=0 rderr=0
1788581103.598499 [DWT] ok=1 cyc=2990913331 cyc_per_ms=800000
1788581104.611390 [HB] up_ms=58620 frames=2624 inf=2624 hazard=328 canary_err=0 q=0 qovr=0
1788581104.622397 [I2C] init=0 gate=0 whoami=0x201e0 wr=0 wrseen=0x27 addr=0x5a ok=18542 err=0 tmo=0 recov=0 pclk1=200000000 sysclk=400000000
1788581104.623607 [NAK] nacks=0
1788581104.628391 [CLK] cpu=800000000 sysb=400000000 pclk1=200000000
1788581104.632869 [TOF] res=0 step=0 id=0xeacc blk=0xeacc10 ctl=0x0
1788581104.638745 [RNG] init=0 step=99 id=0xeacc boot=1 calls=93 xerr=0 dm=1 tb=15
1788581104.645627 [RNG] osc=41 imp=881 imprb=881 mstart=0x40 cfg=91 cfgfail=0x0 vhv=0 vpolls=0
1788581104.651860 [PRT] calls=10613 xerr=0 ler=1 lidx=0x0 perr=0 maxcnt=17 addr8=0x52
1788581104.656012 [RTY] wr=0 wmax=0 wref=0  rd=0 rmax=0 rref=0
1788581104.663643 [RNG] frames=2626 last=50 min=38 max=68 nrdy=0 dxfer=0 dstat=0 lst=0 nrdyerr=0 dclr=0
1788581104.671457 [DRV] init=0 id=7 mode=0x1 lib=0x2 seq=0x1 odc=0x8b sts=0xe0 armed=1
1788581104.675257 [TRG] pulses=26 suppressed=302 cyc=1600 rst=1 rstmode=0x40
1788581104.678494 [HLT] polls=52 faults=0x0 cfglost=0
1788581104.684253 [EFF] n=5 last=58623 min=58570 max=58625 late=0 stuck=0 rderr=0
1788581104.694389 [IMU] init=0 addr=0x68 who=0x68 rst=1 pmrb0=0x40 pmrb=0x1 sr=19 cfg=4 gcfg=0x0 acfg=0x8 icfg=0x30 ien=0x1 armed=1
1788581104.699720 [ACC] reads=2627 stale=2622 rderr=0 ax=51 ay=-47 az=1123
1788581104.702363 [PWR] pm=0x1 drift=0 rderr=0
1788581104.706378 [DWT] ok=1 cyc=3871713299 cyc_per_ms=799999
1788581105.719461 [HB] up_ms=59721 frames=2673 inf=2673 hazard=328 canary_err=0 q=0 qovr=0
1788581105.730457 [I2C] init=0 gate=0 whoami=0x201e0 wr=0 wrseen=0x27 addr=0x5a ok=18844 err=0 tmo=0 recov=0 pclk1=200000000 sysclk=400000000
1788581105.731701 [NAK] nacks=0
1788581105.736355 [CLK] cpu=800000000 sysb=400000000 pclk1=200000000
1788581105.740955 [TOF] res=0 step=0 id=0xeacc blk=0xeacc10 ctl=0x0
1788581105.746835 [RNG] init=0 step=99 id=0xeacc boot=1 calls=93 xerr=0 dm=1 tb=15
1788581105.753711 [RNG] osc=41 imp=881 imprb=881 mstart=0x40 cfg=91 cfgfail=0x0 vhv=0 vpolls=0
1788581105.759864 [PRT] calls=10813 xerr=0 ler=1 lidx=0x0 perr=0 maxcnt=17 addr8=0x52
1788581105.764082 [RTY] wr=0 wmax=0 wref=0  rd=0 rmax=0 rref=0
1788581105.771698 [RNG] frames=2676 last=48 min=38 max=68 nrdy=0 dxfer=0 dstat=0 lst=0 nrdyerr=0 dclr=0
1788581105.777832 [DRV] init=0 id=7 mode=0x1 lib=0x2 seq=0x1 odc=0x8b sts=0xe0 armed=1
1788581105.783203 [TRG] pulses=26 suppressed=302 cyc=1600 rst=1 rstmode=0x40
1788581105.786590 [HLT] polls=53 faults=0x0 cfglost=0
1788581105.792511 [EFF] n=5 last=58623 min=58570 max=58625 late=0 stuck=0 rderr=0
1788581105.802460 [IMU] init=0 addr=0x68 who=0x68 rst=1 pmrb0=0x40 pmrb=0x1 sr=19 cfg=4 gcfg=0x0 acfg=0x8 icfg=0x30 ien=0x1 armed=1
1788581105.807699 [ACC] reads=2677 stale=2671 rderr=0 ax=52 ay=-48 az=1123
1788581105.810452 [PWR] pm=0x1 drift=0 rderr=0
1788581105.814322 [DWT] ok=1 cyc=457680737 cyc_per_ms=800122
1788581106.826810 [HB] up_ms=60822 frames=2723 inf=2723 hazard=369 canary_err=0 q=0 qovr=0
1788581106.837923 [I2C] init=0 gate=0 whoami=0x201e0 wr=0 wrseen=0x27 addr=0x5a ok=19144 err=0 tmo=0 recov=0 pclk1=200000000 sysclk=400000000
1788581106.839306 [NAK] nacks=0
1788581106.843804 [CLK] cpu=800000000 sysb=400000000 pclk1=200000000
1788581106.848298 [TOF] res=0 step=0 id=0xeacc blk=0xeacc10 ctl=0x0
1788581106.854299 [RNG] init=0 step=99 id=0xeacc boot=1 calls=93 xerr=0 dm=1 tb=15
1788581106.861182 [RNG] osc=41 imp=881 imprb=881 mstart=0x40 cfg=91 cfgfail=0x0 vhv=0 vpolls=0
1788581106.867331 [PRT] calls=11013 xerr=0 ler=1 lidx=0x0 perr=0 maxcnt=17 addr8=0x52
1788581106.871301 [RTY] wr=0 wmax=0 wref=0  rd=0 rmax=0 rref=0
1788581106.879186 [RNG] frames=2725 last=53 min=38 max=69 nrdy=0 dxfer=0 dstat=0 lst=0 nrdyerr=0 dclr=0
1788581106.885344 [DRV] init=0 id=7 mode=0x1 lib=0x2 seq=0x1 odc=0x8b sts=0xe0 armed=1
1788581106.890687 [TRG] pulses=29 suppressed=340 cyc=1600 rst=1 rstmode=0x40
1788581106.893927 [HLT] polls=54 faults=0x0 cfglost=0
1788581106.899799 [EFF] n=5 last=58623 min=58570 max=58625 late=0 stuck=0 rderr=0
1788581106.909932 [IMU] init=0 addr=0x68 who=0x68 rst=1 pmrb0=0x40 pmrb=0x1 sr=19 cfg=4 gcfg=0x0 acfg=0x8 icfg=0x30 ien=0x1 armed=1
1788581106.915083 [ACC] reads=2727 stale=2721 rderr=0 ax=49 ay=-50 az=1122
1788581106.917697 [PWR] pm=0x1 drift=0 rderr=0
1788581106.921796 [DWT] ok=1 cyc=1338345987 cyc_per_ms=799877
1788581107.935299 [HB] up_ms=61924 frames=2773 inf=2773 hazard=369 canary_err=0 q=0 qovr=0
1788581107.946413 [I2C] init=0 gate=0 whoami=0x201e0 wr=0 wrseen=0x27 addr=0x5a ok=19442 err=0 tmo=0 recov=0 pclk1=200000000 sysclk=400000000
1788581107.947797 [NAK] nacks=0
1788581107.952291 [CLK] cpu=800000000 sysb=400000000 pclk1=200000000
1788581107.956787 [TOF] res=0 step=0 id=0xeacc blk=0xeacc10 ctl=0x0
1788581107.962793 [RNG] init=0 step=99 id=0xeacc boot=1 calls=93 xerr=0 dm=1 tb=15
1788581107.969677 [RNG] osc=41 imp=881 imprb=881 mstart=0x40 cfg=91 cfgfail=0x0 vhv=0 vpolls=0
1788581107.975791 [PRT] calls=11213 xerr=0 ler=1 lidx=0x0 perr=0 maxcnt=17 addr8=0x52
1788581107.979915 [RTY] wr=0 wmax=0 wref=0  rd=0 rmax=0 rref=0
1788581107.987672 [RNG] frames=2775 last=54 min=38 max=69 nrdy=0 dxfer=0 dstat=0 lst=0 nrdyerr=0 dclr=0
1788581107.993922 [DRV] init=0 id=7 mode=0x1 lib=0x2 seq=0x1 odc=0x8b sts=0xe0 armed=1
1788581107.999158 [TRG] pulses=29 suppressed=340 cyc=1600 rst=1 rstmode=0x40
1788581108.002439 [HLT] polls=55 faults=0x0 cfglost=0
1788581108.008291 [EFF] n=5 last=58623 min=58570 max=58625 late=0 stuck=0 rderr=0
1788581108.018531 [IMU] init=0 addr=0x68 who=0x68 rst=1 pmrb0=0x40 pmrb=0x1 sr=19 cfg=4 gcfg=0x0 acfg=0x8 icfg=0x30 ien=0x1 armed=1
1788581108.023674 [ACC] reads=2777 stale=2771 rderr=0 ax=51 ay=-49 az=1122
1788581108.026285 [PWR] pm=0x1 drift=0 rderr=0
1788581108.030284 [DWT] ok=1 cyc=2219946035 cyc_per_ms=800000
1788581109.042512 [HB] up_ms=63025 frames=2823 inf=2823 hazard=369 canary_err=0 q=0 qovr=0
1788581109.053616 [I2C] init=0 gate=0 whoami=0x201e0 wr=0 wrseen=0x27 addr=0x5a ok=19744 err=0 tmo=0 recov=0 pclk1=200000000 sysclk=400000000
1788581109.054985 [NAK] nacks=0
1788581109.059500 [CLK] cpu=800000000 sysb=400000000 pclk1=200000000
1788581109.063986 [TOF] res=0 step=0 id=0xeacc blk=0xeacc10 ctl=0x0
1788581109.069918 [RNG] init=0 step=99 id=0xeacc boot=1 calls=93 xerr=0 dm=1 tb=15
1788581109.076878 [RNG] osc=41 imp=881 imprb=881 mstart=0x40 cfg=91 cfgfail=0x0 vhv=0 vpolls=0
1788581109.083002 [PRT] calls=11413 xerr=0 ler=1 lidx=0x0 perr=0 maxcnt=17 addr8=0x52
1788581109.086985 [RTY] wr=0 wmax=0 wref=0  rd=0 rmax=0 rref=0
1788581109.094872 [RNG] frames=2825 last=47 min=38 max=69 nrdy=0 dxfer=0 dstat=0 lst=0 nrdyerr=0 dclr=0
1788581109.101113 [DRV] init=0 id=7 mode=0x1 lib=0x2 seq=0x1 odc=0x8b sts=0xe0 armed=1
1788581109.106377 [TRG] pulses=29 suppressed=340 cyc=1600 rst=1 rstmode=0x40
1788581109.109624 [HLT] polls=56 faults=0x0 cfglost=0
1788581109.115387 [EFF] n=5 last=58623 min=58570 max=58625 late=0 stuck=0 rderr=0
1788581109.125776 [IMU] init=0 addr=0x68 who=0x68 rst=1 pmrb0=0x40 pmrb=0x1 sr=19 cfg=4 gcfg=0x0 acfg=0x8 icfg=0x30 ien=0x1 armed=1
1788581109.130742 [ACC] reads=2827 stale=2821 rderr=0 ax=48 ay=-50 az=1121
1788581109.133395 [PWR] pm=0x1 drift=0 rderr=0
1788581109.137382 [DWT] ok=1 cyc=3100746119 cyc_per_ms=800000
1788581110.149887 [HB] up_ms=64126 frames=2873 inf=2873 hazard=369 canary_err=0 q=0 qovr=0
1788581110.161070 [I2C] init=0 gate=0 whoami=0x201e0 wr=0 wrseen=0x27 addr=0x5a ok=20046 err=0 tmo=0 recov=0 pclk1=200000000 sysclk=400000000
1788581110.162576 [NAK] nacks=0
1788581110.166908 [CLK] cpu=800000000 sysb=400000000 pclk1=200000000
1788581110.171424 [TOF] res=0 step=0 id=0xeacc blk=0xeacc10 ctl=0x0
1788581110.177232 [RNG] init=0 step=99 id=0xeacc boot=1 calls=93 xerr=0 dm=1 tb=15
1788581110.184249 [RNG] osc=41 imp=881 imprb=881 mstart=0x40 cfg=91 cfgfail=0x0 vhv=0 vpolls=0
1788581110.190398 [PRT] calls=11613 xerr=0 ler=1 lidx=0x0 perr=0 maxcnt=17 addr8=0x52
1788581110.195359 [RTY] wr=0 wmax=0 wref=0  rd=0 rmax=0 rref=0
1788581110.202157 [RNG] frames=2875 last=55 min=38 max=69 nrdy=0 dxfer=0 dstat=0 lst=0 nrdyerr=0 dclr=0
1788581110.208532 [DRV] init=0 id=7 mode=0x1 lib=0x2 seq=0x1 odc=0x8b sts=0xe0 armed=1
1788581110.213871 [TRG] pulses=29 suppressed=340 cyc=1600 rst=1 rstmode=0x40
1788581110.216975 [HLT] polls=57 faults=0x0 cfglost=0
1788581110.222756 [EFF] n=5 last=58623 min=58570 max=58625 late=0 stuck=0 rderr=0
1788581110.233005 [IMU] init=0 addr=0x68 who=0x68 rst=1 pmrb0=0x40 pmrb=0x1 sr=19 cfg=4 gcfg=0x0 acfg=0x8 icfg=0x30 ien=0x1 armed=1
1788581110.238117 [ACC] reads=2877 stale=2871 rderr=0 ax=51 ay=-48 az=1121
1788581110.240778 [PWR] pm=0x1 drift=0 rderr=0
1788581110.244836 [DWT] ok=1 cyc=3981545759 cyc_per_ms=799999
1788581111.256824 [HB] up_ms=65227 frames=2923 inf=2923 hazard=369 canary_err=0 q=0 qovr=0
1788581111.267970 [I2C] init=0 gate=0 whoami=0x201e0 wr=0 wrseen=0x27 addr=0x5a ok=20348 err=0 tmo=0 recov=0 pclk1=200000000 sysclk=400000000
1788581111.269361 [NAK] nacks=0
1788581111.273974 [CLK] cpu=800000000 sysb=400000000 pclk1=200000000
1788581111.278470 [TOF] res=0 step=0 id=0xeacc blk=0xeacc10 ctl=0x0
1788581111.284218 [RNG] init=0 step=99 id=0xeacc boot=1 calls=93 xerr=0 dm=1 tb=15
1788581111.291203 [RNG] osc=41 imp=881 imprb=881 mstart=0x40 cfg=91 cfgfail=0x0 vhv=0 vpolls=0
1788581111.297360 [PRT] calls=11809 xerr=0 ler=1 lidx=0x0 perr=0 maxcnt=17 addr8=0x52
1788581111.301603 [RTY] wr=0 wmax=0 wref=0  rd=0 rmax=0 rref=0
1788581111.309041 [RNG] frames=2925 last=52 min=38 max=69 nrdy=0 dxfer=0 dstat=0 lst=0 nrdyerr=0 dclr=0
1788581111.315349 [DRV] init=0 id=7 mode=0x1 lib=0x2 seq=0x1 odc=0x8b sts=0xe0 armed=1
1788581111.320727 [TRG] pulses=29 suppressed=340 cyc=1600 rst=1 rstmode=0x40
1788581111.324020 [HLT] polls=58 faults=0x0 cfglost=0
1788581111.329704 [EFF] n=5 last=58623 min=58570 max=58625 late=0 stuck=0 rderr=0
1788581111.339922 [IMU] init=0 addr=0x68 who=0x68 rst=1 pmrb0=0x40 pmrb=0x1 sr=19 cfg=4 gcfg=0x0 acfg=0x8 icfg=0x30 ien=0x1 armed=1
1788581111.345054 [ACC] reads=2927 stale=2921 rderr=0 ax=50 ay=-48 az=1121
1788581111.347823 [PWR] pm=0x1 drift=0 rderr=0
1788581111.351677 [DWT] ok=1 cyc=567378739 cyc_per_ms=800000
1788581112.363847 [HB] up_ms=66328 frames=2973 inf=2973 hazard=369 canary_err=0 q=0 qovr=0
1788581112.374817 [I2C] init=0 gate=0 whoami=0x201e0 wr=0 wrseen=0x27 addr=0x5a ok=20650 err=0 tmo=0 recov=0 pclk1=200000000 sysclk=400000000
1788581112.376188 [NAK] nacks=0
1788581112.380941 [CLK] cpu=800000000 sysb=400000000 pclk1=200000000
1788581112.385466 [TOF] res=0 step=0 id=0xeacc blk=0xeacc10 ctl=0x0
1788581112.391189 [RNG] init=0 step=99 id=0xeacc boot=1 calls=93 xerr=0 dm=1 tb=15
1788581112.398087 [RNG] osc=41 imp=881 imprb=881 mstart=0x40 cfg=91 cfgfail=0x0 vhv=0 vpolls=0
1788581112.404433 [PRT] calls=12009 xerr=0 ler=1 lidx=0x0 perr=0 maxcnt=17 addr8=0x52
1788581112.408438 [RTY] wr=0 wmax=0 wref=0  rd=0 rmax=0 rref=0
1788581112.416067 [RNG] frames=2975 last=57 min=38 max=69 nrdy=0 dxfer=0 dstat=0 lst=0 nrdyerr=0 dclr=0
1788581112.422305 [DRV] init=0 id=7 mode=0x1 lib=0x2 seq=0x1 odc=0x8b sts=0xe0 armed=1
1788581112.427683 [TRG] pulses=29 suppressed=340 cyc=1600 rst=1 rstmode=0x40
1788581112.430937 [HLT] polls=59 faults=0x0 cfglost=0
1788581112.436684 [EFF] n=5 last=58623 min=58570 max=58625 late=0 stuck=0 rderr=0
1788581112.446841 [IMU] init=0 addr=0x68 who=0x68 rst=1 pmrb0=0x40 pmrb=0x1 sr=19 cfg=4 gcfg=0x0 acfg=0x8 icfg=0x30 ien=0x1 armed=1
1788581112.452184 [ACC] reads=2976 stale=2970 rderr=0 ax=50 ay=-50 az=1120
1788581112.454809 [PWR] pm=0x1 drift=0 rderr=0
1788581112.458699 [DWT] ok=1 cyc=1448178691 cyc_per_ms=799999
1788581113.471294 [HB] up_ms=67429 frames=3022 inf=3022 hazard=391 canary_err=0 q=0 qovr=0
1788581113.482284 [I2C] init=0 gate=0 whoami=0x201e0 wr=0 wrseen=0x27 addr=0x5a ok=20952 err=0 tmo=0 recov=0 pclk1=200000000 sysclk=400000000
1788581113.483690 [NAK] nacks=0
1788581113.488155 [CLK] cpu=800000000 sysb=400000000 pclk1=200000000
1788581113.492908 [TOF] res=0 step=0 id=0xeacc blk=0xeacc10 ctl=0x0
1788581113.498659 [RNG] init=0 step=99 id=0xeacc boot=1 calls=93 xerr=0 dm=1 tb=15
1788581113.505532 [RNG] osc=41 imp=881 imprb=881 mstart=0x40 cfg=91 cfgfail=0x0 vhv=0 vpolls=0
1788581113.511655 [PRT] calls=12209 xerr=0 ler=1 lidx=0x0 perr=0 maxcnt=17 addr8=0x52
1788581113.515915 [RTY] wr=0 wmax=0 wref=0  rd=0 rmax=0 rref=0
1788581113.523527 [RNG] frames=3025 last=52 min=38 max=69 nrdy=0 dxfer=0 dstat=0 lst=0 nrdyerr=0 dclr=0
1788581113.529810 [DRV] init=0 id=7 mode=0x1 lib=0x2 seq=0x1 odc=0x8b sts=0xe0 armed=1
1788581113.535045 [TRG] pulses=31 suppressed=363 cyc=1600 rst=1 rstmode=0x40
1788581113.538441 [HLT] polls=60 faults=0x0 cfglost=0
1788581113.544193 [EFF] n=5 last=58623 min=58570 max=58625 late=0 stuck=0 rderr=0
1788581113.554312 [IMU] init=0 addr=0x68 who=0x68 rst=1 pmrb0=0x40 pmrb=0x1 sr=19 cfg=4 gcfg=0x0 acfg=0x8 icfg=0x30 ien=0x1 armed=1
1788581113.559509 [ACC] reads=3026 stale=3020 rderr=0 ax=51 ay=-48 az=1122
1788581113.562438 [PWR] pm=0x1 drift=0 rderr=0
1788581113.566254 [DWT] ok=1 cyc=2329117809 cyc_per_ms=800126
1788581114.579886 [HB] up_ms=68531 frames=3072 inf=3072 hazard=410 canary_err=0 q=0 qovr=0
1788581114.591009 [I2C] init=0 gate=0 whoami=0x201e0 wr=0 wrseen=0x27 addr=0x5a ok=21254 err=0 tmo=0 recov=0 pclk1=200000000 sysclk=400000000
1788581114.592251 [NAK] nacks=0
1788581114.596879 [CLK] cpu=800000000 sysb=400000000 pclk1=200000000
1788581114.601510 [TOF] res=0 step=0 id=0xeacc blk=0xeacc10 ctl=0x0
1788581114.607400 [RNG] init=0 step=99 id=0xeacc boot=1 calls=93 xerr=0 dm=1 tb=15
1788581114.614252 [RNG] osc=41 imp=881 imprb=881 mstart=0x40 cfg=91 cfgfail=0x0 vhv=0 vpolls=0
1788581114.620413 [PRT] calls=12409 xerr=0 ler=1 lidx=0x0 perr=0 maxcnt=17 addr8=0x52
1788581114.624504 [RTY] wr=0 wmax=0 wref=0  rd=0 rmax=0 rref=0
1788581114.632259 [RNG] frames=3074 last=55 min=38 max=69 nrdy=0 dxfer=0 dstat=0 lst=0 nrdyerr=0 dclr=0
1788581114.638406 [DRV] init=0 id=7 mode=0x1 lib=0x2 seq=0x1 odc=0x8b sts=0xe0 armed=1
1788581114.643769 [TRG] pulses=32 suppressed=378 cyc=1600 rst=1 rstmode=0x40
1788581114.647026 [HLT] polls=61 faults=0x0 cfglost=0
1788581114.652877 [EFF] n=5 last=58623 min=58570 max=58625 late=0 stuck=0 rderr=0
1788581114.663009 [IMU] init=0 addr=0x68 who=0x68 rst=1 pmrb0=0x40 pmrb=0x1 sr=19 cfg=4 gcfg=0x0 acfg=0x8 icfg=0x30 ien=0x1 armed=1
1788581114.668140 [ACC] reads=3076 stale=3070 rderr=0 ax=51 ay=-51 az=1122
1788581114.670877 [PWR] pm=0x1 drift=0 rderr=0
1788581114.675006 [DWT] ok=1 cyc=3210650931 cyc_per_ms=799939
1788581115.688737 [HB] up_ms=69633 frames=3122 inf=3122 hazard=410 canary_err=0 q=0 qovr=0
1788581115.699848 [I2C] init=0 gate=0 whoami=0x201e0 wr=0 wrseen=0x27 addr=0x5a ok=21550 err=0 tmo=0 recov=0 pclk1=200000000 sysclk=400000000
1788581115.701222 [NAK] nacks=0
1788581115.705727 [CLK] cpu=800000000 sysb=400000000 pclk1=200000000
1788581115.710225 [TOF] res=0 step=0 id=0xeacc blk=0xeacc10 ctl=0x0
1788581115.716227 [RNG] init=0 step=99 id=0xeacc boot=1 calls=93 xerr=0 dm=1 tb=15
1788581115.723232 [RNG] osc=41 imp=881 imprb=881 mstart=0x40 cfg=91 cfgfail=0x0 vhv=0 vpolls=0
1788581115.729224 [PRT] calls=12609 xerr=0 ler=1 lidx=0x0 perr=0 maxcnt=17 addr8=0x52
1788581115.733380 [RTY] wr=0 wmax=0 wref=0  rd=0 rmax=0 rref=0
1788581115.741218 [RNG] frames=3124 last=49 min=38 max=69 nrdy=0 dxfer=0 dstat=0 lst=0 nrdyerr=0 dclr=0
1788581115.747390 [DRV] init=0 id=7 mode=0x1 lib=0x2 seq=0x1 odc=0x8b sts=0xe0 armed=1
1788581115.752595 [TRG] pulses=32 suppressed=378 cyc=1600 rst=1 rstmode=0x40
1788581115.755848 [HLT] polls=62 faults=0x0 cfglost=0
1788581115.761847 [EFF] n=5 last=58623 min=58570 max=58625 late=0 stuck=0 rderr=0
1788581115.771970 [IMU] init=0 addr=0x68 who=0x68 rst=1 pmrb0=0x40 pmrb=0x1 sr=19 cfg=4 gcfg=0x0 acfg=0x8 icfg=0x30 ien=0x1 armed=1
1788581115.777106 [ACC] reads=3126 stale=3120 rderr=0 ax=52 ay=-48 az=1118
1788581115.779740 [PWR] pm=0x1 drift=0 rderr=0
1788581115.783853 [DWT] ok=1 cyc=4092178911 cyc_per_ms=799934
1788581116.797711 [HB] up_ms=70735 frames=3172 inf=3172 hazard=410 canary_err=0 q=0 qovr=0
1788581116.808851 [I2C] init=0 gate=0 whoami=0x201e0 wr=0 wrseen=0x27 addr=0x5a ok=21852 err=0 tmo=0 recov=0 pclk1=200000000 sysclk=400000000
1788581116.810220 [NAK] nacks=0
1788581116.814837 [CLK] cpu=800000000 sysb=400000000 pclk1=200000000
1788581116.819344 [TOF] res=0 step=0 id=0xeacc blk=0xeacc10 ctl=0x0
1788581116.825242 [RNG] init=0 step=99 id=0xeacc boot=1 calls=93 xerr=0 dm=1 tb=15
1788581116.832211 [RNG] osc=41 imp=881 imprb=881 mstart=0x40 cfg=91 cfgfail=0x0 vhv=0 vpolls=0
1788581116.838203 [PRT] calls=12809 xerr=0 ler=1 lidx=0x0 perr=0 maxcnt=17 addr8=0x52
1788581116.842347 [RTY] wr=0 wmax=0 wref=0  rd=0 rmax=0 rref=0
1788581116.850207 [RNG] frames=3174 last=55 min=38 max=69 nrdy=0 dxfer=0 dstat=0 lst=0 nrdyerr=0 dclr=0
1788581116.856339 [DRV] init=0 id=7 mode=0x1 lib=0x2 seq=0x1 odc=0x8b sts=0xe0 armed=1
1788581116.861710 [TRG] pulses=32 suppressed=378 cyc=1600 rst=1 rstmode=0x40
1788581116.864951 [HLT] polls=63 faults=0x0 cfglost=0
1788581116.870703 [EFF] n=5 last=58623 min=58570 max=58625 late=0 stuck=0 rderr=0
1788581116.880953 [IMU] init=0 addr=0x68 who=0x68 rst=1 pmrb0=0x40 pmrb=0x1 sr=19 cfg=4 gcfg=0x0 acfg=0x8 icfg=0x30 ien=0x1 armed=1
1788581116.886069 [ACC] reads=3176 stale=3170 rderr=0 ax=49 ay=-49 az=1124
1788581116.888713 [PWR] pm=0x1 drift=0 rderr=0
1788581116.893000 [DWT] ok=1 cyc=678811207 cyc_per_ms=799999
1788581117.906208 [HB] up_ms=71836 frames=3222 inf=3222 hazard=410 canary_err=0 q=0 qovr=0
1788581117.917452 [I2C] init=0 gate=0 whoami=0x201e0 wr=0 wrseen=0x27 addr=0x5a ok=22154 err=0 tmo=0 recov=0 pclk1=200000000 sysclk=400000000
1788581117.918680 [NAK] nacks=0
1788581117.923304 [CLK] cpu=800000000 sysb=400000000 pclk1=200000000
1788581117.927821 [TOF] res=0 step=0 id=0xeacc blk=0xeacc10 ctl=0x0
1788581117.933673 [RNG] init=0 step=99 id=0xeacc boot=1 calls=93 xerr=0 dm=1 tb=15
1788581117.940672 [RNG] osc=41 imp=881 imprb=881 mstart=0x40 cfg=91 cfgfail=0x0 vhv=0 vpolls=0
1788581117.946811 [PRT] calls=13009 xerr=0 ler=1 lidx=0x0 perr=0 maxcnt=17 addr8=0x52
1788581117.950798 [RTY] wr=0 wmax=0 wref=0  rd=0 rmax=0 rref=0
1788581117.958551 [RNG] frames=3224 last=56 min=38 max=69 nrdy=0 dxfer=0 dstat=0 lst=0 nrdyerr=0 dclr=0
1788581117.964934 [DRV] init=0 id=7 mode=0x1 lib=0x2 seq=0x1 odc=0x8b sts=0xe0 armed=1
1788581117.970177 [TRG] pulses=32 suppressed=378 cyc=1600 rst=1 rstmode=0x40
1788581117.973454 [HLT] polls=64 faults=0x0 cfglost=0
1788581117.979204 [EFF] n=5 last=58623 min=58570 max=58625 late=0 stuck=0 rderr=0
1788581117.989431 [IMU] init=0 addr=0x68 who=0x68 rst=1 pmrb0=0x40 pmrb=0x1 sr=19 cfg=4 gcfg=0x0 acfg=0x8 icfg=0x30 ien=0x1 armed=1
1788581117.994589 [ACC] reads=3226 stale=3220 rderr=0 ax=49 ay=-50 az=1122
1788581117.997176 [PWR] pm=0x1 drift=0 rderr=0
1788581118.001182 [DWT] ok=1 cyc=1559611395 cyc_per_ms=800000
1788581119.014107 [HB] up_ms=72937 frames=3272 inf=3272 hazard=410 canary_err=0 q=0 qovr=0
1788581119.025160 [I2C] init=0 gate=0 whoami=0x201e0 wr=0 wrseen=0x27 addr=0x5a ok=22456 err=0 tmo=0 recov=0 pclk1=200000000 sysclk=400000000
1788581119.026520 [NAK] nacks=0
1788581119.031138 [CLK] cpu=800000000 sysb=400000000 pclk1=200000000
1788581119.035629 [TOF] res=0 step=0 id=0xeacc blk=0xeacc10 ctl=0x0
1788581119.041394 [RNG] init=0 step=99 id=0xeacc boot=1 calls=93 xerr=0 dm=1 tb=15
1788581119.048516 [RNG] osc=41 imp=881 imprb=881 mstart=0x40 cfg=91 cfgfail=0x0 vhv=0 vpolls=0
1788581119.054634 [PRT] calls=13208 xerr=0 ler=1 lidx=0x0 perr=0 maxcnt=17 addr8=0x52
1788581119.058644 [RTY] wr=0 wmax=0 wref=0  rd=0 rmax=0 rref=0
1788581119.066407 [RNG] frames=3274 last=59 min=38 max=69 nrdy=0 dxfer=0 dstat=0 lst=0 nrdyerr=0 dclr=0
1788581119.072642 [DRV] init=0 id=7 mode=0x1 lib=0x2 seq=0x1 odc=0x8b sts=0xe0 armed=1
1788581119.078009 [TRG] pulses=32 suppressed=378 cyc=1600 rst=1 rstmode=0x40
1788581119.081259 [HLT] polls=65 faults=0x0 cfglost=0
1788581119.087009 [EFF] n=5 last=58623 min=58570 max=58625 late=0 stuck=0 rderr=0
1788581119.097273 [IMU] init=0 addr=0x68 who=0x68 rst=1 pmrb0=0x40 pmrb=0x1 sr=19 cfg=4 gcfg=0x0 acfg=0x8 icfg=0x30 ien=0x1 armed=1
1788581119.102414 [ACC] reads=3276 stale=3270 rderr=0 ax=51 ay=-48 az=1123
1788581119.105177 [PWR] pm=0x1 drift=0 rderr=0
1788581119.108986 [DWT] ok=1 cyc=2440411491 cyc_per_ms=800000
1788581120.122136 [HB] up_ms=74038 frames=3322 inf=3322 hazard=412 canary_err=0 q=0 qovr=0
1788581120.133116 [I2C] init=0 gate=0 whoami=0x201e0 wr=0 wrseen=0x27 addr=0x5a ok=22758 err=0 tmo=0 recov=0 pclk1=200000000 sysclk=400000000
1788581120.134504 [NAK] nacks=0
1788581120.139387 [CLK] cpu=800000000 sysb=400000000 pclk1=200000000
1788581120.143742 [TOF] res=0 step=0 id=0xeacc blk=0xeacc10 ctl=0x0
1788581120.149629 [RNG] init=0 step=99 id=0xeacc boot=1 calls=93 xerr=0 dm=1 tb=15
1788581120.156507 [RNG] osc=41 imp=881 imprb=881 mstart=0x40 cfg=91 cfgfail=0x0 vhv=0 vpolls=0
1788581120.162749 [PRT] calls=13405 xerr=0 ler=1 lidx=0x0 perr=0 maxcnt=17 addr8=0x52
1788581120.166756 [RTY] wr=0 wmax=0 wref=0  rd=0 rmax=0 rref=0
1788581120.174497 [RNG] frames=3324 last=55 min=38 max=69 nrdy=0 dxfer=0 dstat=0 lst=0 nrdyerr=0 dclr=0
1788581120.180622 [DRV] init=0 id=7 mode=0x1 lib=0x2 seq=0x1 odc=0x8b sts=0xe0 armed=1
1788581120.186116 [TRG] pulses=33 suppressed=381 cyc=1600 rst=1 rstmode=0x40
1788581120.189402 [HLT] polls=66 faults=0x0 cfglost=0
1788581120.195122 [EFF] n=5 last=58623 min=58570 max=58625 late=0 stuck=0 rderr=0
1788581120.205383 [IMU] init=0 addr=0x68 who=0x68 rst=1 pmrb0=0x40 pmrb=0x1 sr=19 cfg=4 gcfg=0x0 acfg=0x8 icfg=0x30 ien=0x1 armed=1
1788581120.210495 [ACC] reads=3326 stale=3319 rderr=0 ax=53 ay=-49 az=1122
1788581120.213246 [PWR] pm=0x1 drift=0 rderr=0
1788581120.217121 [DWT] ok=1 cyc=3321215135 cyc_per_ms=800003
1788581121.230108 [HB] up_ms=75139 frames=3371 inf=3371 hazard=451 canary_err=0 q=0 qovr=0
1788581121.241097 [I2C] init=0 gate=0 whoami=0x201e0 wr=0 wrseen=0x27 addr=0x5a ok=23060 err=0 tmo=0 recov=0 pclk1=200000000 sysclk=400000000
1788581121.242472 [NAK] nacks=0
1788581121.247102 [CLK] cpu=800000000 sysb=400000000 pclk1=200000000
1788581121.251719 [TOF] res=0 step=0 id=0xeacc blk=0xeacc10 ctl=0x0
1788581121.257597 [RNG] init=0 step=99 id=0xeacc boot=1 calls=93 xerr=0 dm=1 tb=15
1788581121.264469 [RNG] osc=41 imp=881 imprb=881 mstart=0x40 cfg=91 cfgfail=0x0 vhv=0 vpolls=0
1788581121.270592 [PRT] calls=13605 xerr=0 ler=1 lidx=0x0 perr=0 maxcnt=17 addr8=0x52
1788581121.274735 [RTY] wr=0 wmax=0 wref=0  rd=0 rmax=0 rref=0
1788581121.282355 [RNG] frames=3374 last=49 min=38 max=69 nrdy=0 dxfer=0 dstat=0 lst=0 nrdyerr=0 dclr=0
1788581121.288589 [DRV] init=0 id=7 mode=0x1 lib=0x2 seq=0x1 odc=0x8b sts=0xe0 armed=1
1788581121.293964 [TRG] pulses=35 suppressed=416 cyc=1600 rst=1 rstmode=0x40
1788581121.297364 [HLT] polls=67 faults=0x0 cfglost=0
1788581121.302967 [EFF] n=5 last=58623 min=58570 max=58625 late=0 stuck=0 rderr=0
1788581121.313216 [IMU] init=0 addr=0x68 who=0x68 rst=1 pmrb0=0x40 pmrb=0x1 sr=19 cfg=4 gcfg=0x0 acfg=0x8 icfg=0x30 ien=0x1 armed=1
1788581121.318467 [ACC] reads=3375 stale=3368 rderr=0 ax=52 ay=-47 az=1120
1788581121.321101 [PWR] pm=0x1 drift=0 rderr=0
1788581121.325092 [DWT] ok=1 cyc=4202145289 cyc_per_ms=800118
1788581122.337837 [HB] up_ms=76241 frames=3421 inf=3421 hazard=451 canary_err=0 q=0 qovr=0
1788581122.348944 [I2C] init=0 gate=0 whoami=0x201e0 wr=0 wrseen=0x27 addr=0x5a ok=23362 err=0 tmo=0 recov=0 pclk1=200000000 sysclk=400000000
1788581122.350191 [NAK] nacks=0
1788581122.354822 [CLK] cpu=800000000 sysb=400000000 pclk1=200000000
1788581122.359458 [TOF] res=0 step=0 id=0xeacc blk=0xeacc10 ctl=0x0
1788581122.365351 [RNG] init=0 step=99 id=0xeacc boot=1 calls=93 xerr=0 dm=1 tb=15
1788581122.372191 [RNG] osc=41 imp=881 imprb=881 mstart=0x40 cfg=91 cfgfail=0x0 vhv=0 vpolls=0
1788581122.378310 [PRT] calls=13805 xerr=0 ler=1 lidx=0x0 perr=0 maxcnt=17 addr8=0x52
