2026-09-03T20:19:29.510109 [HB] up_ms=5640033 frames=267323 inf=267323 hazard=34238 canary_err=0 q=0 qovr=0
2026-09-03T20:19:29.521356 [I2C] init=0 gate=0 whoami=0x201e0 wr=0 wrseen=0x27 addr=0x5a ok=1081995 err=0 tmo=0 recov=0 pclk1=200000000 sysclk=400000000
2026-09-03T20:19:29.522747 [NAK] nacks=0
2026-09-03T20:19:29.527359 [CLK] cpu=800000000 sysb=400000000 pclk1=200000000
2026-09-03T20:19:29.531845 [TOF] res=0 step=0 id=0xeacc blk=0xeacc10 ctl=0x0
2026-09-03T20:19:29.537734 [RNG] init=0 step=99 id=0xeacc boot=1 calls=93 xerr=0 dm=1 tb=15
2026-09-03T20:19:29.544727 [RNG] osc=41 imp=881 imprb=881 mstart=0x40 cfg=91 cfgfail=0x0 vhv=0 vpolls=0
2026-09-03T20:19:29.550979 [PRT] calls=1068781 xerr=0 ler=1 lidx=0x0 perr=0 maxcnt=17 addr8=0x52
2026-09-03T20:19:29.555119 [RTY] wr=0 wmax=0 wref=0  rd=0 rmax=0 rref=0
2026-09-03T20:19:29.563108 [RNG] frames=267009 last=39 min=23 max=61 nrdy=316 dxfer=0 dstat=0 lst=0 nrdyerr=0 dclr=0
2026-09-03T20:19:29.569379 [DRV] init=0 id=7 mode=0x1 lib=0x2 seq=0x1 odc=0x8b sts=0xe0 armed=1
2026-09-03T20:19:29.575112 [TRG] pulses=2507 suppressed=31734 cyc=1600 rst=1 rstmode=0x40
2026-09-03T20:19:29.578480 [HLT] polls=5346 faults=0x0 cfglost=0
2026-09-03T20:19:29.584225 [EFF] n=5 last=58588 min=58472 max=58588 late=0 stuck=0 rderr=0
2026-09-03T20:19:29.588334 [DWT] ok=1 cyc=2223207831 cyc_per_ms=799908
2026-09-03T20:19:30.602966 [HB] up_ms=5641118 frames=267374 inf=267374 hazard=34276 canary_err=0 q=0 qovr=0
2026-09-03T20:19:30.614283 [I2C] init=0 gate=0 whoami=0x201e0 wr=0 wrseen=0x27 addr=0x5a ok=1082201 err=0 tmo=0 recov=0 pclk1=200000000 sysclk=400000000
2026-09-03T20:19:30.615668 [NAK] nacks=0
2026-09-03T20:19:30.620179 [CLK] cpu=800000000 sysb=400000000 pclk1=200000000
2026-09-03T20:19:30.624654 [TOF] res=0 step=0 id=0xeacc blk=0xeacc10 ctl=0x0
2026-09-03T20:19:30.630645 [RNG] init=0 step=99 id=0xeacc boot=1 calls=93 xerr=0 dm=1 tb=15
2026-09-03T20:19:30.637579 [RNG] osc=41 imp=881 imprb=881 mstart=0x40 cfg=91 cfgfail=0x0 vhv=0 vpolls=0
2026-09-03T20:19:30.643787 [PRT] calls=1068985 xerr=0 ler=1 lidx=0x0 perr=0 maxcnt=17 addr8=0x52
2026-09-03T20:19:30.647955 [RTY] wr=0 wmax=0 wref=0  rd=0 rmax=0 rref=0
2026-09-03T20:19:30.656018 [RNG] frames=267060 last=46 min=23 max=61 nrdy=316 dxfer=0 dstat=0 lst=0 nrdyerr=0 dclr=0
2026-09-03T20:19:30.662263 [DRV] init=0 id=7 mode=0x1 lib=0x2 seq=0x1 odc=0x8b sts=0xe0 armed=1
2026-09-03T20:19:30.667900 [TRG] pulses=2509 suppressed=31767 cyc=1600 rst=1 rstmode=0x40
2026-09-03T20:19:30.671407 [HLT] polls=5347 faults=0x0 cfglost=0
2026-09-03T20:19:30.677150 [EFF] n=5 last=58588 min=58472 max=58588 late=0 stuck=0 rderr=0
2026-09-03T20:19:30.681147 [DWT] ok=1 cyc=3091307079 cyc_per_ms=800091
2026-09-03T20:19:31.695475 [HB] up_ms=5642203 frames=267426 inf=267426 hazard=34276 canary_err=0 q=0 qovr=0
2026-09-03T20:19:31.706708 [I2C] init=0 gate=0 whoami=0x201e0 wr=0 wrseen=0x27 addr=0x5a ok=1082411 err=0 tmo=0 recov=0 pclk1=200000000 sysclk=400000000
2026-09-03T20:19:31.707953 [NAK] nacks=0
2026-09-03T20:19:31.712754 [CLK] cpu=800000000 sysb=400000000 pclk1=200000000
2026-09-03T20:19:31.717204 [TOF] res=0 step=0 id=0xeacc blk=0xeacc10 ctl=0x0
2026-09-03T20:19:31.723102 [RNG] init=0 step=99 id=0xeacc boot=1 calls=93 xerr=0 dm=1 tb=15
2026-09-03T20:19:31.729955 [RNG] osc=41 imp=881 imprb=881 mstart=0x40 cfg=91 cfgfail=0x0 vhv=0 vpolls=0
2026-09-03T20:19:31.737726 [PRT] calls=1069189 xerr=0 ler=1 lidx=0x0 perr=0 maxcnt=17 addr8=0x52
2026-09-03T20:19:31.740651 [RTY] wr=0 wmax=0 wref=0  rd=0 rmax=0 rref=0
2026-09-03T20:19:31.748447 [RNG] frames=267112 last=39 min=23 max=61 nrdy=316 dxfer=0 dstat=0 lst=0 nrdyerr=0 dclr=0
2026-09-03T20:19:31.754631 [DRV] init=0 id=7 mode=0x1 lib=0x2 seq=0x1 odc=0x8b sts=0xe0 armed=1
2026-09-03T20:19:31.760535 [TRG] pulses=2509 suppressed=31767 cyc=1600 rst=1 rstmode=0x40
2026-09-03T20:19:31.763901 [HLT] polls=5348 faults=0x0 cfglost=0
2026-09-03T20:19:31.769594 [EFF] n=5 last=58588 min=58472 max=58588 late=0 stuck=0 rderr=0
2026-09-03T20:19:31.773799 [DWT] ok=1 cyc=3959306279 cyc_per_ms=799999
2026-09-03T20:19:32.788035 [HB] up_ms=5643288 frames=267477 inf=267477 hazard=34276 canary_err=0 q=0 qovr=0
2026-09-03T20:19:32.799271 [I2C] init=0 gate=0 whoami=0x201e0 wr=0 wrseen=0x27 addr=0x5a ok=1082617 err=0 tmo=0 recov=0 pclk1=200000000 sysclk=400000000
2026-09-03T20:19:32.800669 [NAK] nacks=0
2026-09-03T20:19:32.805280 [CLK] cpu=800000000 sysb=400000000 pclk1=200000000
2026-09-03T20:19:32.809766 [TOF] res=0 step=0 id=0xeacc blk=0xeacc10 ctl=0x0
2026-09-03T20:19:32.815647 [RNG] init=0 step=99 id=0xeacc boot=1 calls=93 xerr=0 dm=1 tb=15
2026-09-03T20:19:32.822516 [RNG] osc=41 imp=881 imprb=881 mstart=0x40 cfg=91 cfgfail=0x0 vhv=0 vpolls=0
2026-09-03T20:19:32.828887 [PRT] calls=1069397 xerr=0 ler=1 lidx=0x0 perr=0 maxcnt=17 addr8=0x52
2026-09-03T20:19:32.832892 [RTY] wr=0 wmax=0 wref=0  rd=0 rmax=0 rref=0
2026-09-03T20:19:32.841026 [RNG] frames=267163 last=35 min=23 max=61 nrdy=316 dxfer=0 dstat=0 lst=0 nrdyerr=0 dclr=0
2026-09-03T20:19:32.847268 [DRV] init=0 id=7 mode=0x1 lib=0x2 seq=0x1 odc=0x8b sts=0xe0 armed=1
2026-09-03T20:19:32.852909 [TRG] pulses=2509 suppressed=31767 cyc=1600 rst=1 rstmode=0x40
2026-09-03T20:19:32.856336 [HLT] polls=5349 faults=0x0 cfglost=0
2026-09-03T20:19:32.862142 [EFF] n=5 last=58588 min=58472 max=58588 late=0 stuck=0 rderr=0
2026-09-03T20:19:32.866156 [DWT] ok=1 cyc=532339767 cyc_per_ms=800000
2026-09-03T20:19:33.880320 [HB] up_ms=5644373 frames=267528 inf=267528 hazard=34276 canary_err=0 q=0 qovr=0
2026-09-03T20:19:33.891595 [I2C] init=0 gate=0 whoami=0x201e0 wr=0 wrseen=0x27 addr=0x5a ok=1082827 err=0 tmo=0 recov=0 pclk1=200000000 sysclk=400000000
2026-09-03T20:19:33.892957 [NAK] nacks=0
2026-09-03T20:19:33.897463 [CLK] cpu=800000000 sysb=400000000 pclk1=200000000
2026-09-03T20:19:33.902100 [TOF] res=0 step=0 id=0xeacc blk=0xeacc10 ctl=0x0
2026-09-03T20:19:33.907946 [RNG] init=0 step=99 id=0xeacc boot=1 calls=93 xerr=0 dm=1 tb=15
2026-09-03T20:19:33.914842 [RNG] osc=41 imp=881 imprb=881 mstart=0x40 cfg=91 cfgfail=0x0 vhv=0 vpolls=0
2026-09-03T20:19:33.921197 [PRT] calls=1069601 xerr=0 ler=1 lidx=0x0 perr=0 maxcnt=17 addr8=0x52
2026-09-03T20:19:33.925317 [RTY] wr=0 wmax=0 wref=0  rd=0 rmax=0 rref=0
2026-09-03T20:19:33.933317 [RNG] frames=267215 last=34 min=23 max=61 nrdy=316 dxfer=0 dstat=0 lst=0 nrdyerr=0 dclr=0
2026-09-03T20:19:33.939618 [DRV] init=0 id=7 mode=0x1 lib=0x2 seq=0x1 odc=0x8b sts=0xe0 armed=1
2026-09-03T20:19:33.945315 [TRG] pulses=2509 suppressed=31767 cyc=1600 rst=1 rstmode=0x40
2026-09-03T20:19:33.948696 [HLT] polls=5350 faults=0x0 cfglost=0
2026-09-03T20:19:33.954463 [EFF] n=5 last=58588 min=58472 max=58588 late=0 stuck=0 rderr=0
2026-09-03T20:19:33.958448 [DWT] ok=1 cyc=1400339607 cyc_per_ms=799999
2026-09-03T20:19:34.972268 [HB] up_ms=5645458 frames=267580 inf=267580 hazard=34276 canary_err=0 q=0 qovr=0
2026-09-03T20:19:34.983695 [I2C] init=0 gate=0 whoami=0x201e0 wr=0 wrseen=0x27 addr=0x5a ok=1083033 err=0 tmo=0 recov=0 pclk1=200000000 sysclk=400000000
2026-09-03T20:19:34.984881 [NAK] nacks=0
2026-09-03T20:19:34.989504 [CLK] cpu=800000000 sysb=400000000 pclk1=200000000
2026-09-03T20:19:34.994008 [TOF] res=0 step=0 id=0xeacc blk=0xeacc10 ctl=0x0
2026-09-03T20:19:34.999877 [RNG] init=0 step=99 id=0xeacc boot=1 calls=93 xerr=0 dm=1 tb=15
2026-09-03T20:19:35.007360 [RNG] osc=41 imp=881 imprb=881 mstart=0x40 cfg=91 cfgfail=0x0 vhv=0 vpolls=0
2026-09-03T20:19:35.013163 [PRT] calls=1069809 xerr=0 ler=1 lidx=0x0 perr=0 maxcnt=17 addr8=0x52
2026-09-03T20:19:35.017278 [RTY] wr=0 wmax=0 wref=0  rd=0 rmax=0 rref=0
2026-09-03T20:19:35.025417 [RNG] frames=267266 last=43 min=23 max=61 nrdy=316 dxfer=0 dstat=0 lst=0 nrdyerr=0 dclr=0
2026-09-03T20:19:35.031529 [DRV] init=0 id=7 mode=0x1 lib=0x2 seq=0x1 odc=0x8b sts=0xe0 armed=1
2026-09-03T20:19:35.037177 [TRG] pulses=2509 suppressed=31767 cyc=1600 rst=1 rstmode=0x40
2026-09-03T20:19:35.040682 [HLT] polls=5351 faults=0x0 cfglost=0
2026-09-03T20:19:35.046409 [EFF] n=5 last=58588 min=58472 max=58588 late=0 stuck=0 rderr=0
2026-09-03T20:19:35.050538 [DWT] ok=1 cyc=2268237695 cyc_per_ms=799906
2026-09-03T20:19:36.065062 [HB] up_ms=5646543 frames=267631 inf=267631 hazard=34276 canary_err=0 q=0 qovr=0
2026-09-03T20:19:36.076311 [I2C] init=0 gate=0 whoami=0x201e0 wr=0 wrseen=0x27 addr=0x5a ok=1083242 err=0 tmo=0 recov=0 pclk1=200000000 sysclk=400000000
2026-09-03T20:19:36.077575 [NAK] nacks=0
2026-09-03T20:19:36.082179 [CLK] cpu=800000000 sysb=400000000 pclk1=200000000
2026-09-03T20:19:36.086889 [TOF] res=0 step=0 id=0xeacc blk=0xeacc10 ctl=0x0
2026-09-03T20:19:36.092688 [RNG] init=0 step=99 id=0xeacc boot=1 calls=93 xerr=0 dm=1 tb=15
2026-09-03T20:19:36.099591 [RNG] osc=41 imp=881 imprb=881 mstart=0x40 cfg=91 cfgfail=0x0 vhv=0 vpolls=0
2026-09-03T20:19:36.105852 [PRT] calls=1070013 xerr=0 ler=1 lidx=0x0 perr=0 maxcnt=17 addr8=0x52
2026-09-03T20:19:36.110052 [RTY] wr=0 wmax=0 wref=0  rd=0 rmax=0 rref=0
2026-09-03T20:19:36.118059 [RNG] frames=267318 last=46 min=23 max=61 nrdy=316 dxfer=0 dstat=0 lst=0 nrdyerr=0 dclr=0
2026-09-03T20:19:36.124196 [DRV] init=0 id=7 mode=0x1 lib=0x2 seq=0x1 odc=0x8b sts=0xe0 armed=1
2026-09-03T20:19:36.129960 [TRG] pulses=2509 suppressed=31767 cyc=1600 rst=1 rstmode=0x40
2026-09-03T20:19:36.133431 [HLT] polls=5352 faults=0x0 cfglost=0
2026-09-03T20:19:36.139182 [EFF] n=5 last=58588 min=58472 max=58588 late=0 stuck=0 rderr=0
2026-09-03T20:19:36.143187 [DWT] ok=1 cyc=3136339627 cyc_per_ms=800093
2026-09-03T20:19:37.157741 [HB] up_ms=5647628 frames=267683 inf=267683 hazard=34317 canary_err=0 q=0 qovr=0
2026-09-03T20:19:37.169004 [I2C] init=0 gate=0 whoami=0x201e0 wr=0 wrseen=0x27 addr=0x5a ok=1083449 err=0 tmo=0 recov=0 pclk1=200000000 sysclk=400000000
2026-09-03T20:19:37.170358 [NAK] nacks=0
2026-09-03T20:19:37.175069 [CLK] cpu=800000000 sysb=400000000 pclk1=200000000
2026-09-03T20:19:37.181114 [TOF] res=0 step=0 id=0xeacc blk=0xeacc10 ctl=0x0
2026-09-03T20:19:37.186645 [RNG] init=0 step=99 id=0xeacc boot=1 calls=93 xerr=0 dm=1 tb=15
2026-09-03T20:19:37.192223 [RNG] osc=41 imp=881 imprb=881 mstart=0x40 cfg=91 cfgfail=0x0 vhv=0 vpolls=0
2026-09-03T20:19:37.198968 [PRT] calls=1070221 xerr=0 ler=1 lidx=0x0 perr=0 maxcnt=17 addr8=0x52
2026-09-03T20:19:37.202630 [RTY] wr=0 wmax=0 wref=0  rd=0 rmax=0 rref=0
2026-09-03T20:19:37.210628 [RNG] frames=267369 last=41 min=23 max=61 nrdy=316 dxfer=0 dstat=0 lst=0 nrdyerr=0 dclr=0
2026-09-03T20:19:37.216996 [DRV] init=0 id=7 mode=0x1 lib=0x2 seq=0x1 odc=0x8b sts=0xe0 armed=1
2026-09-03T20:19:37.222622 [TRG] pulses=2512 suppressed=31805 cyc=1600 rst=1 rstmode=0x40
2026-09-03T20:19:37.226155 [HLT] polls=5353 faults=0x0 cfglost=0
2026-09-03T20:19:37.231844 [EFF] n=5 last=58588 min=58472 max=58588 late=0 stuck=0 rderr=0
2026-09-03T20:19:37.235845 [DWT] ok=1 cyc=4004237795 cyc_per_ms=799906
2026-09-03T20:19:38.250415 [HB] up_ms=5648713 frames=267734 inf=267734 hazard=34317 canary_err=0 q=0 qovr=0
2026-09-03T20:19:38.261675 [I2C] init=0 gate=0 whoami=0x201e0 wr=0 wrseen=0x27 addr=0x5a ok=1083653 err=0 tmo=0 recov=0 pclk1=200000000 sysclk=400000000
2026-09-03T20:19:38.263034 [NAK] nacks=0
2026-09-03T20:19:38.267695 [CLK] cpu=800000000 sysb=400000000 pclk1=200000000
2026-09-03T20:19:38.272162 [TOF] res=0 step=0 id=0xeacc blk=0xeacc10 ctl=0x0
2026-09-03T20:19:38.278053 [RNG] init=0 step=99 id=0xeacc boot=1 calls=93 xerr=0 dm=1 tb=15
2026-09-03T20:19:38.285038 [RNG] osc=41 imp=881 imprb=881 mstart=0x40 cfg=91 cfgfail=0x0 vhv=0 vpolls=0
2026-09-03T20:19:38.291302 [PRT] calls=1070423 xerr=0 ler=1 lidx=0x0 perr=0 maxcnt=17 addr8=0x52
2026-09-03T20:19:38.295289 [RTY] wr=0 wmax=0 wref=0  rd=0 rmax=0 rref=0
2026-09-03T20:19:38.303588 [RNG] frames=267419 last=51 min=23 max=61 nrdy=317 dxfer=0 dstat=0 lst=0 nrdyerr=0 dclr=0
2026-09-03T20:19:38.309713 [DRV] init=0 id=7 mode=0x1 lib=0x2 seq=0x1 odc=0x8b sts=0xe0 armed=1
2026-09-03T20:19:38.315301 [TRG] pulses=2512 suppressed=31805 cyc=1600 rst=1 rstmode=0x40
2026-09-03T20:19:38.318787 [HLT] polls=5354 faults=0x0 cfglost=0
2026-09-03T20:19:38.324736 [EFF] n=5 last=58588 min=58472 max=58588 late=0 stuck=0 rderr=0
2026-09-03T20:19:38.328589 [DWT] ok=1 cyc=577372407 cyc_per_ms=800093
2026-09-03T20:19:39.342988 [HB] up_ms=5649798 frames=267786 inf=267786 hazard=34317 canary_err=0 q=0 qovr=0
2026-09-03T20:19:39.354232 [I2C] init=0 gate=0 whoami=0x201e0 wr=0 wrseen=0x27 addr=0x5a ok=1083863 err=0 tmo=0 recov=0 pclk1=200000000 sysclk=400000000
2026-09-03T20:19:39.355490 [NAK] nacks=0
2026-09-03T20:19:39.360243 [CLK] cpu=800000000 sysb=400000000 pclk1=200000000
2026-09-03T20:19:39.364700 [TOF] res=0 step=0 id=0xeacc blk=0xeacc10 ctl=0x0
2026-09-03T20:19:39.370609 [RNG] init=0 step=99 id=0xeacc boot=1 calls=93 xerr=0 dm=1 tb=15
2026-09-03T20:19:39.377489 [RNG] osc=41 imp=881 imprb=881 mstart=0x40 cfg=91 cfgfail=0x0 vhv=0 vpolls=0
2026-09-03T20:19:39.383852 [PRT] calls=1070627 xerr=0 ler=1 lidx=0x0 perr=0 maxcnt=17 addr8=0x52
2026-09-03T20:19:39.387840 [RTY] wr=0 wmax=0 wref=0  rd=0 rmax=0 rref=0
2026-09-03T20:19:39.396012 [RNG] frames=267471 last=36 min=23 max=61 nrdy=317 dxfer=0 dstat=0 lst=0 nrdyerr=0 dclr=0
2026-09-03T20:19:39.402096 [DRV] init=0 id=7 mode=0x1 lib=0x2 seq=0x1 odc=0x8b sts=0xe0 armed=1
2026-09-03T20:19:39.407868 [TRG] pulses=2512 suppressed=31805 cyc=1600 rst=1 rstmode=0x40
2026-09-03T20:19:39.411352 [HLT] polls=5355 faults=0x0 cfglost=0
2026-09-03T20:19:39.417094 [EFF] n=5 last=58588 min=58472 max=58588 late=0 stuck=0 rderr=0
2026-09-03T20:19:39.421089 [DWT] ok=1 cyc=1445371679 cyc_per_ms=799999
2026-09-03T20:19:40.434505 [HB] up_ms=5650883 frames=267837 inf=267837 hazard=34317 canary_err=0 q=0 qovr=0
2026-09-03T20:19:40.445888 [I2C] init=0 gate=0 whoami=0x201e0 wr=0 wrseen=0x27 addr=0x5a ok=1084069 err=0 tmo=0 recov=0 pclk1=200000000 sysclk=400000000
2026-09-03T20:19:40.447249 [NAK] nacks=0
2026-09-03T20:19:40.451809 [CLK] cpu=800000000 sysb=400000000 pclk1=200000000
2026-09-03T20:19:40.456677 [TOF] res=0 step=0 id=0xeacc blk=0xeacc10 ctl=0x0
2026-09-03T20:19:40.462139 [RNG] init=0 step=99 id=0xeacc boot=1 calls=93 xerr=0 dm=1 tb=15
2026-09-03T20:19:40.469143 [RNG] osc=41 imp=881 imprb=881 mstart=0x40 cfg=91 cfgfail=0x0 vhv=0 vpolls=0
2026-09-03T20:19:40.475603 [PRT] calls=1070835 xerr=0 ler=1 lidx=0x0 perr=0 maxcnt=17 addr8=0x52
2026-09-03T20:19:40.479540 [RTY] wr=0 wmax=0 wref=0  rd=0 rmax=0 rref=0
2026-09-03T20:19:40.487637 [RNG] frames=267522 last=44 min=23 max=61 nrdy=317 dxfer=0 dstat=0 lst=0 nrdyerr=0 dclr=0
2026-09-03T20:19:40.494287 [DRV] init=0 id=7 mode=0x1 lib=0x2 seq=0x1 odc=0x8b sts=0xe0 armed=1
2026-09-03T20:19:40.499391 [TRG] pulses=2512 suppressed=31805 cyc=1600 rst=1 rstmode=0x40
2026-09-03T20:19:40.502892 [HLT] polls=5356 faults=0x0 cfglost=0
2026-09-03T20:19:40.509307 [EFF] n=5 last=58588 min=58472 max=58588 late=0 stuck=0 rderr=0
2026-09-03T20:19:40.512852 [DWT] ok=1 cyc=2313372479 cyc_per_ms=800000
2026-09-03T20:19:41.526478 [HB] up_ms=5651968 frames=267888 inf=267888 hazard=34317 canary_err=0 q=0 qovr=0
2026-09-03T20:19:41.537719 [I2C] init=0 gate=0 whoami=0x201e0 wr=0 wrseen=0x27 addr=0x5a ok=1084279 err=0 tmo=0 recov=0 pclk1=200000000 sysclk=400000000
2026-09-03T20:19:41.539014 [NAK] nacks=0
2026-09-03T20:19:41.543839 [CLK] cpu=800000000 sysb=400000000 pclk1=200000000
2026-09-03T20:19:41.548204 [TOF] res=0 step=0 id=0xeacc blk=0xeacc10 ctl=0x0
2026-09-03T20:19:41.554092 [RNG] init=0 step=99 id=0xeacc boot=1 calls=93 xerr=0 dm=1 tb=15
2026-09-03T20:19:41.560972 [RNG] osc=41 imp=881 imprb=881 mstart=0x40 cfg=91 cfgfail=0x0 vhv=0 vpolls=0
2026-09-03T20:19:41.567184 [PRT] calls=1071039 xerr=0 ler=1 lidx=0x0 perr=0 maxcnt=17 addr8=0x52
2026-09-03T20:19:41.571316 [RTY] wr=0 wmax=0 wref=0  rd=0 rmax=0 rref=0
2026-09-03T20:19:41.579308 [RNG] frames=267574 last=31 min=23 max=61 nrdy=317 dxfer=0 dstat=0 lst=0 nrdyerr=0 dclr=0
2026-09-03T20:19:41.585596 [DRV] init=0 id=7 mode=0x1 lib=0x2 seq=0x1 odc=0x8b sts=0xe0 armed=1
2026-09-03T20:19:41.591429 [TRG] pulses=2512 suppressed=31805 cyc=1600 rst=1 rstmode=0x40
2026-09-03T20:19:41.594818 [HLT] polls=5357 faults=0x0 cfglost=0
2026-09-03T20:19:41.600443 [EFF] n=5 last=58588 min=58472 max=58588 late=0 stuck=0 rderr=0
2026-09-03T20:19:41.604439 [DWT] ok=1 cyc=3181372319 cyc_per_ms=799999
2026-09-03T20:19:42.617997 [HB] up_ms=5653053 frames=267940 inf=267940 hazard=34317 canary_err=0 q=0 qovr=0
2026-09-03T20:19:42.629383 [I2C] init=0 gate=0 whoami=0x201e0 wr=0 wrseen=0x27 addr=0x5a ok=1084485 err=0 tmo=0 recov=0 pclk1=200000000 sysclk=400000000
2026-09-03T20:19:42.630621 [NAK] nacks=0
2026-09-03T20:19:42.635269 [CLK] cpu=800000000 sysb=400000000 pclk1=200000000
2026-09-03T20:19:42.639756 [TOF] res=0 step=0 id=0xeacc blk=0xeacc10 ctl=0x0
2026-09-03T20:19:42.645633 [RNG] init=0 step=99 id=0xeacc boot=1 calls=93 xerr=0 dm=1 tb=15
2026-09-03T20:19:42.652625 [RNG] osc=41 imp=881 imprb=881 mstart=0x40 cfg=91 cfgfail=0x0 vhv=0 vpolls=0
2026-09-03T20:19:42.658880 [PRT] calls=1071247 xerr=0 ler=1 lidx=0x0 perr=0 maxcnt=17 addr8=0x52
2026-09-03T20:19:42.662992 [RTY] wr=0 wmax=0 wref=0  rd=0 rmax=0 rref=0
2026-09-03T20:19:42.671110 [RNG] frames=267625 last=43 min=23 max=61 nrdy=317 dxfer=0 dstat=0 lst=0 nrdyerr=0 dclr=0
2026-09-03T20:19:42.677259 [DRV] init=0 id=7 mode=0x1 lib=0x2 seq=0x1 odc=0x8b sts=0xe0 armed=1
2026-09-03T20:19:42.683004 [TRG] pulses=2512 suppressed=31805 cyc=1600 rst=1 rstmode=0x40
2026-09-03T20:19:42.686368 [HLT] polls=5358 faults=0x0 cfglost=0
2026-09-03T20:19:42.692133 [EFF] n=5 last=58588 min=58472 max=58588 late=0 stuck=0 rderr=0
2026-09-03T20:19:42.696266 [DWT] ok=1 cyc=4049270327 cyc_per_ms=799905
2026-09-03T20:19:43.710185 [HB] up_ms=5654138 frames=267991 inf=267991 hazard=34348 canary_err=0 q=0 qovr=0
2026-09-03T20:19:43.721518 [I2C] init=0 gate=0 whoami=0x201e0 wr=0 wrseen=0x27 addr=0x5a ok=1084694 err=0 tmo=0 recov=0 pclk1=200000000 sysclk=400000000
2026-09-03T20:19:43.722689 [NAK] nacks=0
2026-09-03T20:19:43.727314 [CLK] cpu=800000000 sysb=400000000 pclk1=200000000
2026-09-03T20:19:43.731932 [TOF] res=0 step=0 id=0xeacc blk=0xeacc10 ctl=0x0
2026-09-03T20:19:43.737803 [RNG] init=0 step=99 id=0xeacc boot=1 calls=93 xerr=0 dm=1 tb=15
2026-09-03T20:19:43.744695 [RNG] osc=41 imp=881 imprb=881 mstart=0x40 cfg=91 cfgfail=0x0 vhv=0 vpolls=0
2026-09-03T20:19:43.750955 [PRT] calls=1071451 xerr=0 ler=1 lidx=0x0 perr=0 maxcnt=17 addr8=0x52
2026-09-03T20:19:43.755085 [RTY] wr=0 wmax=0 wref=0  rd=0 rmax=0 rref=0
2026-09-03T20:19:43.763194 [RNG] frames=267677 last=38 min=23 max=61 nrdy=317 dxfer=0 dstat=0 lst=0 nrdyerr=0 dclr=0
2026-09-03T20:19:43.769315 [DRV] init=0 id=7 mode=0x1 lib=0x2 seq=0x1 odc=0x8b sts=0xe0 armed=1
2026-09-03T20:19:43.774937 [TRG] pulses=2515 suppressed=31836 cyc=1600 rst=1 rstmode=0x40
2026-09-03T20:19:43.778572 [HLT] polls=5359 faults=0x0 cfglost=0
2026-09-03T20:19:43.784306 [EFF] n=5 last=58588 min=58472 max=58588 late=0 stuck=0 rderr=0
2026-09-03T20:19:43.788216 [DWT] ok=1 cyc=622408711 cyc_per_ms=800097
2026-09-03T20:19:44.801367 [HB] up_ms=5655223 frames=268043 inf=268043 hazard=34358 canary_err=0 q=0 qovr=0
2026-09-03T20:19:44.812630 [I2C] init=0 gate=0 whoami=0x201e0 wr=0 wrseen=0x27 addr=0x5a ok=1084901 err=0 tmo=0 recov=0 pclk1=200000000 sysclk=400000000
2026-09-03T20:19:44.813989 [NAK] nacks=0
2026-09-03T20:19:44.818617 [CLK] cpu=800000000 sysb=400000000 pclk1=200000000
2026-09-03T20:19:44.823132 [TOF] res=0 step=0 id=0xeacc blk=0xeacc10 ctl=0x0
2026-09-03T20:19:44.828981 [RNG] init=0 step=99 id=0xeacc boot=1 calls=93 xerr=0 dm=1 tb=15
2026-09-03T20:19:44.835858 [RNG] osc=41 imp=881 imprb=881 mstart=0x40 cfg=91 cfgfail=0x0 vhv=0 vpolls=0
2026-09-03T20:19:44.842237 [PRT] calls=1071659 xerr=0 ler=1 lidx=0x0 perr=0 maxcnt=17 addr8=0x52
2026-09-03T20:19:44.846230 [RTY] wr=0 wmax=0 wref=0  rd=0 rmax=0 rref=0
2026-09-03T20:19:44.854237 [RNG] frames=267728 last=49 min=23 max=61 nrdy=317 dxfer=0 dstat=0 lst=0 nrdyerr=0 dclr=0
2026-09-03T20:19:44.860634 [DRV] init=0 id=7 mode=0x1 lib=0x2 seq=0x1 odc=0x8b sts=0xe0 armed=1
2026-09-03T20:19:44.866243 [TRG] pulses=2515 suppressed=31843 cyc=1600 rst=1 rstmode=0x40
2026-09-03T20:19:44.869733 [HLT] polls=5360 faults=0x0 cfglost=0
2026-09-03T20:19:44.875359 [EFF] n=5 last=58588 min=58472 max=58588 late=0 stuck=0 rderr=0
2026-09-03T20:19:44.879476 [DWT] ok=1 cyc=1490303139 cyc_per_ms=799902
2026-09-03T20:19:45.893054 [HB] up_ms=5656308 frames=268094 inf=268094 hazard=34358 canary_err=0 q=0 qovr=0
2026-09-03T20:19:45.904431 [I2C] init=0 gate=0 whoami=0x201e0 wr=0 wrseen=0x27 addr=0x5a ok=1085107 err=0 tmo=0 recov=0 pclk1=200000000 sysclk=400000000
2026-09-03T20:19:45.905657 [NAK] nacks=0
2026-09-03T20:19:45.910289 [CLK] cpu=800000000 sysb=400000000 pclk1=200000000
2026-09-03T20:19:45.914791 [TOF] res=0 step=0 id=0xeacc blk=0xeacc10 ctl=0x0
2026-09-03T20:19:45.920797 [RNG] init=0 step=99 id=0xeacc boot=1 calls=93 xerr=0 dm=1 tb=15
2026-09-03T20:19:45.927666 [RNG] osc=41 imp=881 imprb=881 mstart=0x40 cfg=91 cfgfail=0x0 vhv=0 vpolls=0
2026-09-03T20:19:45.933930 [PRT] calls=1071863 xerr=0 ler=1 lidx=0x0 perr=0 maxcnt=17 addr8=0x52
2026-09-03T20:19:45.937922 [RTY] wr=0 wmax=0 wref=0  rd=0 rmax=0 rref=0
2026-09-03T20:19:45.946162 [RNG] frames=267779 last=48 min=23 max=61 nrdy=317 dxfer=0 dstat=0 lst=0 nrdyerr=0 dclr=0
2026-09-03T20:19:45.952288 [DRV] init=0 id=7 mode=0x1 lib=0x2 seq=0x1 odc=0x8b sts=0xe0 armed=1
2026-09-03T20:19:45.957917 [TRG] pulses=2515 suppressed=31843 cyc=1600 rst=1 rstmode=0x40
2026-09-03T20:19:45.961412 [HLT] polls=5361 faults=0x0 cfglost=0
2026-09-03T20:19:45.967293 [EFF] n=5 last=58588 min=58472 max=58588 late=0 stuck=0 rderr=0
2026-09-03T20:19:45.971289 [DWT] ok=1 cyc=2358405127 cyc_per_ms=800093
2026-09-03T20:19:46.984626 [HB] up_ms=5657393 frames=268146 inf=268146 hazard=34358 canary_err=0 q=0 qovr=0
2026-09-03T20:19:46.995690 [I2C] init=0 gate=0 whoami=0x201e0 wr=0 wrseen=0x27 addr=0x5a ok=1085317 err=0 tmo=0 recov=0 pclk1=200000000 sysclk=400000000
2026-09-03T20:19:46.996927 [NAK] nacks=0
2026-09-03T20:19:47.001690 [CLK] cpu=800000000 sysb=400000000 pclk1=200000000
2026-09-03T20:19:47.006307 [TOF] res=0 step=0 id=0xeacc blk=0xeacc10 ctl=0x0
2026-09-03T20:19:47.012325 [RNG] init=0 step=99 id=0xeacc boot=1 calls=93 xerr=0 dm=1 tb=15
2026-09-03T20:19:47.018938 [RNG] osc=41 imp=881 imprb=881 mstart=0x40 cfg=91 cfgfail=0x0 vhv=0 vpolls=0
2026-09-03T20:19:47.025335 [PRT] calls=1072067 xerr=0 ler=1 lidx=0x0 perr=0 maxcnt=17 addr8=0x52
2026-09-03T20:19:47.029701 [RTY] wr=0 wmax=0 wref=0  rd=0 rmax=0 rref=0
2026-09-03T20:19:47.037444 [RNG] frames=267831 last=49 min=23 max=61 nrdy=317 dxfer=0 dstat=0 lst=0 nrdyerr=0 dclr=0
2026-09-03T20:19:47.043600 [DRV] init=0 id=7 mode=0x1 lib=0x2 seq=0x1 odc=0x8b sts=0xe0 armed=1
2026-09-03T20:19:47.049325 [TRG] pulses=2515 suppressed=31843 cyc=1600 rst=1 rstmode=0x40
2026-09-03T20:19:47.052944 [HLT] polls=5362 faults=0x0 cfglost=0
2026-09-03T20:19:47.058468 [EFF] n=5 last=58588 min=58472 max=58588 late=0 stuck=0 rderr=0
2026-09-03T20:19:47.062452 [DWT] ok=1 cyc=3226404383 cyc_per_ms=799999
2026-09-03T20:19:48.075722 [HB] up_ms=5658478 frames=268197 inf=268197 hazard=34358 canary_err=0 q=0 qovr=0
2026-09-03T20:19:48.087027 [I2C] init=0 gate=0 whoami=0x201e0 wr=0 wrseen=0x27 addr=0x5a ok=1085523 err=0 tmo=0 recov=0 pclk1=200000000 sysclk=400000000
2026-09-03T20:19:48.088336 [NAK] nacks=0
2026-09-03T20:19:48.092881 [CLK] cpu=800000000 sysb=400000000 pclk1=200000000
2026-09-03T20:19:48.097365 [TOF] res=0 step=0 id=0xeacc blk=0xeacc10 ctl=0x0
2026-09-03T20:19:48.103272 [RNG] init=0 step=99 id=0xeacc boot=1 calls=93 xerr=0 dm=1 tb=15
2026-09-03T20:19:48.110254 [RNG] osc=41 imp=881 imprb=881 mstart=0x40 cfg=91 cfgfail=0x0 vhv=0 vpolls=0
2026-09-03T20:19:48.116500 [PRT] calls=1072275 xerr=0 ler=1 lidx=0x0 perr=0 maxcnt=17 addr8=0x52
2026-09-03T20:19:48.120715 [RTY] wr=0 wmax=0 wref=0  rd=0 rmax=0 rref=0
2026-09-03T20:19:48.128901 [RNG] frames=267882 last=43 min=23 max=61 nrdy=317 dxfer=0 dstat=0 lst=0 nrdyerr=0 dclr=0
2026-09-03T20:19:48.134887 [DRV] init=0 id=7 mode=0x1 lib=0x2 seq=0x1 odc=0x8b sts=0xe0 armed=1
2026-09-03T20:19:48.140684 [TRG] pulses=2515 suppressed=31843 cyc=1600 rst=1 rstmode=0x40
2026-09-03T20:19:48.144022 [HLT] polls=5364 faults=0x0 cfglost=0
2026-09-03T20:19:48.149887 [EFF] n=5 last=58588 min=58472 max=58588 late=0 stuck=0 rderr=0
2026-09-03T20:19:48.153909 [DWT] ok=1 cyc=4094437815 cyc_per_ms=800030
2026-09-03T20:19:49.167177 [HB] up_ms=5659563 frames=268248 inf=268248 hazard=34358 canary_err=0 q=0 qovr=0
2026-09-03T20:19:49.178429 [I2C] init=0 gate=0 whoami=0x201e0 wr=0 wrseen=0x27 addr=0x5a ok=1085733 err=0 tmo=0 recov=0 pclk1=200000000 sysclk=400000000
2026-09-03T20:19:49.179675 [NAK] nacks=0
2026-09-03T20:19:49.184311 [CLK] cpu=800000000 sysb=400000000 pclk1=200000000
2026-09-03T20:19:49.189049 [TOF] res=0 step=0 id=0xeacc blk=0xeacc10 ctl=0x0
2026-09-03T20:19:49.194809 [RNG] init=0 step=99 id=0xeacc boot=1 calls=93 xerr=0 dm=1 tb=15
2026-09-03T20:19:49.201897 [RNG] osc=41 imp=881 imprb=881 mstart=0x40 cfg=91 cfgfail=0x0 vhv=0 vpolls=0
2026-09-03T20:19:49.208053 [PRT] calls=1072479 xerr=0 ler=1 lidx=0x0 perr=0 maxcnt=17 addr8=0x52
2026-09-03T20:19:49.212191 [RTY] wr=0 wmax=0 wref=0  rd=0 rmax=0 rref=0
2026-09-03T20:19:49.220173 [RNG] frames=267934 last=36 min=23 max=61 nrdy=317 dxfer=0 dstat=0 lst=0 nrdyerr=0 dclr=0
2026-09-03T20:19:49.226296 [DRV] init=0 id=7 mode=0x1 lib=0x2 seq=0x1 odc=0x8b sts=0xe0 armed=1
2026-09-03T20:19:49.232041 [TRG] pulses=2515 suppressed=31843 cyc=1600 rst=1 rstmode=0x40
2026-09-03T20:19:49.235596 [HLT] polls=5365 faults=0x0 cfglost=0
2026-09-03T20:19:49.241301 [EFF] n=5 last=58588 min=58472 max=58588 late=0 stuck=0 rderr=0
2026-09-03T20:19:49.245178 [DWT] ok=1 cyc=667470383 cyc_per_ms=799999
2026-09-03T20:19:50.258118 [HB] up_ms=5660648 frames=268300 inf=268300 hazard=34378 canary_err=0 q=0 qovr=0
2026-09-03T20:19:50.269489 [I2C] init=0 gate=0 whoami=0x201e0 wr=0 wrseen=0x27 addr=0x5a ok=1085941 err=0 tmo=0 recov=0 pclk1=200000000 sysclk=400000000
2026-09-03T20:19:50.270753 [NAK] nacks=0
2026-09-03T20:19:50.275358 [CLK] cpu=800000000 sysb=400000000 pclk1=200000000
2026-09-03T20:19:50.279856 [TOF] res=0 step=0 id=0xeacc blk=0xeacc10 ctl=0x0
2026-09-03T20:19:50.285624 [RNG] init=0 step=99 id=0xeacc boot=1 calls=93 xerr=0 dm=1 tb=15
2026-09-03T20:19:50.292641 [RNG] osc=41 imp=881 imprb=881 mstart=0x40 cfg=91 cfgfail=0x0 vhv=0 vpolls=0
2026-09-03T20:19:50.298985 [PRT] calls=1072687 xerr=0 ler=1 lidx=0x0 perr=0 maxcnt=17 addr8=0x52
2026-09-03T20:19:50.302994 [RTY] wr=0 wmax=0 wref=0  rd=0 rmax=0 rref=0
2026-09-03T20:19:50.311120 [RNG] frames=267985 last=40 min=23 max=61 nrdy=317 dxfer=0 dstat=0 lst=0 nrdyerr=0 dclr=0
2026-09-03T20:19:50.317387 [DRV] init=0 id=7 mode=0x1 lib=0x2 seq=0x1 odc=0x8b sts=0xe0 armed=1
2026-09-03T20:19:50.323021 [TRG] pulses=2517 suppressed=31864 cyc=1600 rst=1 rstmode=0x40
2026-09-03T20:19:50.326392 [HLT] polls=5366 faults=0x0 cfglost=0
2026-09-03T20:19:50.332110 [EFF] n=5 last=58588 min=58472 max=58588 late=0 stuck=0 rderr=0
2026-09-03T20:19:50.336234 [DWT] ok=1 cyc=1535338619 cyc_per_ms=799878
2026-09-03T20:19:51.349288 [HB] up_ms=5661733 frames=268351 inf=268351 hazard=34399 canary_err=0 q=0 qovr=0
2026-09-03T20:19:51.360538 [I2C] init=0 gate=0 whoami=0x201e0 wr=0 wrseen=0x27 addr=0x5a ok=1086150 err=0 tmo=0 recov=0 pclk1=200000000 sysclk=400000000
2026-09-03T20:19:51.361784 [NAK] nacks=0
2026-09-03T20:19:51.366443 [CLK] cpu=800000000 sysb=400000000 pclk1=200000000
2026-09-03T20:19:51.371104 [TOF] res=0 step=0 id=0xeacc blk=0xeacc10 ctl=0x0
2026-09-03T20:19:51.376928 [RNG] init=0 step=99 id=0xeacc boot=1 calls=93 xerr=0 dm=1 tb=15
2026-09-03T20:19:51.383897 [RNG] osc=41 imp=881 imprb=881 mstart=0x40 cfg=91 cfgfail=0x0 vhv=0 vpolls=0
2026-09-03T20:19:51.390047 [PRT] calls=1072891 xerr=0 ler=1 lidx=0x0 perr=0 maxcnt=17 addr8=0x52
2026-09-03T20:19:51.394181 [RTY] wr=0 wmax=0 wref=0  rd=0 rmax=0 rref=0
2026-09-03T20:19:51.402282 [RNG] frames=268037 last=50 min=23 max=61 nrdy=317 dxfer=0 dstat=0 lst=0 nrdyerr=0 dclr=0
2026-09-03T20:19:51.408426 [DRV] init=0 id=7 mode=0x1 lib=0x2 seq=0x1 odc=0x8b sts=0xe0 armed=1
2026-09-03T20:19:51.414035 [TRG] pulses=2518 suppressed=31881 cyc=1600 rst=1 rstmode=0x40
2026-09-03T20:19:51.417667 [HLT] polls=5367 faults=0x0 cfglost=0
2026-09-03T20:19:51.423420 [EFF] n=5 last=58588 min=58472 max=58588 late=0 stuck=0 rderr=0
2026-09-03T20:19:51.427297 [DWT] ok=1 cyc=2403437751 cyc_per_ms=800091
2026-09-03T20:19:52.439955 [HB] up_ms=5662818 frames=268403 inf=268403 hazard=34399 canary_err=0 q=0 qovr=0
2026-09-03T20:19:52.451235 [I2C] init=0 gate=0 whoami=0x201e0 wr=0 wrseen=0x27 addr=0x5a ok=1086357 err=0 tmo=0 recov=0 pclk1=200000000 sysclk=400000000
2026-09-03T20:19:52.452603 [NAK] nacks=0
2026-09-03T20:19:52.457082 [CLK] cpu=800000000 sysb=400000000 pclk1=200000000
2026-09-03T20:19:52.461610 [TOF] res=0 step=0 id=0xeacc blk=0xeacc10 ctl=0x0
2026-09-03T20:19:52.467468 [RNG] init=0 step=99 id=0xeacc boot=1 calls=93 xerr=0 dm=1 tb=15
2026-09-03T20:19:52.474469 [RNG] osc=41 imp=881 imprb=881 mstart=0x40 cfg=91 cfgfail=0x0 vhv=0 vpolls=0
2026-09-03T20:19:52.480721 [PRT] calls=1073099 xerr=0 ler=1 lidx=0x0 perr=0 maxcnt=17 addr8=0x52
2026-09-03T20:19:52.484871 [RTY] wr=0 wmax=0 wref=0  rd=0 rmax=0 rref=0
2026-09-03T20:19:52.492848 [RNG] frames=268088 last=39 min=23 max=61 nrdy=317 dxfer=0 dstat=0 lst=0 nrdyerr=0 dclr=0
2026-09-03T20:19:52.499076 [DRV] init=0 id=7 mode=0x1 lib=0x2 seq=0x1 odc=0x8b sts=0xe0 armed=1
2026-09-03T20:19:52.504705 [TRG] pulses=2518 suppressed=31881 cyc=1600 rst=1 rstmode=0x40
2026-09-03T20:19:52.508214 [HLT] polls=5368 faults=0x0 cfglost=0
2026-09-03T20:19:52.513970 [EFF] n=5 last=58588 min=58472 max=58588 late=0 stuck=0 rderr=0
2026-09-03T20:19:52.517959 [DWT] ok=1 cyc=3271335883 cyc_per_ms=799906
2026-09-03T20:19:53.530892 [HB] up_ms=5663903 frames=268454 inf=268454 hazard=34399 canary_err=0 q=0 qovr=0
2026-09-03T20:19:53.542148 [I2C] init=0 gate=0 whoami=0x201e0 wr=0 wrseen=0x27 addr=0x5a ok=1086563 err=0 tmo=0 recov=0 pclk1=200000000 sysclk=400000000
2026-09-03T20:19:53.543519 [NAK] nacks=0
2026-09-03T20:19:53.548128 [CLK] cpu=800000000 sysb=400000000 pclk1=200000000
2026-09-03T20:19:53.552504 [TOF] res=0 step=0 id=0xeacc blk=0xeacc10 ctl=0x0
2026-09-03T20:19:53.558516 [RNG] init=0 step=99 id=0xeacc boot=1 calls=93 xerr=0 dm=1 tb=15
2026-09-03T20:19:53.565386 [RNG] osc=41 imp=881 imprb=881 mstart=0x40 cfg=91 cfgfail=0x0 vhv=0 vpolls=0
2026-09-03T20:19:53.571664 [PRT] calls=1073303 xerr=0 ler=1 lidx=0x0 perr=0 maxcnt=17 addr8=0x52
2026-09-03T20:19:53.575798 [RTY] wr=0 wmax=0 wref=0  rd=0 rmax=0 rref=0
2026-09-03T20:19:53.583941 [RNG] frames=268139 last=46 min=23 max=61 nrdy=317 dxfer=0 dstat=0 lst=0 nrdyerr=0 dclr=0
2026-09-03T20:19:53.590036 [DRV] init=0 id=7 mode=0x1 lib=0x2 seq=0x1 odc=0x8b sts=0xe0 armed=1
2026-09-03T20:19:53.595761 [TRG] pulses=2518 suppressed=31881 cyc=1600 rst=1 rstmode=0x40
2026-09-03T20:19:53.599145 [HLT] polls=5369 faults=0x0 cfglost=0
2026-09-03T20:19:53.605008 [EFF] n=5 last=58588 min=58472 max=58588 late=0 stuck=0 rderr=0
2026-09-03T20:19:53.609016 [DWT] ok=1 cyc=4139437883 cyc_per_ms=800094
2026-09-03T20:19:54.622185 [HB] up_ms=5664988 frames=268506 inf=268506 hazard=34399 canary_err=0 q=0 qovr=0
2026-09-03T20:19:54.633436 [I2C] init=0 gate=0 whoami=0x201e0 wr=0 wrseen=0x27 addr=0x5a ok=1086771 err=0 tmo=0 recov=0 pclk1=200000000 sysclk=400000000
2026-09-03T20:19:54.634711 [NAK] nacks=0
2026-09-03T20:19:54.639477 [CLK] cpu=800000000 sysb=400000000 pclk1=200000000
2026-09-03T20:19:54.643926 [TOF] res=0 step=0 id=0xeacc blk=0xeacc10 ctl=0x0
2026-09-03T20:19:54.649806 [RNG] init=0 step=99 id=0xeacc boot=1 calls=93 xerr=0 dm=1 tb=15
2026-09-03T20:19:54.656690 [RNG] osc=41 imp=881 imprb=881 mstart=0x40 cfg=91 cfgfail=0x0 vhv=0 vpolls=0
2026-09-03T20:19:54.663057 [PRT] calls=1073505 xerr=0 ler=1 lidx=0x0 perr=0 maxcnt=17 addr8=0x52
2026-09-03T20:19:54.667180 [RTY] wr=0 wmax=0 wref=0  rd=0 rmax=0 rref=0
2026-09-03T20:19:54.675186 [RNG] frames=268190 last=48 min=23 max=61 nrdy=318 dxfer=0 dstat=0 lst=0 nrdyerr=0 dclr=0
2026-09-03T20:19:54.681307 [DRV] init=0 id=7 mode=0x1 lib=0x2 seq=0x1 odc=0x8b sts=0xe0 armed=1
2026-09-03T20:19:54.687057 [TRG] pulses=2518 suppressed=31881 cyc=1600 rst=1 rstmode=0x40
2026-09-03T20:19:54.690597 [HLT] polls=5370 faults=0x0 cfglost=0
2026-09-03T20:19:54.696303 [EFF] n=5 last=58588 min=58472 max=58588 late=0 stuck=0 rderr=0
2026-09-03T20:19:54.700219 [DWT] ok=1 cyc=712469823 cyc_per_ms=799999
2026-09-03T20:19:55.713487 [HB] up_ms=5666073 frames=268557 inf=268557 hazard=34399 canary_err=0 q=0 qovr=0
2026-09-03T20:19:55.724742 [I2C] init=0 gate=0 whoami=0x201e0 wr=0 wrseen=0x27 addr=0x5a ok=1086977 err=0 tmo=0 recov=0 pclk1=200000000 sysclk=400000000
2026-09-03T20:19:55.726225 [NAK] nacks=0
2026-09-03T20:19:55.730729 [CLK] cpu=800000000 sysb=400000000 pclk1=200000000
2026-09-03T20:19:55.735231 [TOF] res=0 step=0 id=0xeacc blk=0xeacc10 ctl=0x0
2026-09-03T20:19:55.741115 [RNG] init=0 step=99 id=0xeacc boot=1 calls=93 xerr=0 dm=1 tb=15
2026-09-03T20:19:55.747987 [RNG] osc=41 imp=881 imprb=881 mstart=0x40 cfg=91 cfgfail=0x0 vhv=0 vpolls=0
2026-09-03T20:19:55.754236 [PRT] calls=1073713 xerr=0 ler=1 lidx=0x0 perr=0 maxcnt=17 addr8=0x52
2026-09-03T20:19:55.758364 [RTY] wr=0 wmax=0 wref=0  rd=0 rmax=0 rref=0
2026-09-03T20:19:55.767879 [RNG] frames=268241 last=37 min=23 max=61 nrdy=318 dxfer=0 dstat=0 lst=0 nrdyerr=0 dclr=0
2026-09-03T20:19:55.772631 [DRV] init=0 id=7 mode=0x1 lib=0x2 seq=0x1 odc=0x8b sts=0xe0 armed=1
2026-09-03T20:19:55.778374 [TRG] pulses=2518 suppressed=31881 cyc=1600 rst=1 rstmode=0x40
2026-09-03T20:19:55.781739 [HLT] polls=5371 faults=0x0 cfglost=0
2026-09-03T20:19:55.787634 [EFF] n=5 last=58588 min=58472 max=58588 late=0 stuck=0 rderr=0
2026-09-03T20:19:55.791632 [DWT] ok=1 cyc=1580470623 cyc_per_ms=800000
2026-09-03T20:19:56.805037 [HB] up_ms=5667158 frames=268608 inf=268608 hazard=34407 canary_err=0 q=0 qovr=0
2026-09-03T20:19:56.816281 [I2C] init=0 gate=0 whoami=0x201e0 wr=0 wrseen=0x27 addr=0x5a ok=1087187 err=0 tmo=0 recov=0 pclk1=200000000 sysclk=400000000
2026-09-03T20:19:56.817667 [NAK] nacks=0
2026-09-03T20:19:56.822329 [CLK] cpu=800000000 sysb=400000000 pclk1=200000000
2026-09-03T20:19:56.826932 [TOF] res=0 step=0 id=0xeacc blk=0xeacc10 ctl=0x0
2026-09-03T20:19:56.832650 [RNG] init=0 step=99 id=0xeacc boot=1 calls=93 xerr=0 dm=1 tb=15
2026-09-03T20:19:56.839537 [RNG] osc=41 imp=881 imprb=881 mstart=0x40 cfg=91 cfgfail=0x0 vhv=0 vpolls=0
2026-09-03T20:19:56.845910 [PRT] calls=1073917 xerr=0 ler=1 lidx=0x0 perr=0 maxcnt=17 addr8=0x52
2026-09-03T20:19:56.850038 [RTY] wr=0 wmax=0 wref=0  rd=0 rmax=0 rref=0
2026-09-03T20:19:56.858042 [RNG] frames=268293 last=45 min=23 max=61 nrdy=318 dxfer=0 dstat=0 lst=0 nrdyerr=0 dclr=0
2026-09-03T20:19:56.864156 [DRV] init=0 id=7 mode=0x1 lib=0x2 seq=0x1 odc=0x8b sts=0xe0 armed=1
2026-09-03T20:19:56.870053 [TRG] pulses=2519 suppressed=31891 cyc=1600 rst=1 rstmode=0x40
2026-09-03T20:19:56.873422 [HLT] polls=5372 faults=0x0 cfglost=0
2026-09-03T20:19:56.879158 [EFF] n=5 last=58588 min=58472 max=58588 late=0 stuck=0 rderr=0
2026-09-03T20:19:56.883150 [DWT] ok=1 cyc=2448474155 cyc_per_ms=800003
2026-09-03T20:19:57.896622 [HB] up_ms=5668243 frames=268660 inf=268660 hazard=34440 canary_err=0 q=0 qovr=0
2026-09-03T20:19:57.907957 [I2C] init=0 gate=0 whoami=0x201e0 wr=0 wrseen=0x27 addr=0x5a ok=1087393 err=0 tmo=0 recov=0 pclk1=200000000 sysclk=400000000
2026-09-03T20:19:57.909220 [NAK] nacks=0
2026-09-03T20:19:57.913838 [CLK] cpu=800000000 sysb=400000000 pclk1=200000000
2026-09-03T20:19:57.918332 [TOF] res=0 step=0 id=0xeacc blk=0xeacc10 ctl=0x0
2026-09-03T20:19:57.924219 [RNG] init=0 step=99 id=0xeacc boot=1 calls=93 xerr=0 dm=1 tb=15
2026-09-03T20:19:57.931209 [RNG] osc=41 imp=881 imprb=881 mstart=0x40 cfg=91 cfgfail=0x0 vhv=0 vpolls=0
2026-09-03T20:19:57.937469 [PRT] calls=1074125 xerr=0 ler=1 lidx=0x0 perr=0 maxcnt=17 addr8=0x52
2026-09-03T20:19:57.941602 [RTY] wr=0 wmax=0 wref=0  rd=0 rmax=0 rref=0
2026-09-03T20:19:57.949611 [RNG] frames=268344 last=35 min=23 max=61 nrdy=318 dxfer=0 dstat=0 lst=0 nrdyerr=0 dclr=0
2026-09-03T20:19:57.955830 [DRV] init=0 id=7 mode=0x1 lib=0x2 seq=0x1 odc=0x8b sts=0xe0 armed=1
2026-09-03T20:19:57.961458 [TRG] pulses=2521 suppressed=31919 cyc=1600 rst=1 rstmode=0x40
2026-09-03T20:19:57.964957 [HLT] polls=5373 faults=0x0 cfglost=0
2026-09-03T20:19:57.970707 [EFF] n=5 last=58588 min=58472 max=58588 late=0 stuck=0 rderr=0
2026-09-03T20:19:57.974742 [DWT] ok=1 cyc=3316368539 cyc_per_ms=799902
2026-09-03T20:19:58.988128 [HB] up_ms=5669328 frames=268711 inf=268711 hazard=34440 canary_err=0 q=0 qovr=0
2026-09-03T20:19:58.999374 [I2C] init=0 gate=0 whoami=0x201e0 wr=0 wrseen=0x27 addr=0x5a ok=1087602 err=0 tmo=0 recov=0 pclk1=200000000 sysclk=400000000
2026-09-03T20:19:59.000640 [NAK] nacks=0
2026-09-03T20:19:59.005245 [CLK] cpu=800000000 sysb=400000000 pclk1=200000000
2026-09-03T20:19:59.009868 [TOF] res=0 step=0 id=0xeacc blk=0xeacc10 ctl=0x0
2026-09-03T20:19:59.015778 [RNG] init=0 step=99 id=0xeacc boot=1 calls=93 xerr=0 dm=1 tb=15
2026-09-03T20:19:59.022657 [RNG] osc=41 imp=881 imprb=881 mstart=0x40 cfg=91 cfgfail=0x0 vhv=0 vpolls=0
2026-09-03T20:19:59.028914 [PRT] calls=1074329 xerr=0 ler=1 lidx=0x0 perr=0 maxcnt=17 addr8=0x52
2026-09-03T20:19:59.033115 [RTY] wr=0 wmax=0 wref=0  rd=0 rmax=0 rref=0
2026-09-03T20:19:59.041166 [RNG] frames=268396 last=37 min=23 max=61 nrdy=318 dxfer=0 dstat=0 lst=0 nrdyerr=0 dclr=0
2026-09-03T20:19:59.047405 [DRV] init=0 id=7 mode=0x1 lib=0x2 seq=0x1 odc=0x8b sts=0xe0 armed=1
2026-09-03T20:19:59.054652 [TRG] pulses=2521 suppressed=31919 cyc=1600 rst=1 rstmode=0x40
2026-09-03T20:19:59.056776 [HLT] polls=5374 faults=0x0 cfglost=0
2026-09-03T20:19:59.062635 [EFF] n=5 last=58588 min=58472 max=58588 late=0 stuck=0 rderr=0
2026-09-03T20:19:59.066637 [DWT] ok=1 cyc=4184470415 cyc_per_ms=800093
2026-09-03T20:20:00.079805 [HB] up_ms=5670413 frames=268763 inf=268763 hazard=34440 canary_err=0 q=0 qovr=0
2026-09-03T20:20:00.091095 [I2C] init=0 gate=0 whoami=0x201e0 wr=0 wrseen=0x27 addr=0x5a ok=1087809 err=0 tmo=0 recov=0 pclk1=200000000 sysclk=400000000
2026-09-03T20:20:00.092432 [NAK] nacks=0
2026-09-03T20:20:00.097092 [CLK] cpu=800000000 sysb=400000000 pclk1=200000000
2026-09-03T20:20:00.101592 [TOF] res=0 step=0 id=0xeacc blk=0xeacc10 ctl=0x0
2026-09-03T20:20:00.107536 [RNG] init=0 step=99 id=0xeacc boot=1 calls=93 xerr=0 dm=1 tb=15
2026-09-03T20:20:00.114485 [RNG] osc=41 imp=881 imprb=881 mstart=0x40 cfg=91 cfgfail=0x0 vhv=0 vpolls=0
2026-09-03T20:20:00.120677 [PRT] calls=1074537 xerr=0 ler=1 lidx=0x0 perr=0 maxcnt=17 addr8=0x52
2026-09-03T20:20:00.124847 [RTY] wr=0 wmax=0 wref=0  rd=0 rmax=0 rref=0
2026-09-03T20:20:00.132839 [RNG] frames=268447 last=39 min=23 max=61 nrdy=318 dxfer=0 dstat=0 lst=0 nrdyerr=0 dclr=0
2026-09-03T20:20:00.139077 [DRV] init=0 id=7 mode=0x1 lib=0x2 seq=0x1 odc=0x8b sts=0xe0 armed=1
2026-09-03T20:20:00.144777 [TRG] pulses=2521 suppressed=31919 cyc=1600 rst=1 rstmode=0x40
2026-09-03T20:20:00.148213 [HLT] polls=5375 faults=0x0 cfglost=0
2026-09-03T20:20:00.153948 [EFF] n=5 last=58588 min=58472 max=58588 late=0 stuck=0 rderr=0
2026-09-03T20:20:00.157958 [DWT] ok=1 cyc=757401251 cyc_per_ms=799906
2026-09-03T20:20:01.172100 [HB] up_ms=5671498 frames=268814 inf=268814 hazard=34440 canary_err=0 q=0 qovr=0
2026-09-03T20:20:01.183355 [I2C] init=0 gate=0 whoami=0x201e0 wr=0 wrseen=0x27 addr=0x5a ok=1088015 err=0 tmo=0 recov=0 pclk1=200000000 sysclk=400000000
2026-09-03T20:20:01.184716 [NAK] nacks=0
2026-09-03T20:20:01.189341 [CLK] cpu=800000000 sysb=400000000 pclk1=200000000
2026-09-03T20:20:01.193885 [TOF] res=0 step=0 id=0xeacc blk=0xeacc10 ctl=0x0
2026-09-03T20:20:01.199745 [RNG] init=0 step=99 id=0xeacc boot=1 calls=93 xerr=0 dm=1 tb=15
2026-09-03T20:20:01.206614 [RNG] osc=41 imp=881 imprb=881 mstart=0x40 cfg=91 cfgfail=0x0 vhv=0 vpolls=0
2026-09-03T20:20:01.212859 [PRT] calls=1074741 xerr=0 ler=1 lidx=0x0 perr=0 maxcnt=17 addr8=0x52
2026-09-03T20:20:01.216972 [RTY] wr=0 wmax=0 wref=0  rd=0 rmax=0 rref=0
2026-09-03T20:20:01.225148 [RNG] frames=268498 last=37 min=23 max=61 nrdy=318 dxfer=0 dstat=0 lst=0 nrdyerr=0 dclr=0
2026-09-03T20:20:01.231347 [DRV] init=0 id=7 mode=0x1 lib=0x2 seq=0x1 odc=0x8b sts=0xe0 armed=1
2026-09-03T20:20:01.236969 [TRG] pulses=2521 suppressed=31919 cyc=1600 rst=1 rstmode=0x40
2026-09-03T20:20:01.240338 [HLT] polls=5376 faults=0x0 cfglost=0
2026-09-03T20:20:01.246242 [EFF] n=5 last=58588 min=58472 max=58588 late=0 stuck=0 rderr=0
2026-09-03T20:20:01.250214 [DWT] ok=1 cyc=1625503275 cyc_per_ms=800094
2026-09-03T20:20:02.264407 [HB] up_ms=5672583 frames=268866 inf=268866 hazard=34440 canary_err=0 q=0 qovr=0
2026-09-03T20:20:02.275531 [I2C] init=0 gate=0 whoami=0x201e0 wr=0 wrseen=0x27 addr=0x5a ok=1088225 err=0 tmo=0 recov=0 pclk1=200000000 sysclk=400000000
2026-09-03T20:20:02.276885 [NAK] nacks=0
2026-09-03T20:20:02.281679 [CLK] cpu=800000000 sysb=400000000 pclk1=200000000
2026-09-03T20:20:02.286136 [TOF] res=0 step=0 id=0xeacc blk=0xeacc10 ctl=0x0
2026-09-03T20:20:02.291901 [RNG] init=0 step=99 id=0xeacc boot=1 calls=93 xerr=0 dm=1 tb=15
2026-09-03T20:20:02.298799 [RNG] osc=41 imp=881 imprb=881 mstart=0x40 cfg=91 cfgfail=0x0 vhv=0 vpolls=0
2026-09-03T20:20:02.305265 [PRT] calls=1074945 xerr=0 ler=1 lidx=0x0 perr=0 maxcnt=17 addr8=0x52
2026-09-03T20:20:02.309260 [RTY] wr=0 wmax=0 wref=0  rd=0 rmax=0 rref=0
2026-09-03T20:20:02.317312 [RNG] frames=268550 last=38 min=23 max=61 nrdy=318 dxfer=0 dstat=0 lst=0 nrdyerr=0 dclr=0
2026-09-03T20:20:02.323518 [DRV] init=0 id=7 mode=0x1 lib=0x2 seq=0x1 odc=0x8b sts=0xe0 armed=1
2026-09-03T20:20:02.329288 [TRG] pulses=2521 suppressed=31919 cyc=1600 rst=1 rstmode=0x40
2026-09-03T20:20:02.332773 [HLT] polls=5377 faults=0x0 cfglost=0
2026-09-03T20:20:02.338504 [EFF] n=5 last=58588 min=58472 max=58588 late=0 stuck=0 rderr=0
2026-09-03T20:20:02.342375 [DWT] ok=1 cyc=2493502531 cyc_per_ms=799999
2026-09-03T20:20:03.356320 [HB] up_ms=5673668 frames=268917 inf=268917 hazard=34440 canary_err=0 q=0 qovr=0
2026-09-03T20:20:03.367693 [I2C] init=0 gate=0 whoami=0x201e0 wr=0 wrseen=0x27 addr=0x5a ok=1088431 err=0 tmo=0 recov=0 pclk1=200000000 sysclk=400000000
2026-09-03T20:20:03.368937 [NAK] nacks=0
2026-09-03T20:20:03.373586 [CLK] cpu=800000000 sysb=400000000 pclk1=200000000
2026-09-03T20:20:03.378076 [TOF] res=0 step=0 id=0xeacc blk=0xeacc10 ctl=0x0
2026-09-03T20:20:03.383930 [RNG] init=0 step=99 id=0xeacc boot=1 calls=93 xerr=0 dm=1 tb=15
2026-09-03T20:20:03.390962 [RNG] osc=41 imp=881 imprb=881 mstart=0x40 cfg=91 cfgfail=0x0 vhv=0 vpolls=0
2026-09-03T20:20:03.397203 [PRT] calls=1075153 xerr=0 ler=1 lidx=0x0 perr=0 maxcnt=17 addr8=0x52
2026-09-03T20:20:03.401170 [RTY] wr=0 wmax=0 wref=0  rd=0 rmax=0 rref=0
2026-09-03T20:20:03.409440 [RNG] frames=268601 last=42 min=23 max=61 nrdy=318 dxfer=0 dstat=0 lst=0 nrdyerr=0 dclr=0
2026-09-03T20:20:03.415586 [DRV] init=0 id=7 mode=0x1 lib=0x2 seq=0x1 odc=0x8b sts=0xe0 armed=1
2026-09-03T20:20:03.421184 [TRG] pulses=2521 suppressed=31919 cyc=1600 rst=1 rstmode=0x40
2026-09-03T20:20:03.424756 [HLT] polls=5378 faults=0x0 cfglost=0
2026-09-03T20:20:03.430613 [EFF] n=5 last=58588 min=58472 max=58588 late=0 stuck=0 rderr=0
2026-09-03T20:20:03.434447 [DWT] ok=1 cyc=3361506791 cyc_per_ms=800003
2026-09-03T20:20:04.448128 [HB] up_ms=5674753 frames=268968 inf=268968 hazard=34481 canary_err=0 q=0 qovr=0
2026-09-03T20:20:04.459310 [I2C] init=0 gate=0 whoami=0x201e0 wr=0 wrseen=0x27 addr=0x5a ok=1088639 err=0 tmo=0 recov=0 pclk1=200000000 sysclk=400000000
2026-09-03T20:20:04.460664 [NAK] nacks=0
2026-09-03T20:20:04.465240 [CLK] cpu=800000000 sysb=400000000 pclk1=200000000
2026-09-03T20:20:04.469865 [TOF] res=0 step=0 id=0xeacc blk=0xeacc10 ctl=0x0
2026-09-03T20:20:04.475730 [RNG] init=0 step=99 id=0xeacc boot=1 calls=93 xerr=0 dm=1 tb=15
2026-09-03T20:20:04.482618 [RNG] osc=41 imp=881 imprb=881 mstart=0x40 cfg=91 cfgfail=0x0 vhv=0 vpolls=0
2026-09-03T20:20:04.488858 [PRT] calls=1075355 xerr=0 ler=1 lidx=0x0 perr=0 maxcnt=17 addr8=0x52
2026-09-03T20:20:04.493005 [RTY] wr=0 wmax=0 wref=0  rd=0 rmax=0 rref=0
2026-09-03T20:20:04.500983 [RNG] frames=268652 last=45 min=23 max=61 nrdy=319 dxfer=0 dstat=0 lst=0 nrdyerr=0 dclr=0
2026-09-03T20:20:04.507265 [DRV] init=0 id=7 mode=0x1 lib=0x2 seq=0x1 odc=0x8b sts=0xe0 armed=1
2026-09-03T20:20:04.512993 [TRG] pulses=2524 suppressed=31957 cyc=1600 rst=1 rstmode=0x40
2026-09-03T20:20:04.516482 [HLT] polls=5379 faults=0x0 cfglost=0
2026-09-03T20:20:04.522233 [EFF] n=5 last=58588 min=58472 max=58588 late=0 stuck=0 rderr=0
2026-09-03T20:20:04.526130 [DWT] ok=1 cyc=4229503163 cyc_per_ms=799996
2026-09-03T20:20:05.540419 [HB] up_ms=5675838 frames=269020 inf=269020 hazard=34481 canary_err=0 q=0 qovr=0
2026-09-03T20:20:05.551791 [I2C] init=0 gate=0 whoami=0x201e0 wr=0 wrseen=0x27 addr=0x5a ok=1088845 err=0 tmo=0 recov=0 pclk1=200000000 sysclk=400000000
2026-09-03T20:20:05.553025 [NAK] nacks=0
2026-09-03T20:20:05.557677 [CLK] cpu=800000000 sysb=400000000 pclk1=200000000
2026-09-03T20:20:05.562160 [TOF] res=0 step=0 id=0xeacc blk=0xeacc10 ctl=0x0
2026-09-03T20:20:05.568070 [RNG] init=0 step=99 id=0xeacc boot=1 calls=93 xerr=0 dm=1 tb=15
2026-09-03T20:20:05.575029 [RNG] osc=41 imp=881 imprb=881 mstart=0x40 cfg=91 cfgfail=0x0 vhv=0 vpolls=0
2026-09-03T20:20:05.581288 [PRT] calls=1075563 xerr=0 ler=1 lidx=0x0 perr=0 maxcnt=17 addr8=0x52
2026-09-03T20:20:05.585306 [RTY] wr=0 wmax=0 wref=0  rd=0 rmax=0 rref=0
2026-09-03T20:20:05.593408 [RNG] frames=268703 last=47 min=23 max=61 nrdy=319 dxfer=0 dstat=0 lst=0 nrdyerr=0 dclr=0
2026-09-03T20:20:05.599705 [DRV] init=0 id=7 mode=0x1 lib=0x2 seq=0x1 odc=0x8b sts=0xe0 armed=1
2026-09-03T20:20:05.605284 [TRG] pulses=2524 suppressed=31957 cyc=1600 rst=1 rstmode=0x40
2026-09-03T20:20:05.608785 [HLT] polls=5380 faults=0x0 cfglost=0
2026-09-03T20:20:05.614593 [EFF] n=5 last=58588 min=58472 max=58588 late=0 stuck=0 rderr=0
2026-09-03T20:20:05.618524 [DWT] ok=1 cyc=802433859 cyc_per_ms=799905
2026-09-03T20:20:06.632328 [HB] up_ms=5676923 frames=269071 inf=269071 hazard=34481 canary_err=0 q=0 qovr=0
2026-09-03T20:20:06.643610 [I2C] init=0 gate=0 whoami=0x201e0 wr=0 wrseen=0x27 addr=0x5a ok=1089054 err=0 tmo=0 recov=0 pclk1=200000000 sysclk=400000000
2026-09-03T20:20:06.644954 [NAK] nacks=0
2026-09-03T20:20:06.649450 [CLK] cpu=800000000 sysb=400000000 pclk1=200000000
2026-09-03T20:20:06.654061 [TOF] res=0 step=0 id=0xeacc blk=0xeacc10 ctl=0x0
2026-09-03T20:20:06.659954 [RNG] init=0 step=99 id=0xeacc boot=1 calls=93 xerr=0 dm=1 tb=15
2026-09-03T20:20:06.666824 [RNG] osc=41 imp=881 imprb=881 mstart=0x40 cfg=91 cfgfail=0x0 vhv=0 vpolls=0
2026-09-03T20:20:06.673070 [PRT] calls=1075767 xerr=0 ler=1 lidx=0x0 perr=0 maxcnt=17 addr8=0x52
2026-09-03T20:20:06.677326 [RTY] wr=0 wmax=0 wref=0  rd=0 rmax=0 rref=0
2026-09-03T20:20:06.685321 [RNG] frames=268755 last=37 min=23 max=61 nrdy=319 dxfer=0 dstat=0 lst=0 nrdyerr=0 dclr=0
2026-09-03T20:20:06.691579 [DRV] init=0 id=7 mode=0x1 lib=0x2 seq=0x1 odc=0x8b sts=0xe0 armed=1
2026-09-03T20:20:06.697197 [TRG] pulses=2524 suppressed=31957 cyc=1600 rst=1 rstmode=0x40
2026-09-03T20:20:06.700700 [HLT] polls=5381 faults=0x0 cfglost=0
2026-09-03T20:20:06.706457 [EFF] n=5 last=58588 min=58472 max=58588 late=0 stuck=0 rderr=0
2026-09-03T20:20:06.710452 [DWT] ok=1 cyc=1670535831 cyc_per_ms=800093
2026-09-03T20:20:07.723894 [HB] up_ms=5678008 frames=269123 inf=269123 hazard=34481 canary_err=0 q=0 qovr=0
2026-09-03T20:20:07.735139 [I2C] init=0 gate=0 whoami=0x201e0 wr=0 wrseen=0x27 addr=0x5a ok=1089261 err=0 tmo=0 recov=0 pclk1=200000000 sysclk=400000000
2026-09-03T20:20:07.736484 [NAK] nacks=0
2026-09-03T20:20:07.741137 [CLK] cpu=800000000 sysb=400000000 pclk1=200000000
2026-09-03T20:20:07.745629 [TOF] res=0 step=0 id=0xeacc blk=0xeacc10 ctl=0x0
2026-09-03T20:20:07.751505 [RNG] init=0 step=99 id=0xeacc boot=1 calls=93 xerr=0 dm=1 tb=15
2026-09-03T20:20:07.758497 [RNG] osc=41 imp=881 imprb=881 mstart=0x40 cfg=91 cfgfail=0x0 vhv=0 vpolls=0
2026-09-03T20:20:07.764736 [PRT] calls=1075975 xerr=0 ler=1 lidx=0x0 perr=0 maxcnt=17 addr8=0x52
2026-09-03T20:20:07.769515 [RTY] wr=0 wmax=0 wref=0  rd=0 rmax=0 rref=0
2026-09-03T20:20:07.776891 [RNG] frames=268806 last=40 min=23 max=61 nrdy=319 dxfer=0 dstat=0 lst=0 nrdyerr=0 dclr=0
2026-09-03T20:20:07.783150 [DRV] init=0 id=7 mode=0x1 lib=0x2 seq=0x1 odc=0x8b sts=0xe0 armed=1
2026-09-03T20:20:07.788735 [TRG] pulses=2524 suppressed=31957 cyc=1600 rst=1 rstmode=0x40
2026-09-03T20:20:07.792262 [HLT] polls=5382 faults=0x0 cfglost=0
2026-09-03T20:20:07.797979 [EFF] n=5 last=58588 min=58472 max=58588 late=0 stuck=0 rderr=0
2026-09-03T20:20:07.801979 [DWT] ok=1 cyc=2538433975 cyc_per_ms=799906
2026-09-03T20:20:08.816072 [HB] up_ms=5679093 frames=269174 inf=269174 hazard=34481 canary_err=0 q=0 qovr=0
2026-09-03T20:20:08.827412 [I2C] init=0 gate=0 whoami=0x201e0 wr=0 wrseen=0x27 addr=0x5a ok=1089465 err=0 tmo=0 recov=0 pclk1=200000000 sysclk=400000000
2026-09-03T20:20:08.828777 [NAK] nacks=0
2026-09-03T20:20:08.833412 [CLK] cpu=800000000 sysb=400000000 pclk1=200000000
2026-09-03T20:20:08.837905 [TOF] res=0 step=0 id=0xeacc blk=0xeacc10 ctl=0x0
2026-09-03T20:20:08.843797 [RNG] init=0 step=99 id=0xeacc boot=1 calls=93 xerr=0 dm=1 tb=15
2026-09-03T20:20:08.850670 [RNG] osc=41 imp=881 imprb=881 mstart=0x40 cfg=91 cfgfail=0x0 vhv=0 vpolls=0
2026-09-03T20:20:08.857068 [PRT] calls=1076177 xerr=0 ler=1 lidx=0x0 perr=0 maxcnt=17 addr8=0x52
2026-09-03T20:20:08.861039 [RTY] wr=0 wmax=0 wref=0  rd=0 rmax=0 rref=0
2026-09-03T20:20:08.869177 [RNG] frames=268856 last=48 min=23 max=61 nrdy=320 dxfer=0 dstat=0 lst=0 nrdyerr=0 dclr=0
2026-09-03T20:20:08.875439 [DRV] init=0 id=7 mode=0x1 lib=0x2 seq=0x1 odc=0x8b sts=0xe0 armed=1
2026-09-03T20:20:08.881053 [TRG] pulses=2524 suppressed=31957 cyc=1600 rst=1 rstmode=0x40
2026-09-03T20:20:08.884570 [HLT] polls=5383 faults=0x0 cfglost=0
2026-09-03T20:20:08.890420 [EFF] n=5 last=58588 min=58472 max=58588 late=0 stuck=0 rderr=0
2026-09-03T20:20:08.894307 [DWT] ok=1 cyc=3406535971 cyc_per_ms=800094
2026-09-03T20:20:09.908717 [HB] up_ms=5680178 frames=269226 inf=269226 hazard=34481 canary_err=0 q=0 qovr=0
2026-09-03T20:20:09.919963 [I2C] init=0 gate=0 whoami=0x201e0 wr=0 wrseen=0x27 addr=0x5a ok=1089675 err=0 tmo=0 recov=0 pclk1=200000000 sysclk=400000000
2026-09-03T20:20:09.921328 [NAK] nacks=0
2026-09-03T20:20:09.925986 [CLK] cpu=800000000 sysb=400000000 pclk1=200000000
2026-09-03T20:20:09.930452 [TOF] res=0 step=0 id=0xeacc blk=0xeacc10 ctl=0x0
2026-09-03T20:20:09.936337 [RNG] init=0 step=99 id=0xeacc boot=1 calls=93 xerr=0 dm=1 tb=15
2026-09-03T20:20:09.943205 [RNG] osc=41 imp=881 imprb=881 mstart=0x40 cfg=91 cfgfail=0x0 vhv=0 vpolls=0
2026-09-03T20:20:09.949613 [PRT] calls=1076381 xerr=0 ler=1 lidx=0x0 perr=0 maxcnt=17 addr8=0x52
2026-09-03T20:20:09.953706 [RTY] wr=0 wmax=0 wref=0  rd=0 rmax=0 rref=0
2026-09-03T20:20:09.961732 [RNG] frames=268908 last=40 min=23 max=61 nrdy=320 dxfer=0 dstat=0 lst=0 nrdyerr=0 dclr=0
2026-09-03T20:20:09.967953 [DRV] init=0 id=7 mode=0x1 lib=0x2 seq=0x1 odc=0x8b sts=0xe0 armed=1
2026-09-03T20:20:09.973709 [TRG] pulses=2524 suppressed=31957 cyc=1600 rst=1 rstmode=0x40
2026-09-03T20:20:09.977075 [HLT] polls=5384 faults=0x0 cfglost=0
2026-09-03T20:20:09.982846 [EFF] n=5 last=58588 min=58472 max=58588 late=0 stuck=0 rderr=0
2026-09-03T20:20:09.986828 [DWT] ok=1 cyc=4274535227 cyc_per_ms=799999
2026-09-03T20:20:11.000880 [HB] up_ms=5681263 frames=269277 inf=269277 hazard=34518 canary_err=0 q=0 qovr=0
2026-09-03T20:20:11.012249 [I2C] init=0 gate=0 whoami=0x201e0 wr=0 wrseen=0x27 addr=0x5a ok=1089881 err=0 tmo=0 recov=0 pclk1=200000000 sysclk=400000000
2026-09-03T20:20:11.013494 [NAK] nacks=0
2026-09-03T20:20:11.018127 [CLK] cpu=800000000 sysb=400000000 pclk1=200000000
2026-09-03T20:20:11.022635 [TOF] res=0 step=0 id=0xeacc blk=0xeacc10 ctl=0x0
2026-09-03T20:20:11.028505 [RNG] init=0 step=99 id=0xeacc boot=1 calls=93 xerr=0 dm=1 tb=15
2026-09-03T20:20:11.035496 [RNG] osc=41 imp=881 imprb=881 mstart=0x40 cfg=91 cfgfail=0x0 vhv=0 vpolls=0
2026-09-03T20:20:11.041756 [PRT] calls=1076589 xerr=0 ler=1 lidx=0x0 perr=0 maxcnt=17 addr8=0x52
2026-09-03T20:20:11.045743 [RTY] wr=0 wmax=0 wref=0  rd=0 rmax=0 rref=0
2026-09-03T20:20:11.054013 [RNG] frames=268959 last=42 min=23 max=61 nrdy=320 dxfer=0 dstat=0 lst=0 nrdyerr=0 dclr=0
2026-09-03T20:20:11.060127 [DRV] init=0 id=7 mode=0x1 lib=0x2 seq=0x1 odc=0x8b sts=0xe0 armed=1
2026-09-03T20:20:11.065750 [TRG] pulses=2527 suppressed=31994 cyc=1600 rst=1 rstmode=0x40
2026-09-03T20:20:11.069253 [HLT] polls=5385 faults=0x0 cfglost=0
2026-09-03T20:20:11.075149 [EFF] n=5 last=58588 min=58472 max=58588 late=0 stuck=0 rderr=0
2026-09-03T20:20:11.078999 [DWT] ok=1 cyc=847572395 cyc_per_ms=800004
2026-09-03T20:20:12.092544 [HB] up_ms=5682348 frames=269328 inf=269328 hazard=34522 canary_err=0 q=0 qovr=0
2026-09-03T20:20:12.103796 [I2C] init=0 gate=0 whoami=0x201e0 wr=0 wrseen=0x27 addr=0x5a ok=1090091 err=0 tmo=0 recov=0 pclk1=200000000 sysclk=400000000
2026-09-03T20:20:12.105039 [NAK] nacks=0
2026-09-03T20:20:12.109679 [CLK] cpu=800000000 sysb=400000000 pclk1=200000000
2026-09-03T20:20:12.114290 [TOF] res=0 step=0 id=0xeacc blk=0xeacc10 ctl=0x0
2026-09-03T20:20:12.120177 [RNG] init=0 step=99 id=0xeacc boot=1 calls=93 xerr=0 dm=1 tb=15
2026-09-03T20:20:12.127050 [RNG] osc=41 imp=881 imprb=881 mstart=0x40 cfg=91 cfgfail=0x0 vhv=0 vpolls=0
2026-09-03T20:20:12.133412 [PRT] calls=1076793 xerr=0 ler=1 lidx=0x0 perr=0 maxcnt=17 addr8=0x52
2026-09-03T20:20:12.137549 [RTY] wr=0 wmax=0 wref=0  rd=0 rmax=0 rref=0
2026-09-03T20:20:12.145547 [RNG] frames=269011 last=42 min=23 max=61 nrdy=320 dxfer=0 dstat=0 lst=0 nrdyerr=0 dclr=0
2026-09-03T20:20:12.151670 [DRV] init=0 id=7 mode=0x1 lib=0x2 seq=0x1 odc=0x8b sts=0xe0 armed=1
2026-09-03T20:20:12.157411 [TRG] pulses=2527 suppressed=31995 cyc=1600 rst=1 rstmode=0x40
2026-09-03T20:20:12.160922 [HLT] polls=5386 faults=0x0 cfglost=0
2026-09-03T20:20:12.166659 [EFF] n=5 last=58588 min=58472 max=58588 late=0 stuck=0 rderr=0
2026-09-03T20:20:12.170668 [DWT] ok=1 cyc=1715568619 cyc_per_ms=799996
2026-09-03T20:20:13.184222 [HB] up_ms=5683433 frames=269380 inf=269380 hazard=34522 canary_err=0 q=0 qovr=0
2026-09-03T20:20:13.195457 [I2C] init=0 gate=0 whoami=0x201e0 wr=0 wrseen=0x27 addr=0x5a ok=1090297 err=0 tmo=0 recov=0 pclk1=200000000 sysclk=400000000
2026-09-03T20:20:13.196842 [NAK] nacks=0
2026-09-03T20:20:13.201463 [CLK] cpu=800000000 sysb=400000000 pclk1=200000000
2026-09-03T20:20:13.205955 [TOF] res=0 step=0 id=0xeacc blk=0xeacc10 ctl=0x0
2026-09-03T20:20:13.212029 [RNG] init=0 step=99 id=0xeacc boot=1 calls=93 xerr=0 dm=1 tb=15
2026-09-03T20:20:13.218722 [RNG] osc=41 imp=881 imprb=881 mstart=0x40 cfg=91 cfgfail=0x0 vhv=0 vpolls=0
2026-09-03T20:20:13.224965 [PRT] calls=1077001 xerr=0 ler=1 lidx=0x0 perr=0 maxcnt=17 addr8=0x52
2026-09-03T20:20:13.229125 [RTY] wr=0 wmax=0 wref=0  rd=0 rmax=0 rref=0
2026-09-03T20:20:13.237209 [RNG] frames=269062 last=43 min=23 max=61 nrdy=320 dxfer=0 dstat=0 lst=0 nrdyerr=0 dclr=0
2026-09-03T20:20:13.243461 [DRV] init=0 id=7 mode=0x1 lib=0x2 seq=0x1 odc=0x8b sts=0xe0 armed=1
2026-09-03T20:20:13.249084 [TRG] pulses=2527 suppressed=31995 cyc=1600 rst=1 rstmode=0x40
2026-09-03T20:20:13.252465 [HLT] polls=5387 faults=0x0 cfglost=0
2026-09-03T20:20:13.258223 [EFF] n=5 last=58588 min=58472 max=58588 late=0 stuck=0 rderr=0
2026-09-03T20:20:13.262334 [DWT] ok=1 cyc=2583466611 cyc_per_ms=799905
2026-09-03T20:20:14.275886 [HB] up_ms=5684518 frames=269431 inf=269431 hazard=34522 canary_err=0 q=0 qovr=0
2026-09-03T20:20:14.287145 [I2C] init=0 gate=0 whoami=0x201e0 wr=0 wrseen=0x27 addr=0x5a ok=1090502 err=0 tmo=0 recov=0 pclk1=200000000 sysclk=400000000
2026-09-03T20:20:14.288497 [NAK] nacks=0
2026-09-03T20:20:14.293000 [CLK] cpu=800000000 sysb=400000000 pclk1=200000000
2026-09-03T20:20:14.297655 [TOF] res=0 step=0 id=0xeacc blk=0xeacc10 ctl=0x0
2026-09-03T20:20:14.303497 [RNG] init=0 step=99 id=0xeacc boot=1 calls=93 xerr=0 dm=1 tb=15
2026-09-03T20:20:14.310396 [RNG] osc=41 imp=881 imprb=881 mstart=0x40 cfg=91 cfgfail=0x0 vhv=0 vpolls=0
2026-09-03T20:20:14.316658 [PRT] calls=1077201 xerr=0 ler=1 lidx=0x0 perr=0 maxcnt=17 addr8=0x52
2026-09-03T20:20:14.320767 [RTY] wr=0 wmax=0 wref=0  rd=0 rmax=0 rref=0
2026-09-03T20:20:14.328885 [RNG] frames=269112 last=32 min=23 max=61 nrdy=322 dxfer=0 dstat=0 lst=0 nrdyerr=0 dclr=0
2026-09-03T20:20:14.335010 [DRV] init=0 id=7 mode=0x1 lib=0x2 seq=0x1 odc=0x8b sts=0xe0 armed=1
2026-09-03T20:20:14.340665 [TRG] pulses=2527 suppressed=31995 cyc=1600 rst=1 rstmode=0x40
2026-09-03T20:20:14.344281 [HLT] polls=5388 faults=0x0 cfglost=0
2026-09-03T20:20:14.349872 [EFF] n=5 last=58588 min=58472 max=58588 late=0 stuck=0 rderr=0
2026-09-03T20:20:14.353874 [DWT] ok=1 cyc=3451568583 cyc_per_ms=800093
2026-09-03T20:20:15.367307 [HB] up_ms=5685603 frames=269483 inf=269483 hazard=34522 canary_err=0 q=0 qovr=0
2026-09-03T20:20:15.378549 [I2C] init=0 gate=0 whoami=0x201e0 wr=0 wrseen=0x27 addr=0x5a ok=1090709 err=0 tmo=0 recov=0 pclk1=200000000 sysclk=400000000
2026-09-03T20:20:15.379926 [NAK] nacks=0
2026-09-03T20:20:15.384543 [CLK] cpu=800000000 sysb=400000000 pclk1=200000000
2026-09-03T20:20:15.389047 [TOF] res=0 step=0 id=0xeacc blk=0xeacc10 ctl=0x0
2026-09-03T20:20:15.394936 [RNG] init=0 step=99 id=0xeacc boot=1 calls=93 xerr=0 dm=1 tb=15
2026-09-03T20:20:15.401947 [RNG] osc=41 imp=881 imprb=881 mstart=0x40 cfg=91 cfgfail=0x0 vhv=0 vpolls=0
2026-09-03T20:20:15.408188 [PRT] calls=1077409 xerr=0 ler=1 lidx=0x0 perr=0 maxcnt=17 addr8=0x52
2026-09-03T20:20:15.412306 [RTY] wr=0 wmax=0 wref=0  rd=0 rmax=0 rref=0
2026-09-03T20:20:15.420296 [RNG] frames=269163 last=46 min=23 max=61 nrdy=322 dxfer=0 dstat=0 lst=0 nrdyerr=0 dclr=0
2026-09-03T20:20:15.426548 [DRV] init=0 id=7 mode=0x1 lib=0x2 seq=0x1 odc=0x8b sts=0xe0 armed=1
2026-09-03T20:20:15.432169 [TRG] pulses=2527 suppressed=31995 cyc=1600 rst=1 rstmode=0x40
2026-09-03T20:20:15.435662 [HLT] polls=5389 faults=0x0 cfglost=0
2026-09-03T20:20:15.441440 [EFF] n=5 last=58588 min=58472 max=58588 late=0 stuck=0 rderr=0
2026-09-03T20:20:15.445294 [DWT] ok=1 cyc=24499363 cyc_per_ms=799906
2026-09-03T20:20:16.458709 [HB] up_ms=5686688 frames=269534 inf=269534 hazard=34522 canary_err=0 q=0 qovr=0
2026-09-03T20:20:16.470090 [I2C] init=0 gate=0 whoami=0x201e0 wr=0 wrseen=0x27 addr=0x5a ok=1090913 err=0 tmo=0 recov=0 pclk1=200000000 sysclk=400000000
2026-09-03T20:20:16.471459 [NAK] nacks=0
2026-09-03T20:20:16.475961 [CLK] cpu=800000000 sysb=400000000 pclk1=200000000
2026-09-03T20:20:16.480456 [TOF] res=0 step=0 id=0xeacc blk=0xeacc10 ctl=0x0
2026-09-03T20:20:16.486460 [RNG] init=0 step=99 id=0xeacc boot=1 calls=93 xerr=0 dm=1 tb=15
2026-09-03T20:20:16.493351 [RNG] osc=41 imp=881 imprb=881 mstart=0x40 cfg=91 cfgfail=0x0 vhv=0 vpolls=0
2026-09-03T20:20:16.499605 [PRT] calls=1077611 xerr=0 ler=1 lidx=0x0 perr=0 maxcnt=17 addr8=0x52
2026-09-03T20:20:16.503606 [RTY] wr=0 wmax=0 wref=0  rd=0 rmax=0 rref=0
2026-09-03T20:20:16.511844 [RNG] frames=269213 last=38 min=23 max=61 nrdy=323 dxfer=0 dstat=0 lst=0 nrdyerr=0 dclr=0
2026-09-03T20:20:16.517969 [DRV] init=0 id=7 mode=0x1 lib=0x2 seq=0x1 odc=0x8b sts=0xe0 armed=1
2026-09-03T20:20:16.523608 [TRG] pulses=2527 suppressed=31995 cyc=1600 rst=1 rstmode=0x40
2026-09-03T20:20:16.527097 [HLT] polls=5390 faults=0x0 cfglost=0
2026-09-03T20:20:16.532834 [EFF] n=5 last=58588 min=58472 max=58588 late=0 stuck=0 rderr=0
2026-09-03T20:20:16.536724 [DWT] ok=1 cyc=892601363 cyc_per_ms=800094
2026-09-03T20:20:17.550652 [HB] up_ms=5687773 frames=269586 inf=269586 hazard=34548 canary_err=0 q=0 qovr=0
2026-09-03T20:20:17.561883 [I2C] init=0 gate=0 whoami=0x201e0 wr=0 wrseen=0x27 addr=0x5a ok=1091123 err=0 tmo=0 recov=0 pclk1=200000000 sysclk=400000000
2026-09-03T20:20:17.563128 [NAK] nacks=0
2026-09-03T20:20:17.567871 [CLK] cpu=800000000 sysb=400000000 pclk1=200000000
2026-09-03T20:20:17.572629 [TOF] res=0 step=0 id=0xeacc blk=0xeacc10 ctl=0x0
2026-09-03T20:20:17.578255 [RNG] init=0 step=99 id=0xeacc boot=1 calls=93 xerr=0 dm=1 tb=15
2026-09-03T20:20:17.585504 [RNG] osc=41 imp=881 imprb=881 mstart=0x40 cfg=91 cfgfail=0x0 vhv=0 vpolls=0
2026-09-03T20:20:17.591506 [PRT] calls=1077815 xerr=0 ler=1 lidx=0x0 perr=0 maxcnt=17 addr8=0x52
2026-09-03T20:20:17.595654 [RTY] wr=0 wmax=0 wref=0  rd=0 rmax=0 rref=0
2026-09-03T20:20:17.603642 [RNG] frames=269265 last=45 min=23 max=61 nrdy=323 dxfer=0 dstat=0 lst=0 nrdyerr=0 dclr=0
2026-09-03T20:20:17.609772 [DRV] init=0 id=7 mode=0x1 lib=0x2 seq=0x1 odc=0x8b sts=0xe0 armed=1
2026-09-03T20:20:17.615506 [TRG] pulses=2530 suppressed=32021 cyc=1600 rst=1 rstmode=0x40
2026-09-03T20:20:17.619008 [HLT] polls=5391 faults=0x0 cfglost=0
2026-09-03T20:20:17.624782 [EFF] n=5 last=58588 min=58472 max=58588 late=0 stuck=0 rderr=0
2026-09-03T20:20:17.628758 [DWT] ok=1 cyc=1760606919 cyc_per_ms=800005
2026-09-03T20:20:18.642842 [HB] up_ms=5688858 frames=269637 inf=269637 hazard=34563 canary_err=0 q=0 qovr=0
2026-09-03T20:20:18.654173 [I2C] init=0 gate=0 whoami=0x201e0 wr=0 wrseen=0x27 addr=0x5a ok=1091329 err=0 tmo=0 recov=0 pclk1=200000000 sysclk=400000000
2026-09-03T20:20:18.655440 [NAK] nacks=0
2026-09-03T20:20:18.660056 [CLK] cpu=800000000 sysb=400000000 pclk1=200000000
2026-09-03T20:20:18.664544 [TOF] res=0 step=0 id=0xeacc blk=0xeacc10 ctl=0x0
2026-09-03T20:20:18.670431 [RNG] init=0 step=99 id=0xeacc boot=1 calls=93 xerr=0 dm=1 tb=15
2026-09-03T20:20:18.677426 [RNG] osc=41 imp=881 imprb=881 mstart=0x40 cfg=91 cfgfail=0x0 vhv=0 vpolls=0
2026-09-03T20:20:18.683675 [PRT] calls=1078023 xerr=0 ler=1 lidx=0x0 perr=0 maxcnt=17 addr8=0x52
2026-09-03T20:20:18.687667 [RTY] wr=0 wmax=0 wref=0  rd=0 rmax=0 rref=0
2026-09-03T20:20:18.695933 [RNG] frames=269316 last=37 min=23 max=61 nrdy=323 dxfer=0 dstat=0 lst=0 nrdyerr=0 dclr=0
2026-09-03T20:20:18.702039 [DRV] init=0 id=7 mode=0x1 lib=0x2 seq=0x1 odc=0x8b sts=0xe0 armed=1
2026-09-03T20:20:18.707669 [TRG] pulses=2530 suppressed=32033 cyc=1600 rst=1 rstmode=0x40
2026-09-03T20:20:18.711174 [HLT] polls=5392 faults=0x0 cfglost=0
2026-09-03T20:20:18.717045 [EFF] n=5 last=58588 min=58472 max=58588 late=0 stuck=0 rderr=0
2026-09-03T20:20:18.721042 [DWT] ok=1 cyc=2628601423 cyc_per_ms=799994
2026-09-03T20:20:19.734847 [HB] up_ms=5689943 frames=269688 inf=269688 hazard=34563 canary_err=0 q=0 qovr=0
2026-09-03T20:20:19.746088 [I2C] init=0 gate=0 whoami=0x201e0 wr=0 wrseen=0x27 addr=0x5a ok=1091539 err=0 tmo=0 recov=0 pclk1=200000000 sysclk=400000000
2026-09-03T20:20:19.747333 [NAK] nacks=0
2026-09-03T20:20:19.751961 [CLK] cpu=800000000 sysb=400000000 pclk1=200000000
2026-09-03T20:20:19.756603 [TOF] res=0 step=0 id=0xeacc blk=0xeacc10 ctl=0x0
2026-09-03T20:20:19.762473 [RNG] init=0 step=99 id=0xeacc boot=1 calls=93 xerr=0 dm=1 tb=15
2026-09-03T20:20:19.769331 [RNG] osc=41 imp=881 imprb=881 mstart=0x40 cfg=91 cfgfail=0x0 vhv=0 vpolls=0
2026-09-03T20:20:19.775737 [PRT] calls=1078227 xerr=0 ler=1 lidx=0x0 perr=0 maxcnt=17 addr8=0x52
2026-09-03T20:20:19.779842 [RTY] wr=0 wmax=0 wref=0  rd=0 rmax=0 rref=0
2026-09-03T20:20:19.787837 [RNG] frames=269368 last=40 min=23 max=61 nrdy=323 dxfer=0 dstat=0 lst=0 nrdyerr=0 dclr=0
2026-09-03T20:20:19.793976 [DRV] init=0 id=7 mode=0x1 lib=0x2 seq=0x1 odc=0x8b sts=0xe0 armed=1
2026-09-03T20:20:19.801093 [TRG] pulses=2530 suppressed=32033 cyc=1600 rst=1 rstmode=0x40
2026-09-03T20:20:19.805733 [HLT] polls=5393 faults=0x0 cfglost=0
2026-09-03T20:20:19.808969 [EFF] n=5 last=58588 min=58472 max=58588 late=0 stuck=0 rderr=0
2026-09-03T20:20:19.812981 [DWT] ok=1 cyc=3496601291 cyc_per_ms=799999
2026-09-03T20:20:20.827257 [HB] up_ms=5691028 frames=269740 inf=269740 hazard=34563 canary_err=0 q=0 qovr=0
2026-09-03T20:20:20.838506 [I2C] init=0 gate=0 whoami=0x201e0 wr=0 wrseen=0x27 addr=0x5a ok=1091745 err=0 tmo=0 recov=0 pclk1=200000000 sysclk=400000000
2026-09-03T20:20:20.839877 [NAK] nacks=0
2026-09-03T20:20:20.844506 [CLK] cpu=800000000 sysb=400000000 pclk1=200000000
2026-09-03T20:20:20.848999 [TOF] res=0 step=0 id=0xeacc blk=0xeacc10 ctl=0x0
2026-09-03T20:20:20.854747 [RNG] init=0 step=99 id=0xeacc boot=1 calls=93 xerr=0 dm=1 tb=15
2026-09-03T20:20:20.861755 [RNG] osc=41 imp=881 imprb=881 mstart=0x40 cfg=91 cfgfail=0x0 vhv=0 vpolls=0
2026-09-03T20:20:20.868130 [PRT] calls=1078435 xerr=0 ler=1 lidx=0x0 perr=0 maxcnt=17 addr8=0x52
2026-09-03T20:20:20.872123 [RTY] wr=0 wmax=0 wref=0  rd=0 rmax=0 rref=0
2026-09-03T20:20:20.880256 [RNG] frames=269419 last=43 min=23 max=61 nrdy=323 dxfer=0 dstat=0 lst=0 nrdyerr=0 dclr=0
2026-09-03T20:20:20.886505 [DRV] init=0 id=7 mode=0x1 lib=0x2 seq=0x1 odc=0x8b sts=0xe0 armed=1
2026-09-03T20:20:20.892151 [TRG] pulses=2530 suppressed=32033 cyc=1600 rst=1 rstmode=0x40
2026-09-03T20:20:20.895643 [HLT] polls=5394 faults=0x0 cfglost=0
2026-09-03T20:20:20.901375 [EFF] n=5 last=58588 min=58472 max=58588 late=0 stuck=0 rderr=0
2026-09-03T20:20:20.905260 [DWT] ok=1 cyc=69532003 cyc_per_ms=799905
2026-09-03T20:20:21.919569 [HB] up_ms=5692113 frames=269791 inf=269791 hazard=34563 canary_err=0 q=0 qovr=0
2026-09-03T20:20:21.930801 [I2C] init=0 gate=0 whoami=0x201e0 wr=0 wrseen=0x27 addr=0x5a ok=1091954 err=0 tmo=0 recov=0 pclk1=200000000 sysclk=400000000
2026-09-03T20:20:21.932107 [NAK] nacks=0
2026-09-03T20:20:21.936687 [CLK] cpu=800000000 sysb=400000000 pclk1=200000000
2026-09-03T20:20:21.941333 [TOF] res=0 step=0 id=0xeacc blk=0xeacc10 ctl=0x0
2026-09-03T20:20:21.947179 [RNG] init=0 step=99 id=0xeacc boot=1 calls=93 xerr=0 dm=1 tb=15
2026-09-03T20:20:21.954054 [RNG] osc=41 imp=881 imprb=881 mstart=0x40 cfg=91 cfgfail=0x0 vhv=0 vpolls=0
2026-09-03T20:20:21.960303 [PRT] calls=1078639 xerr=0 ler=1 lidx=0x0 perr=0 maxcnt=17 addr8=0x52
2026-09-03T20:20:21.964594 [RTY] wr=0 wmax=0 wref=0  rd=0 rmax=0 rref=0
2026-09-03T20:20:21.972540 [RNG] frames=269471 last=46 min=23 max=61 nrdy=323 dxfer=0 dstat=0 lst=0 nrdyerr=0 dclr=0
2026-09-03T20:20:21.978666 [DRV] init=0 id=7 mode=0x1 lib=0x2 seq=0x1 odc=0x8b sts=0xe0 armed=1
2026-09-03T20:20:21.984450 [TRG] pulses=2530 suppressed=32033 cyc=1600 rst=1 rstmode=0x40
2026-09-03T20:20:21.987930 [HLT] polls=5395 faults=0x0 cfglost=0
2026-09-03T20:20:21.993697 [EFF] n=5 last=58588 min=58472 max=58588 late=0 stuck=0 rderr=0
2026-09-03T20:20:21.997574 [DWT] ok=1 cyc=937634011 cyc_per_ms=800094
2026-09-03T20:20:23.011619 [HB] up_ms=5693198 frames=269843 inf=269843 hazard=34563 canary_err=0 q=0 qovr=0
2026-09-03T20:20:23.022835 [I2C] init=0 gate=0 whoami=0x201e0 wr=0 wrseen=0x27 addr=0x5a ok=1092161 err=0 tmo=0 recov=0 pclk1=200000000 sysclk=400000000
2026-09-03T20:20:23.024234 [NAK] nacks=0
2026-09-03T20:20:23.028839 [CLK] cpu=800000000 sysb=400000000 pclk1=200000000
2026-09-03T20:20:23.033320 [TOF] res=0 step=0 id=0xeacc blk=0xeacc10 ctl=0x0
2026-09-03T20:20:23.039078 [RNG] init=0 step=99 id=0xeacc boot=1 calls=93 xerr=0 dm=1 tb=15
2026-09-03T20:20:23.046091 [RNG] osc=41 imp=881 imprb=881 mstart=0x40 cfg=91 cfgfail=0x0 vhv=0 vpolls=0
2026-09-03T20:20:23.052333 [PRT] calls=1078847 xerr=0 ler=1 lidx=0x0 perr=0 maxcnt=17 addr8=0x52
2026-09-03T20:20:23.056456 [RTY] wr=0 wmax=0 wref=0  rd=0 rmax=0 rref=0
2026-09-03T20:20:23.064468 [RNG] frames=269522 last=41 min=23 max=61 nrdy=323 dxfer=0 dstat=0 lst=0 nrdyerr=0 dclr=0
2026-09-03T20:20:23.070834 [DRV] init=0 id=7 mode=0x1 lib=0x2 seq=0x1 odc=0x8b sts=0xe0 armed=1
2026-09-03T20:20:23.076457 [TRG] pulses=2530 suppressed=32033 cyc=1600 rst=1 rstmode=0x40
2026-09-03T20:20:23.079834 [HLT] polls=5396 faults=0x0 cfglost=0
2026-09-03T20:20:23.085606 [EFF] n=5 last=58588 min=58472 max=58588 late=0 stuck=0 rderr=0
2026-09-03T20:20:23.089704 [DWT] ok=1 cyc=1805532043 cyc_per_ms=799906
2026-09-03T20:20:24.103789 [HB] up_ms=5694283 frames=269894 inf=269894 hazard=34577 canary_err=0 q=0 qovr=0
2026-09-03T20:20:24.115000 [I2C] init=0 gate=0 whoami=0x201e0 wr=0 wrseen=0x27 addr=0x5a ok=1092367 err=0 tmo=0 recov=0 pclk1=200000000 sysclk=400000000
2026-09-03T20:20:24.116371 [NAK] nacks=0
2026-09-03T20:20:24.120994 [CLK] cpu=800000000 sysb=400000000 pclk1=200000000
2026-09-03T20:20:24.125499 [TOF] res=0 step=0 id=0xeacc blk=0xeacc10 ctl=0x0
2026-09-03T20:20:24.131375 [RNG] init=0 step=99 id=0xeacc boot=1 calls=93 xerr=0 dm=1 tb=15
2026-09-03T20:20:24.138254 [RNG] osc=41 imp=881 imprb=881 mstart=0x40 cfg=91 cfgfail=0x0 vhv=0 vpolls=0
2026-09-03T20:20:24.144673 [PRT] calls=1079051 xerr=0 ler=1 lidx=0x0 perr=0 maxcnt=17 addr8=0x52
2026-09-03T20:20:24.148699 [RTY] wr=0 wmax=0 wref=0  rd=0 rmax=0 rref=0
2026-09-03T20:20:24.156758 [RNG] frames=269573 last=44 min=23 max=61 nrdy=323 dxfer=0 dstat=0 lst=0 nrdyerr=0 dclr=0
2026-09-03T20:20:24.163005 [DRV] init=0 id=7 mode=0x1 lib=0x2 seq=0x1 odc=0x8b sts=0xe0 armed=1
2026-09-03T20:20:24.168620 [TRG] pulses=2532 suppressed=32048 cyc=1600 rst=1 rstmode=0x40
2026-09-03T20:20:24.172124 [HLT] polls=5397 faults=0x0 cfglost=0
2026-09-03T20:20:24.177881 [EFF] n=5 last=58588 min=58472 max=58588 late=0 stuck=0 rderr=0
2026-09-03T20:20:24.181899 [DWT] ok=1 cyc=2673640355 cyc_per_ms=800099
2026-09-03T20:20:25.196549 [HB] up_ms=5695368 frames=269946 inf=269946 hazard=34604 canary_err=0 q=0 qovr=0
2026-09-03T20:20:25.207796 [I2C] init=0 gate=0 whoami=0x201e0 wr=0 wrseen=0x27 addr=0x5a ok=1092577 err=0 tmo=0 recov=0 pclk1=200000000 sysclk=400000000
2026-09-03T20:20:25.209061 [NAK] nacks=0
2026-09-03T20:20:25.213776 [CLK] cpu=800000000 sysb=400000000 pclk1=200000000
2026-09-03T20:20:25.218275 [TOF] res=0 step=0 id=0xeacc blk=0xeacc10 ctl=0x0
2026-09-03T20:20:25.224182 [RNG] init=0 step=99 id=0xeacc boot=1 calls=93 xerr=0 dm=1 tb=15
2026-09-03T20:20:25.231048 [RNG] osc=41 imp=881 imprb=881 mstart=0x40 cfg=91 cfgfail=0x0 vhv=0 vpolls=0
2026-09-03T20:20:25.237412 [PRT] calls=1079255 xerr=0 ler=1 lidx=0x0 perr=0 maxcnt=17 addr8=0x52
2026-09-03T20:20:25.241542 [RTY] wr=0 wmax=0 wref=0  rd=0 rmax=0 rref=0
2026-09-03T20:20:25.249547 [RNG] frames=269625 last=43 min=23 max=61 nrdy=323 dxfer=0 dstat=0 lst=0 nrdyerr=0 dclr=0
2026-09-03T20:20:25.255663 [DRV] init=0 id=7 mode=0x1 lib=0x2 seq=0x1 odc=0x8b sts=0xe0 armed=1
2026-09-03T20:20:25.261541 [TRG] pulses=2533 suppressed=32071 cyc=1600 rst=1 rstmode=0x40
2026-09-03T20:20:25.264921 [HLT] polls=5398 faults=0x0 cfglost=0
2026-09-03T20:20:25.270654 [EFF] n=5 last=58588 min=58472 max=58588 late=0 stuck=0 rderr=0
2026-09-03T20:20:25.274685 [DWT] ok=1 cyc=3541633311 cyc_per_ms=799993
2026-09-03T20:20:26.289159 [HB] up_ms=5696453 frames=269997 inf=269997 hazard=34604 canary_err=0 q=0 qovr=0
2026-09-03T20:20:26.300335 [I2C] init=0 gate=0 whoami=0x201e0 wr=0 wrseen=0x27 addr=0x5a ok=1092783 err=0 tmo=0 recov=0 pclk1=200000000 sysclk=400000000
2026-09-03T20:20:26.301717 [NAK] nacks=0
2026-09-03T20:20:26.306330 [CLK] cpu=800000000 sysb=400000000 pclk1=200000000
2026-09-03T20:20:26.310824 [TOF] res=0 step=0 id=0xeacc blk=0xeacc10 ctl=0x0
2026-09-03T20:20:26.316727 [RNG] init=0 step=99 id=0xeacc boot=1 calls=93 xerr=0 dm=1 tb=15
2026-09-03T20:20:26.323617 [RNG] osc=41 imp=881 imprb=881 mstart=0x40 cfg=91 cfgfail=0x0 vhv=0 vpolls=0
2026-09-03T20:20:26.329962 [PRT] calls=1079463 xerr=0 ler=1 lidx=0x0 perr=0 maxcnt=17 addr8=0x52
2026-09-03T20:20:26.333952 [RTY] wr=0 wmax=0 wref=0  rd=0 rmax=0 rref=0
2026-09-03T20:20:26.342222 [RNG] frames=269676 last=47 min=23 max=61 nrdy=323 dxfer=0 dstat=0 lst=0 nrdyerr=0 dclr=0
2026-09-03T20:20:26.348348 [DRV] init=0 id=7 mode=0x1 lib=0x2 seq=0x1 odc=0x8b sts=0xe0 armed=1
2026-09-03T20:20:26.354081 [TRG] pulses=2533 suppressed=32071 cyc=1600 rst=1 rstmode=0x40
2026-09-03T20:20:26.357458 [HLT] polls=5400 faults=0x0 cfglost=0
2026-09-03T20:20:26.363336 [EFF] n=5 last=58588 min=58472 max=58588 late=0 stuck=0 rderr=0
2026-09-03T20:20:26.367196 [DWT] ok=1 cyc=114699451 cyc_per_ms=800030
2026-09-03T20:20:27.382005 [HB] up_ms=5697538 frames=270048 inf=270048 hazard=34604 canary_err=0 q=0 qovr=0
2026-09-03T20:20:27.393255 [I2C] init=0 gate=0 whoami=0x201e0 wr=0 wrseen=0x27 addr=0x5a ok=1092993 err=0 tmo=0 recov=0 pclk1=200000000 sysclk=400000000
2026-09-03T20:20:27.394498 [NAK] nacks=0
2026-09-03T20:20:27.399252 [CLK] cpu=800000000 sysb=400000000 pclk1=200000000
2026-09-03T20:20:27.403862 [TOF] res=0 step=0 id=0xeacc blk=0xeacc10 ctl=0x0
2026-09-03T20:20:27.409643 [RNG] init=0 step=99 id=0xeacc boot=1 calls=93 xerr=0 dm=1 tb=15
2026-09-03T20:20:27.416503 [RNG] osc=41 imp=881 imprb=881 mstart=0x40 cfg=91 cfgfail=0x0 vhv=0 vpolls=0
2026-09-03T20:20:27.422876 [PRT] calls=1079667 xerr=0 ler=1 lidx=0x0 perr=0 maxcnt=17 addr8=0x52
2026-09-03T20:20:27.427004 [RTY] wr=0 wmax=0 wref=0  rd=0 rmax=0 rref=0
2026-09-03T20:20:27.434994 [RNG] frames=269728 last=35 min=23 max=61 nrdy=323 dxfer=0 dstat=0 lst=0 nrdyerr=0 dclr=0
2026-09-03T20:20:27.441278 [DRV] init=0 id=7 mode=0x1 lib=0x2 seq=0x1 odc=0x8b sts=0xe0 armed=1
2026-09-03T20:20:27.447011 [TRG] pulses=2533 suppressed=32071 cyc=1600 rst=1 rstmode=0x40
2026-09-03T20:20:27.450493 [HLT] polls=5401 faults=0x0 cfglost=0
2026-09-03T20:20:27.456114 [EFF] n=5 last=58588 min=58472 max=58588 late=0 stuck=0 rderr=0
2026-09-03T20:20:27.460146 [DWT] ok=1 cyc=982699363 cyc_per_ms=799999
2026-09-03T20:20:28.474427 [HB] up_ms=5698623 frames=270100 inf=270100 hazard=34604 canary_err=0 q=0 qovr=0
2026-09-03T20:20:28.485793 [I2C] init=0 gate=0 whoami=0x201e0 wr=0 wrseen=0x27 addr=0x5a ok=1093201 err=0 tmo=0 recov=0 pclk1=200000000 sysclk=400000000
2026-09-03T20:20:28.487052 [NAK] nacks=0
2026-09-03T20:20:28.491648 [CLK] cpu=800000000 sysb=400000000 pclk1=200000000
2026-09-03T20:20:28.496156 [TOF] res=0 step=0 id=0xeacc blk=0xeacc10 ctl=0x0
2026-09-03T20:20:28.502023 [RNG] init=0 step=99 id=0xeacc boot=1 calls=93 xerr=0 dm=1 tb=15
2026-09-03T20:20:28.509036 [RNG] osc=41 imp=881 imprb=881 mstart=0x40 cfg=91 cfgfail=0x0 vhv=0 vpolls=0
2026-09-03T20:20:28.515282 [PRT] calls=1079875 xerr=0 ler=1 lidx=0x0 perr=0 maxcnt=17 addr8=0x52
2026-09-03T20:20:28.519278 [RTY] wr=0 wmax=0 wref=0  rd=0 rmax=0 rref=0
2026-09-03T20:20:28.527537 [RNG] frames=269779 last=39 min=23 max=61 nrdy=323 dxfer=0 dstat=0 lst=0 nrdyerr=0 dclr=0
2026-09-03T20:20:28.533691 [DRV] init=0 id=7 mode=0x1 lib=0x2 seq=0x1 odc=0x8b sts=0xe0 armed=1
2026-09-03T20:20:28.539429 [TRG] pulses=2533 suppressed=32071 cyc=1600 rst=1 rstmode=0x40
2026-09-03T20:20:28.542832 [HLT] polls=5402 faults=0x0 cfglost=0
2026-09-03T20:20:28.548531 [EFF] n=5 last=58588 min=58472 max=58588 late=0 stuck=0 rderr=0
2026-09-03T20:20:28.552651 [DWT] ok=1 cyc=1850564735 cyc_per_ms=799875
2026-09-03T20:20:29.566944 [HB] up_ms=5699708 frames=270151 inf=270151 hazard=34604 canary_err=0 q=0 qovr=0
2026-09-03T20:20:29.578079 [I2C] init=0 gate=0 whoami=0x201e0 wr=0 wrseen=0x27 addr=0x5a ok=1093410 err=0 tmo=0 recov=0 pclk1=200000000 sysclk=400000000
2026-09-03T20:20:29.579450 [NAK] nacks=0
2026-09-03T20:20:29.584065 [CLK] cpu=800000000 sysb=400000000 pclk1=200000000
2026-09-03T20:20:29.588605 [TOF] res=0 step=0 id=0xeacc blk=0xeacc10 ctl=0x0
2026-09-03T20:20:29.594463 [RNG] init=0 step=99 id=0xeacc boot=1 calls=93 xerr=0 dm=1 tb=15
2026-09-03T20:20:29.601320 [RNG] osc=41 imp=881 imprb=881 mstart=0x40 cfg=91 cfgfail=0x0 vhv=0 vpolls=0
2026-09-03T20:20:29.607599 [PRT] calls=1080079 xerr=0 ler=1 lidx=0x0 perr=0 maxcnt=17 addr8=0x52
2026-09-03T20:20:29.611822 [RTY] wr=0 wmax=0 wref=0  rd=0 rmax=0 rref=0
2026-09-03T20:20:29.619824 [RNG] frames=269831 last=48 min=23 max=61 nrdy=323 dxfer=0 dstat=0 lst=0 nrdyerr=0 dclr=0
2026-09-03T20:20:29.626082 [DRV] init=0 id=7 mode=0x1 lib=0x2 seq=0x1 odc=0x8b sts=0xe0 armed=1
2026-09-03T20:20:29.631699 [TRG] pulses=2533 suppressed=32071 cyc=1600 rst=1 rstmode=0x40
2026-09-03T20:20:29.635196 [HLT] polls=5403 faults=0x0 cfglost=0
2026-09-03T20:20:29.640965 [EFF] n=5 last=58588 min=58472 max=58588 late=0 stuck=0 rderr=0
2026-09-03T20:20:29.644949 [DWT] ok=1 cyc=2718666671 cyc_per_ms=800093
2026-09-03T20:20:30.658639 [HB] up_ms=5700793 frames=270203 inf=270203 hazard=34607 canary_err=0 q=0 qovr=0
2026-09-03T20:20:30.669867 [I2C] init=0 gate=0 whoami=0x201e0 wr=0 wrseen=0x27 addr=0x5a ok=1093617 err=0 tmo=0 recov=0 pclk1=200000000 sysclk=400000000
2026-09-03T20:20:30.671222 [NAK] nacks=0
2026-09-03T20:20:30.675864 [CLK] cpu=800000000 sysb=400000000 pclk1=200000000
2026-09-03T20:20:30.680354 [TOF] res=0 step=0 id=0xeacc blk=0xeacc10 ctl=0x0
2026-09-03T20:20:30.686117 [RNG] init=0 step=99 id=0xeacc boot=1 calls=93 xerr=0 dm=1 tb=15
2026-09-03T20:20:30.693124 [RNG] osc=41 imp=881 imprb=881 mstart=0x40 cfg=91 cfgfail=0x0 vhv=0 vpolls=0
2026-09-03T20:20:30.699482 [PRT] calls=1080287 xerr=0 ler=1 lidx=0x0 perr=0 maxcnt=17 addr8=0x52
2026-09-03T20:20:30.703478 [RTY] wr=0 wmax=0 wref=0  rd=0 rmax=0 rref=0
2026-09-03T20:20:30.711477 [RNG] frames=269882 last=50 min=23 max=61 nrdy=323 dxfer=0 dstat=0 lst=0 nrdyerr=0 dclr=0
2026-09-03T20:20:30.717853 [DRV] init=0 id=7 mode=0x1 lib=0x2 seq=0x1 odc=0x8b sts=0xe0 armed=1
2026-09-03T20:20:30.723478 [TRG] pulses=2534 suppressed=32076 cyc=1600 rst=1 rstmode=0x40
2026-09-03T20:20:30.726978 [HLT] polls=5404 faults=0x0 cfglost=0
2026-09-03T20:20:30.732620 [EFF] n=5 last=58588 min=58472 max=58588 late=0 stuck=0 rderr=0
2026-09-03T20:20:30.736727 [DWT] ok=1 cyc=3586567615 cyc_per_ms=799908
2026-09-03T20:20:31.750774 [HB] up_ms=5701878 frames=270254 inf=270254 hazard=34645 canary_err=0 q=0 qovr=0
2026-09-03T20:20:31.762041 [I2C] init=0 gate=0 whoami=0x201e0 wr=0 wrseen=0x27 addr=0x5a ok=1093823 err=0 tmo=0 recov=0 pclk1=200000000 sysclk=400000000
2026-09-03T20:20:31.763406 [NAK] nacks=0
2026-09-03T20:20:31.768061 [CLK] cpu=800000000 sysb=400000000 pclk1=200000000
2026-09-03T20:20:31.772529 [TOF] res=0 step=0 id=0xeacc blk=0xeacc10 ctl=0x0
2026-09-03T20:20:31.778398 [RNG] init=0 step=99 id=0xeacc boot=1 calls=93 xerr=0 dm=1 tb=15
2026-09-03T20:20:31.785268 [RNG] osc=41 imp=881 imprb=881 mstart=0x40 cfg=91 cfgfail=0x0 vhv=0 vpolls=0
2026-09-03T20:20:31.791580 [PRT] calls=1080491 xerr=0 ler=1 lidx=0x0 perr=0 maxcnt=17 addr8=0x52
2026-09-03T20:20:31.795653 [RTY] wr=0 wmax=0 wref=0  rd=0 rmax=0 rref=0
2026-09-03T20:20:31.803770 [RNG] frames=269933 last=52 min=23 max=61 nrdy=323 dxfer=0 dstat=0 lst=0 nrdyerr=0 dclr=0
2026-09-03T20:20:31.810026 [DRV] init=0 id=7 mode=0x1 lib=0x2 seq=0x1 odc=0x8b sts=0xe0 armed=1
2026-09-03T20:20:31.815647 [TRG] pulses=2536 suppressed=32109 cyc=1600 rst=1 rstmode=0x40
2026-09-03T20:20:31.819023 [HLT] polls=5405 faults=0x0 cfglost=0
2026-09-03T20:20:31.824958 [EFF] n=5 last=58588 min=58472 max=58588 late=0 stuck=0 rderr=0
2026-09-03T20:20:31.828773 [DWT] ok=1 cyc=159699551 cyc_per_ms=800091
2026-09-03T20:20:32.842963 [HB] up_ms=5702963 frames=270306 inf=270306 hazard=34645 canary_err=0 q=0 qovr=0
2026-09-03T20:20:32.854061 [I2C] init=0 gate=0 whoami=0x201e0 wr=0 wrseen=0x27 addr=0x5a ok=1094033 err=0 tmo=0 recov=0 pclk1=200000000 sysclk=400000000
2026-09-03T20:20:32.855445 [NAK] nacks=0
2026-09-03T20:20:32.860060 [CLK] cpu=800000000 sysb=400000000 pclk1=200000000
2026-09-03T20:20:32.864578 [TOF] res=0 step=0 id=0xeacc blk=0xeacc10 ctl=0x0
2026-09-03T20:20:32.870429 [RNG] init=0 step=99 id=0xeacc boot=1 calls=93 xerr=0 dm=1 tb=15
2026-09-03T20:20:32.877318 [RNG] osc=41 imp=881 imprb=881 mstart=0x40 cfg=91 cfgfail=0x0 vhv=0 vpolls=0
2026-09-03T20:20:32.883700 [PRT] calls=1080695 xerr=0 ler=1 lidx=0x0 perr=0 maxcnt=17 addr8=0x52
2026-09-03T20:20:32.887815 [RTY] wr=0 wmax=0 wref=0  rd=0 rmax=0 rref=0
2026-09-03T20:20:32.895810 [RNG] frames=269985 last=41 min=23 max=61 nrdy=323 dxfer=0 dstat=0 lst=0 nrdyerr=0 dclr=0
2026-09-03T20:20:32.901933 [DRV] init=0 id=7 mode=0x1 lib=0x2 seq=0x1 odc=0x8b sts=0xe0 armed=1
2026-09-03T20:20:32.907682 [TRG] pulses=2536 suppressed=32109 cyc=1600 rst=1 rstmode=0x40
2026-09-03T20:20:32.911202 [HLT] polls=5406 faults=0x0 cfglost=0
2026-09-03T20:20:32.916942 [EFF] n=5 last=58588 min=58472 max=58588 late=0 stuck=0 rderr=0
2026-09-03T20:20:32.920944 [DWT] ok=1 cyc=1027698807 cyc_per_ms=799999
2026-09-03T20:20:33.934528 [HB] up_ms=5704048 frames=270357 inf=270357 hazard=34645 canary_err=0 q=0 qovr=0
2026-09-03T20:20:33.945857 [I2C] init=0 gate=0 whoami=0x201e0 wr=0 wrseen=0x27 addr=0x5a ok=1094239 err=0 tmo=0 recov=0 pclk1=200000000 sysclk=400000000
2026-09-03T20:20:33.947221 [NAK] nacks=0
2026-09-03T20:20:33.951731 [CLK] cpu=800000000 sysb=400000000 pclk1=200000000
2026-09-03T20:20:33.956212 [TOF] res=0 step=0 id=0xeacc blk=0xeacc10 ctl=0x0
2026-09-03T20:20:33.962225 [RNG] init=0 step=99 id=0xeacc boot=1 calls=93 xerr=0 dm=1 tb=15
2026-09-03T20:20:33.969111 [RNG] osc=41 imp=881 imprb=881 mstart=0x40 cfg=91 cfgfail=0x0 vhv=0 vpolls=0
2026-09-03T20:20:33.975358 [PRT] calls=1080903 xerr=0 ler=1 lidx=0x0 perr=0 maxcnt=17 addr8=0x52
2026-09-03T20:20:33.979475 [RTY] wr=0 wmax=0 wref=0  rd=0 rmax=0 rref=0
2026-09-03T20:20:33.987626 [RNG] frames=270036 last=44 min=23 max=61 nrdy=323 dxfer=0 dstat=0 lst=0 nrdyerr=0 dclr=0
2026-09-03T20:20:33.993875 [DRV] init=0 id=7 mode=0x1 lib=0x2 seq=0x1 odc=0x8b sts=0xe0 armed=1
2026-09-03T20:20:33.999474 [TRG] pulses=2536 suppressed=32109 cyc=1600 rst=1 rstmode=0x40
2026-09-03T20:20:34.002844 [HLT] polls=5407 faults=0x0 cfglost=0
2026-09-03T20:20:34.008768 [EFF] n=5 last=58588 min=58472 max=58588 late=0 stuck=0 rderr=0
2026-09-03T20:20:34.012733 [DWT] ok=1 cyc=1895699579 cyc_per_ms=800000
2026-09-03T20:20:35.026178 [HB] up_ms=5705133 frames=270408 inf=270408 hazard=34645 canary_err=0 q=0 qovr=0
2026-09-03T20:20:35.037394 [I2C] init=0 gate=0 whoami=0x201e0 wr=0 wrseen=0x27 addr=0x5a ok=1094449 err=0 tmo=0 recov=0 pclk1=200000000 sysclk=400000000
2026-09-03T20:20:35.038654 [NAK] nacks=0
2026-09-03T20:20:35.043257 [CLK] cpu=800000000 sysb=400000000 pclk1=200000000
2026-09-03T20:20:35.047878 [TOF] res=0 step=0 id=0xeacc blk=0xeacc10 ctl=0x0
2026-09-03T20:20:35.053750 [RNG] init=0 step=99 id=0xeacc boot=1 calls=93 xerr=0 dm=1 tb=15
2026-09-03T20:20:35.060696 [RNG] osc=41 imp=881 imprb=881 mstart=0x40 cfg=91 cfgfail=0x0 vhv=0 vpolls=0
2026-09-03T20:20:35.066904 [PRT] calls=1081107 xerr=0 ler=1 lidx=0x0 perr=0 maxcnt=17 addr8=0x52
2026-09-03T20:20:35.071007 [RTY] wr=0 wmax=0 wref=0  rd=0 rmax=0 rref=0
2026-09-03T20:20:35.079021 [RNG] frames=270088 last=43 min=23 max=61 nrdy=323 dxfer=0 dstat=0 lst=0 nrdyerr=0 dclr=0
2026-09-03T20:20:35.085256 [DRV] init=0 id=7 mode=0x1 lib=0x2 seq=0x1 odc=0x8b sts=0xe0 armed=1
2026-09-03T20:20:35.091041 [TRG] pulses=2536 suppressed=32109 cyc=1600 rst=1 rstmode=0x40
2026-09-03T20:20:35.094393 [HLT] polls=5408 faults=0x0 cfglost=0
2026-09-03T20:20:35.100147 [EFF] n=5 last=58588 min=58472 max=58588 late=0 stuck=0 rderr=0
2026-09-03T20:20:35.104145 [DWT] ok=1 cyc=2763699399 cyc_per_ms=799999
2026-09-03T20:20:36.117060 [HB] up_ms=5706218 frames=270460 inf=270460 hazard=34645 canary_err=0 q=0 qovr=0
2026-09-03T20:20:36.128471 [I2C] init=0 gate=0 whoami=0x201e0 wr=0 wrseen=0x27 addr=0x5a ok=1094655 err=0 tmo=0 recov=0 pclk1=200000000 sysclk=400000000
2026-09-03T20:20:36.129673 [NAK] nacks=0
2026-09-03T20:20:36.134298 [CLK] cpu=800000000 sysb=400000000 pclk1=200000000
2026-09-03T20:20:36.138793 [TOF] res=0 step=0 id=0xeacc blk=0xeacc10 ctl=0x0
2026-09-03T20:20:36.144568 [RNG] init=0 step=99 id=0xeacc boot=1 calls=93 xerr=0 dm=1 tb=15
2026-09-03T20:20:36.151547 [RNG] osc=41 imp=881 imprb=881 mstart=0x40 cfg=91 cfgfail=0x0 vhv=0 vpolls=0
2026-09-03T20:20:36.157817 [PRT] calls=1081315 xerr=0 ler=1 lidx=0x0 perr=0 maxcnt=17 addr8=0x52
2026-09-03T20:20:36.161941 [RTY] wr=0 wmax=0 wref=0  rd=0 rmax=0 rref=0
2026-09-03T20:20:36.170057 [RNG] frames=270139 last=34 min=23 max=61 nrdy=323 dxfer=0 dstat=0 lst=0 nrdyerr=0 dclr=0
2026-09-03T20:20:36.176198 [DRV] init=0 id=7 mode=0x1 lib=0x2 seq=0x1 odc=0x8b sts=0xe0 armed=1
2026-09-03T20:20:36.181942 [TRG] pulses=2536 suppressed=32109 cyc=1600 rst=1 rstmode=0x40
2026-09-03T20:20:36.185299 [HLT] polls=5409 faults=0x0 cfglost=0
2026-09-03T20:20:36.191051 [EFF] n=5 last=58588 min=58472 max=58588 late=0 stuck=0 rderr=0
2026-09-03T20:20:36.195176 [DWT] ok=1 cyc=3631597423 cyc_per_ms=799906
2026-09-03T20:20:37.208344 [HB] up_ms=5707303 frames=270511 inf=270511 hazard=34645 canary_err=0 q=0 qovr=0
2026-09-03T20:20:37.219461 [I2C] init=0 gate=0 whoami=0x201e0 wr=0 wrseen=0x27 addr=0x5a ok=1094864 err=0 tmo=0 recov=0 pclk1=200000000 sysclk=400000000
2026-09-03T20:20:37.220835 [NAK] nacks=0
2026-09-03T20:20:37.225469 [CLK] cpu=800000000 sysb=400000000 pclk1=200000000
2026-09-03T20:20:37.229944 [TOF] res=0 step=0 id=0xeacc blk=0xeacc10 ctl=0x0
2026-09-03T20:20:37.235825 [RNG] init=0 step=99 id=0xeacc boot=1 calls=93 xerr=0 dm=1 tb=15
2026-09-03T20:20:37.242723 [RNG] osc=41 imp=881 imprb=881 mstart=0x40 cfg=91 cfgfail=0x0 vhv=0 vpolls=0
2026-09-03T20:20:37.248957 [PRT] calls=1081519 xerr=0 ler=1 lidx=0x0 perr=0 maxcnt=17 addr8=0x52
2026-09-03T20:20:37.253206 [RTY] wr=0 wmax=0 wref=0  rd=0 rmax=0 rref=0
2026-09-03T20:20:37.261214 [RNG] frames=270191 last=39 min=23 max=61 nrdy=323 dxfer=0 dstat=0 lst=0 nrdyerr=0 dclr=0
2026-09-03T20:20:37.267471 [DRV] init=0 id=7 mode=0x1 lib=0x2 seq=0x1 odc=0x8b sts=0xe0 armed=1
2026-09-03T20:20:37.273091 [TRG] pulses=2536 suppressed=32109 cyc=1600 rst=1 rstmode=0x40
2026-09-03T20:20:37.276606 [HLT] polls=5410 faults=0x0 cfglost=0
2026-09-03T20:20:37.282337 [EFF] n=5 last=58588 min=58472 max=58588 late=0 stuck=0 rderr=0
2026-09-03T20:20:37.286203 [DWT] ok=1 cyc=204732115 cyc_per_ms=800093
2026-09-03T20:20:38.299503 [HB] up_ms=5708388 frames=270563 inf=270563 hazard=34686 canary_err=0 q=0 qovr=0
2026-09-03T20:20:38.310746 [I2C] init=0 gate=0 whoami=0x201e0 wr=0 wrseen=0x27 addr=0x5a ok=1095071 err=0 tmo=0 recov=0 pclk1=200000000 sysclk=400000000
2026-09-03T20:20:38.312115 [NAK] nacks=0
2026-09-03T20:20:38.316759 [CLK] cpu=800000000 sysb=400000000 pclk1=200000000
2026-09-03T20:20:38.321241 [TOF] res=0 step=0 id=0xeacc blk=0xeacc10 ctl=0x0
2026-09-03T20:20:38.327130 [RNG] init=0 step=99 id=0xeacc boot=1 calls=93 xerr=0 dm=1 tb=15
2026-09-03T20:20:38.334185 [RNG] osc=41 imp=881 imprb=881 mstart=0x40 cfg=91 cfgfail=0x0 vhv=0 vpolls=0
2026-09-03T20:20:38.340373 [PRT] calls=1081727 xerr=0 ler=1 lidx=0x0 perr=0 maxcnt=17 addr8=0x52
2026-09-03T20:20:38.344496 [RTY] wr=0 wmax=0 wref=0  rd=0 rmax=0 rref=0
2026-09-03T20:20:38.352510 [RNG] frames=270242 last=46 min=23 max=61 nrdy=323 dxfer=0 dstat=0 lst=0 nrdyerr=0 dclr=0
2026-09-03T20:20:38.358763 [DRV] init=0 id=7 mode=0x1 lib=0x2 seq=0x1 odc=0x8b sts=0xe0 armed=1
2026-09-03T20:20:38.364385 [TRG] pulses=2539 suppressed=32147 cyc=1600 rst=1 rstmode=0x40
2026-09-03T20:20:38.367875 [HLT] polls=5411 faults=0x0 cfglost=0
2026-09-03T20:20:38.373631 [EFF] n=5 last=58588 min=58472 max=58588 late=0 stuck=0 rderr=0
2026-09-03T20:20:38.377669 [DWT] ok=1 cyc=1072630191 cyc_per_ms=799906
2026-09-03T20:20:39.391536 [HB] up_ms=5709473 frames=270614 inf=270614 hazard=34686 canary_err=0 q=0 qovr=0
2026-09-03T20:20:39.402973 [I2C] init=0 gate=0 whoami=0x201e0 wr=0 wrseen=0x27 addr=0x5a ok=1095277 err=0 tmo=0 recov=0 pclk1=200000000 sysclk=400000000
2026-09-03T20:20:39.404286 [NAK] nacks=0
2026-09-03T20:20:39.408778 [CLK] cpu=800000000 sysb=400000000 pclk1=200000000
2026-09-03T20:20:39.413312 [TOF] res=0 step=0 id=0xeacc blk=0xeacc10 ctl=0x0
2026-09-03T20:20:39.419289 [RNG] init=0 step=99 id=0xeacc boot=1 calls=93 xerr=0 dm=1 tb=15
2026-09-03T20:20:39.426156 [RNG] osc=41 imp=881 imprb=881 mstart=0x40 cfg=91 cfgfail=0x0 vhv=0 vpolls=0
2026-09-03T20:20:39.432415 [PRT] calls=1081931 xerr=0 ler=1 lidx=0x0 perr=0 maxcnt=17 addr8=0x52
2026-09-03T20:20:39.436536 [RTY] wr=0 wmax=0 wref=0  rd=0 rmax=0 rref=0
2026-09-03T20:20:39.444731 [RNG] frames=270293 last=44 min=23 max=61 nrdy=323 dxfer=0 dstat=0 lst=0 nrdyerr=0 dclr=0
2026-09-03T20:20:39.450909 [DRV] init=0 id=7 mode=0x1 lib=0x2 seq=0x1 odc=0x8b sts=0xe0 armed=1
2026-09-03T20:20:39.456533 [TRG] pulses=2539 suppressed=32147 cyc=1600 rst=1 rstmode=0x40
2026-09-03T20:20:39.459995 [HLT] polls=5412 faults=0x0 cfglost=0
2026-09-03T20:20:39.465816 [EFF] n=5 last=58588 min=58472 max=58588 late=0 stuck=0 rderr=0
2026-09-03T20:20:39.469801 [DWT] ok=1 cyc=1940732199 cyc_per_ms=800094
2026-09-03T20:20:40.483955 [HB] up_ms=5710558 frames=270666 inf=270666 hazard=34686 canary_err=0 q=0 qovr=0
2026-09-03T20:20:40.495080 [I2C] init=0 gate=0 whoami=0x201e0 wr=0 wrseen=0x27 addr=0x5a ok=1095487 err=0 tmo=0 recov=0 pclk1=200000000 sysclk=400000000
2026-09-03T20:20:40.496469 [NAK] nacks=0
2026-09-03T20:20:40.501204 [CLK] cpu=800000000 sysb=400000000 pclk1=200000000
2026-09-03T20:20:40.505727 [TOF] res=0 step=0 id=0xeacc blk=0xeacc10 ctl=0x0
2026-09-03T20:20:40.511459 [RNG] init=0 step=99 id=0xeacc boot=1 calls=93 xerr=0 dm=1 tb=15
2026-09-03T20:20:40.518326 [RNG] osc=41 imp=881 imprb=881 mstart=0x40 cfg=91 cfgfail=0x0 vhv=0 vpolls=0
2026-09-03T20:20:40.524872 [PRT] calls=1082135 xerr=0 ler=1 lidx=0x0 perr=0 maxcnt=17 addr8=0x52
2026-09-03T20:20:40.528846 [RTY] wr=0 wmax=0 wref=0  rd=0 rmax=0 rref=0
2026-09-03T20:20:40.536822 [RNG] frames=270345 last=41 min=23 max=61 nrdy=323 dxfer=0 dstat=0 lst=0 nrdyerr=0 dclr=0
2026-09-03T20:20:40.543074 [DRV] init=0 id=7 mode=0x1 lib=0x2 seq=0x1 odc=0x8b sts=0xe0 armed=1
2026-09-03T20:20:40.548848 [TRG] pulses=2539 suppressed=32147 cyc=1600 rst=1 rstmode=0x40
2026-09-03T20:20:40.552428 [HLT] polls=5413 faults=0x0 cfglost=0
2026-09-03T20:20:40.557936 [EFF] n=5 last=58588 min=58472 max=58588 late=0 stuck=0 rderr=0
2026-09-03T20:20:40.561949 [DWT] ok=1 cyc=2808731463 cyc_per_ms=799999
2026-09-03T20:20:41.576235 [HB] up_ms=5711643 frames=270717 inf=270717 hazard=34686 canary_err=0 q=0 qovr=0
2026-09-03T20:20:41.587641 [I2C] init=0 gate=0 whoami=0x201e0 wr=0 wrseen=0x27 addr=0x5a ok=1095693 err=0 tmo=0 recov=0 pclk1=200000000 sysclk=400000000
2026-09-03T20:20:41.588899 [NAK] nacks=0
2026-09-03T20:20:41.593476 [CLK] cpu=800000000 sysb=400000000 pclk1=200000000
2026-09-03T20:20:41.597973 [TOF] res=0 step=0 id=0xeacc blk=0xeacc10 ctl=0x0
2026-09-03T20:20:41.603849 [RNG] init=0 step=99 id=0xeacc boot=1 calls=93 xerr=0 dm=1 tb=15
2026-09-03T20:20:41.610870 [RNG] osc=41 imp=881 imprb=881 mstart=0x40 cfg=91 cfgfail=0x0 vhv=0 vpolls=0
2026-09-03T20:20:41.617101 [PRT] calls=1082343 xerr=0 ler=1 lidx=0x0 perr=0 maxcnt=17 addr8=0x52
2026-09-03T20:20:41.621121 [RTY] wr=0 wmax=0 wref=0  rd=0 rmax=0 rref=0
2026-09-03T20:20:41.629402 [RNG] frames=270396 last=38 min=23 max=61 nrdy=323 dxfer=0 dstat=0 lst=0 nrdyerr=0 dclr=0
2026-09-03T20:20:41.635478 [DRV] init=0 id=7 mode=0x1 lib=0x2 seq=0x1 odc=0x8b sts=0xe0 armed=1
2026-09-03T20:20:41.641106 [TRG] pulses=2539 suppressed=32147 cyc=1600 rst=1 rstmode=0x40
2026-09-03T20:20:41.644669 [HLT] polls=5414 faults=0x0 cfglost=0
2026-09-03T20:20:41.650487 [EFF] n=5 last=58588 min=58472 max=58588 late=0 stuck=0 rderr=0
2026-09-03T20:20:41.654483 [DWT] ok=1 cyc=3676732259 cyc_per_ms=800000
2026-09-03T20:20:42.668768 [HB] up_ms=5712728 frames=270768 inf=270768 hazard=34686 canary_err=0 q=0 qovr=0
2026-09-03T20:20:42.680013 [I2C] init=0 gate=0 whoami=0x201e0 wr=0 wrseen=0x27 addr=0x5a ok=1095903 err=0 tmo=0 recov=0 pclk1=200000000 sysclk=400000000
2026-09-03T20:20:42.681301 [NAK] nacks=0
2026-09-03T20:20:42.685885 [CLK] cpu=800000000 sysb=400000000 pclk1=200000000
2026-09-03T20:20:42.690508 [TOF] res=0 step=0 id=0xeacc blk=0xeacc10 ctl=0x0
2026-09-03T20:20:42.696395 [RNG] init=0 step=99 id=0xeacc boot=1 calls=93 xerr=0 dm=1 tb=15
2026-09-03T20:20:42.703282 [RNG] osc=41 imp=881 imprb=881 mstart=0x40 cfg=91 cfgfail=0x0 vhv=0 vpolls=0
2026-09-03T20:20:42.709649 [PRT] calls=1082547 xerr=0 ler=1 lidx=0x0 perr=0 maxcnt=17 addr8=0x52
2026-09-03T20:20:42.713765 [RTY] wr=0 wmax=0 wref=0  rd=0 rmax=0 rref=0
2026-09-03T20:20:42.721758 [RNG] frames=270448 last=35 min=23 max=61 nrdy=323 dxfer=0 dstat=0 lst=0 nrdyerr=0 dclr=0
2026-09-03T20:20:42.727907 [DRV] init=0 id=7 mode=0x1 lib=0x2 seq=0x1 odc=0x8b sts=0xe0 armed=1
2026-09-03T20:20:42.733699 [TRG] pulses=2539 suppressed=32147 cyc=1600 rst=1 rstmode=0x40
2026-09-03T20:20:42.737148 [HLT] polls=5415 faults=0x0 cfglost=0
2026-09-03T20:20:42.742886 [EFF] n=5 last=58588 min=58472 max=58588 late=0 stuck=0 rderr=0
2026-09-03T20:20:42.746761 [DWT] ok=1 cyc=249764783 cyc_per_ms=799999
2026-09-03T20:20:43.760710 [HB] up_ms=5713813 frames=270820 inf=270820 hazard=34686 canary_err=0 q=0 qovr=0
2026-09-03T20:20:43.771801 [I2C] init=0 gate=0 whoami=0x201e0 wr=0 wrseen=0x27 addr=0x5a ok=1096109 err=0 tmo=0 recov=0 pclk1=200000000 sysclk=400000000
2026-09-03T20:20:43.773188 [NAK] nacks=0
2026-09-03T20:20:43.777828 [CLK] cpu=800000000 sysb=400000000 pclk1=200000000
2026-09-03T20:20:43.782305 [TOF] res=0 step=0 id=0xeacc blk=0xeacc10 ctl=0x0
2026-09-03T20:20:43.788073 [RNG] init=0 step=99 id=0xeacc boot=1 calls=93 xerr=0 dm=1 tb=15
2026-09-03T20:20:43.795055 [RNG] osc=41 imp=881 imprb=881 mstart=0x40 cfg=91 cfgfail=0x0 vhv=0 vpolls=0
2026-09-03T20:20:43.801424 [PRT] calls=1082755 xerr=0 ler=1 lidx=0x0 perr=0 maxcnt=17 addr8=0x52
2026-09-03T20:20:43.805422 [RTY] wr=0 wmax=0 wref=0  rd=0 rmax=0 rref=0
2026-09-03T20:20:43.813580 [RNG] frames=270499 last=40 min=23 max=61 nrdy=323 dxfer=0 dstat=0 lst=0 nrdyerr=0 dclr=0
2026-09-03T20:20:43.819798 [DRV] init=0 id=7 mode=0x1 lib=0x2 seq=0x1 odc=0x8b sts=0xe0 armed=1
2026-09-03T20:20:43.825441 [TRG] pulses=2539 suppressed=32147 cyc=1600 rst=1 rstmode=0x40
2026-09-03T20:20:43.828800 [HLT] polls=5416 faults=0x0 cfglost=0
2026-09-03T20:20:43.834547 [EFF] n=5 last=58588 min=58472 max=58588 late=0 stuck=0 rderr=0
2026-09-03T20:20:43.838673 [DWT] ok=1 cyc=1117662783 cyc_per_ms=799905
2026-09-03T20:20:44.852214 [HB] up_ms=5714898 frames=270871 inf=270871 hazard=34717 canary_err=0 q=0 qovr=0
2026-09-03T20:20:44.863475 [I2C] init=0 gate=0 whoami=0x201e0 wr=0 wrseen=0x27 addr=0x5a ok=1096318 err=0 tmo=0 recov=0 pclk1=200000000 sysclk=400000000
2026-09-03T20:20:44.864708 [NAK] nacks=0
2026-09-03T20:20:44.869335 [CLK] cpu=800000000 sysb=400000000 pclk1=200000000
2026-09-03T20:20:44.873821 [TOF] res=0 step=0 id=0xeacc blk=0xeacc10 ctl=0x0
2026-09-03T20:20:44.879711 [RNG] init=0 step=99 id=0xeacc boot=1 calls=93 xerr=0 dm=1 tb=15
2026-09-03T20:20:44.886606 [RNG] osc=41 imp=881 imprb=881 mstart=0x40 cfg=91 cfgfail=0x0 vhv=0 vpolls=0
2026-09-03T20:20:44.892955 [PRT] calls=1082959 xerr=0 ler=1 lidx=0x0 perr=0 maxcnt=17 addr8=0x52
2026-09-03T20:20:44.897091 [RTY] wr=0 wmax=0 wref=0  rd=0 rmax=0 rref=0
2026-09-03T20:20:44.905084 [RNG] frames=270551 last=42 min=23 max=61 nrdy=323 dxfer=0 dstat=0 lst=0 nrdyerr=0 dclr=0
2026-09-03T20:20:44.911332 [DRV] init=0 id=7 mode=0x1 lib=0x2 seq=0x1 odc=0x8b sts=0xe0 armed=1
2026-09-03T20:20:44.916962 [TRG] pulses=2542 suppressed=32178 cyc=1600 rst=1 rstmode=0x40
2026-09-03T20:20:44.920486 [HLT] polls=5417 faults=0x0 cfglost=0
2026-09-03T20:20:44.926205 [EFF] n=5 last=58588 min=58472 max=58588 late=0 stuck=0 rderr=0
2026-09-03T20:20:44.930222 [DWT] ok=1 cyc=1985768519 cyc_per_ms=800097
2026-09-03T20:20:45.944002 [HB] up_ms=5715983 frames=270923 inf=270923 hazard=34727 canary_err=0 q=0 qovr=0
2026-09-03T20:20:45.955272 [I2C] init=0 gate=0 whoami=0x201e0 wr=0 wrseen=0x27 addr=0x5a ok=1096525 err=0 tmo=0 recov=0 pclk1=200000000 sysclk=400000000
2026-09-03T20:20:45.956651 [NAK] nacks=0
2026-09-03T20:20:45.961277 [CLK] cpu=800000000 sysb=400000000 pclk1=200000000
2026-09-03T20:20:45.965742 [TOF] res=0 step=0 id=0xeacc blk=0xeacc10 ctl=0x0
2026-09-03T20:20:45.971664 [RNG] init=0 step=99 id=0xeacc boot=1 calls=93 xerr=0 dm=1 tb=15
2026-09-03T20:20:45.978676 [RNG] osc=41 imp=881 imprb=881 mstart=0x40 cfg=91 cfgfail=0x0 vhv=0 vpolls=0
2026-09-03T20:20:45.984881 [PRT] calls=1083167 xerr=0 ler=1 lidx=0x0 perr=0 maxcnt=17 addr8=0x52
2026-09-03T20:20:45.988881 [RTY] wr=0 wmax=0 wref=0  rd=0 rmax=0 rref=0
2026-09-03T20:20:45.997002 [RNG] frames=270602 last=43 min=23 max=61 nrdy=323 dxfer=0 dstat=0 lst=0 nrdyerr=0 dclr=0
2026-09-03T20:20:46.003240 [DRV] init=0 id=7 mode=0x1 lib=0x2 seq=0x1 odc=0x8b sts=0xe0 armed=1
2026-09-03T20:20:46.008869 [TRG] pulses=2542 suppressed=32185 cyc=1600 rst=1 rstmode=0x40
2026-09-03T20:20:46.012394 [HLT] polls=5418 faults=0x0 cfglost=0
2026-09-03T20:20:46.018001 [EFF] n=5 last=58588 min=58472 max=58588 late=0 stuck=0 rderr=0
2026-09-03T20:20:46.022131 [DWT] ok=1 cyc=2853662871 cyc_per_ms=799902
2026-09-03T20:20:47.035663 [HB] up_ms=5717068 frames=270974 inf=270974 hazard=34727 canary_err=0 q=0 qovr=0
2026-09-03T20:20:47.047043 [I2C] init=0 gate=0 whoami=0x201e0 wr=0 wrseen=0x27 addr=0x5a ok=1096731 err=0 tmo=0 recov=0 pclk1=200000000 sysclk=400000000
2026-09-03T20:20:47.048278 [NAK] nacks=0
2026-09-03T20:20:47.052903 [CLK] cpu=800000000 sysb=400000000 pclk1=200000000
2026-09-03T20:20:47.057405 [TOF] res=0 step=0 id=0xeacc blk=0xeacc10 ctl=0x0
2026-09-03T20:20:47.063410 [RNG] init=0 step=99 id=0xeacc boot=1 calls=93 xerr=0 dm=1 tb=15
2026-09-03T20:20:47.070276 [RNG] osc=41 imp=881 imprb=881 mstart=0x40 cfg=91 cfgfail=0x0 vhv=0 vpolls=0
2026-09-03T20:20:47.076525 [PRT] calls=1083371 xerr=0 ler=1 lidx=0x0 perr=0 maxcnt=17 addr8=0x52
2026-09-03T20:20:47.080529 [RTY] wr=0 wmax=0 wref=0  rd=0 rmax=0 rref=0
2026-09-03T20:20:47.088667 [RNG] frames=270653 last=46 min=23 max=61 nrdy=323 dxfer=0 dstat=0 lst=0 nrdyerr=0 dclr=0
2026-09-03T20:20:47.094917 [DRV] init=0 id=7 mode=0x1 lib=0x2 seq=0x1 odc=0x8b sts=0xe0 armed=1
2026-09-03T20:20:47.100597 [TRG] pulses=2542 suppressed=32185 cyc=1600 rst=1 rstmode=0x40
2026-09-03T20:20:47.104021 [HLT] polls=5419 faults=0x0 cfglost=0
2026-09-03T20:20:47.109780 [EFF] n=5 last=58588 min=58472 max=58588 late=0 stuck=0 rderr=0
2026-09-03T20:20:47.113784 [DWT] ok=1 cyc=3721764903 cyc_per_ms=800094
2026-09-03T20:20:48.127445 [HB] up_ms=5718153 frames=271026 inf=271026 hazard=34727 canary_err=0 q=0 qovr=0
2026-09-03T20:20:48.138591 [I2C] init=0 gate=0 whoami=0x201e0 wr=0 wrseen=0x27 addr=0x5a ok=1096941 err=0 tmo=0 recov=0 pclk1=200000000 sysclk=400000000
2026-09-03T20:20:48.139938 [NAK] nacks=0
2026-09-03T20:20:48.144737 [CLK] cpu=800000000 sysb=400000000 pclk1=200000000
2026-09-03T20:20:48.149193 [TOF] res=0 step=0 id=0xeacc blk=0xeacc10 ctl=0x0
2026-09-03T20:20:48.154936 [RNG] init=0 step=99 id=0xeacc boot=1 calls=93 xerr=0 dm=1 tb=15
2026-09-03T20:20:48.161973 [RNG] osc=41 imp=881 imprb=881 mstart=0x40 cfg=91 cfgfail=0x0 vhv=0 vpolls=0
2026-09-03T20:20:48.168319 [PRT] calls=1083575 xerr=0 ler=1 lidx=0x0 perr=0 maxcnt=17 addr8=0x52
2026-09-03T20:20:48.172313 [RTY] wr=0 wmax=0 wref=0  rd=0 rmax=0 rref=0
2026-09-03T20:20:48.180319 [RNG] frames=270705 last=42 min=23 max=61 nrdy=323 dxfer=0 dstat=0 lst=0 nrdyerr=0 dclr=0
2026-09-03T20:20:48.186585 [DRV] init=0 id=7 mode=0x1 lib=0x2 seq=0x1 odc=0x8b sts=0xe0 armed=1
2026-09-03T20:20:48.192309 [TRG] pulses=2542 suppressed=32185 cyc=1600 rst=1 rstmode=0x40
2026-09-03T20:20:48.195946 [HLT] polls=5420 faults=0x0 cfglost=0
2026-09-03T20:20:48.201610 [EFF] n=5 last=58588 min=58472 max=58588 late=0 stuck=0 rderr=0
2026-09-03T20:20:48.205440 [DWT] ok=1 cyc=294796879 cyc_per_ms=799999
2026-09-03T20:20:49.218980 [HB] up_ms=5719238 frames=271077 inf=271077 hazard=34727 canary_err=0 q=0 qovr=0
