1788535004.061907 [HB] up_ms=18987 frames=829 inf=829 hazard=123 canary_err=0 q=0 qovr=0
1788535004.073023 [I2C] init=0 gate=0 whoami=0x140e0 wr=0 wrseen=0x27 addr=0x5a ok=7690 err=0 tmo=0 recov=1 pclk1=200000000 sysclk=400000000
1788535004.074390 [NAK] nacks=0
1788535004.078891 [CLK] cpu=800000000 sysb=400000000 pclk1=200000000
1788535004.083401 [TOF] res=0 step=0 id=0xeacc blk=0xeacc10 ctl=0x0
1788535004.089263 [RNG] init=0 step=99 id=0xeacc boot=1 calls=93 xerr=0 dm=1 tb=15
1788535004.096297 [RNG] osc=41 imp=881 imprb=881 mstart=0x40 cfg=91 cfgfail=0x0 vhv=0 vpolls=0
1788535004.102285 [PRT] calls=3437 xerr=0 ler=1 lidx=0x0 perr=0 maxcnt=17 addr8=0x52
1788535004.106399 [RTY] wr=0 wmax=0 wref=0  rd=0 rmax=0 rref=0
1788535004.114019 [RNG] frames=831 last=47 min=29 max=55 nrdy=0 dxfer=0 dstat=0 lst=0 nrdyerr=0 dclr=0
1788535004.120398 [DRV] init=0 id=7 mode=0x1 lib=0x2 seq=0x1 odc=0x8b sts=0xe0 armed=1
1788535004.125648 [TRG] pulses=11 suppressed=112 cyc=1600 rst=1 rstmode=0x40
1788535004.128898 [HLT] polls=16 faults=0x0 cfglost=0
1788535004.134651 [EFF] n=5 last=58533 min=58470 max=58534 late=0 stuck=0 rderr=0
1788535004.145023 [IMU] init=0 addr=0x68 who=0x68 rst=1 pmrb0=0x40 pmrb=0x1 sr=19 cfg=4 gcfg=0x0 acfg=0x8 icfg=0x30 ien=0x1 armed=1
1788535004.150027 [ACC] reads=833 stale=832 rderr=0 ax=75 ay=-124 az=1118
1788535004.152666 [PWR] pm=0x1 drift=0 rderr=0
1788535004.156647 [DWT] ok=1 cyc=2229664330 cyc_per_ms=800060
1788535005.171204 [HB] up_ms=20088 frames=879 inf=879 hazard=123 canary_err=0 q=0 qovr=0
1788535005.182205 [I2C] init=0 gate=0 whoami=0x140e0 wr=0 wrseen=0x27 addr=0x5a ok=7992 err=0 tmo=0 recov=1 pclk1=200000000 sysclk=400000000
1788535005.183572 [NAK] nacks=0
1788535005.188318 [CLK] cpu=800000000 sysb=400000000 pclk1=200000000
1788535005.192826 [TOF] res=0 step=0 id=0xeacc blk=0xeacc10 ctl=0x0
1788535005.198573 [RNG] init=0 step=99 id=0xeacc boot=1 calls=93 xerr=0 dm=1 tb=15
1788535005.205576 [RNG] osc=41 imp=881 imprb=881 mstart=0x40 cfg=91 cfgfail=0x0 vhv=0 vpolls=0
1788535005.211759 [PRT] calls=3633 xerr=0 ler=1 lidx=0x0 perr=0 maxcnt=17 addr8=0x52
1788535005.215815 [RTY] wr=0 wmax=0 wref=0  rd=0 rmax=0 rref=0
1788535005.225485 [RNG] frames=881 last=42 min=29 max=55 nrdy=0 dxfer=0 dstat=0 lst=0 nrdyerr=0 dclr=0
1788535005.229655 [DRV] init=0 id=7 mode=0x1 lib=0x2 seq=0x1 odc=0x8b sts=0xe0 armed=1
1788535005.235079 [TRG] pulses=11 suppressed=112 cyc=1600 rst=1 rstmode=0x40
1788535005.238304 [HLT] polls=17 faults=0x0 cfglost=0
1788535005.244057 [EFF] n=5 last=58533 min=58470 max=58534 late=0 stuck=0 rderr=0
1788535005.254317 [IMU] init=0 addr=0x68 who=0x68 rst=1 pmrb0=0x40 pmrb=0x1 sr=19 cfg=4 gcfg=0x0 acfg=0x8 icfg=0x30 ien=0x1 armed=1
1788535005.259440 [ACC] reads=883 stale=882 rderr=0 ax=72 ay=-123 az=1117
1788535005.262066 [PWR] pm=0x1 drift=0 rderr=0
1788535005.266065 [DWT] ok=1 cyc=3110464238 cyc_per_ms=799999
1788535006.281016 [HB] up_ms=21189 frames=929 inf=929 hazard=123 canary_err=0 q=0 qovr=0
1788535006.291804 [I2C] init=0 gate=0 whoami=0x140e0 wr=0 wrseen=0x27 addr=0x5a ok=8294 err=0 tmo=0 recov=1 pclk1=200000000 sysclk=400000000
1788535006.293019 [NAK] nacks=0
1788535006.297934 [CLK] cpu=800000000 sysb=400000000 pclk1=200000000
1788535006.302258 [TOF] res=0 step=0 id=0xeacc blk=0xeacc10 ctl=0x0
1788535006.308148 [RNG] init=0 step=99 id=0xeacc boot=1 calls=93 xerr=0 dm=1 tb=15
1788535006.315174 [RNG] osc=41 imp=881 imprb=881 mstart=0x40 cfg=91 cfgfail=0x0 vhv=0 vpolls=0
1788535006.321154 [PRT] calls=3833 xerr=0 ler=1 lidx=0x0 perr=0 maxcnt=17 addr8=0x52
1788535006.328356 [RTY] wr=0 wmax=0 wref=0  rd=0 rmax=0 rref=0
1788535006.332881 [RNG] frames=931 last=51 min=29 max=55 nrdy=0 dxfer=0 dstat=0 lst=0 nrdyerr=0 dclr=0
1788535006.339004 [DRV] init=0 id=7 mode=0x1 lib=0x2 seq=0x1 odc=0x8b sts=0xe0 armed=1
1788535006.344512 [TRG] pulses=11 suppressed=112 cyc=1600 rst=1 rstmode=0x40
1788535006.347758 [HLT] polls=18 faults=0x0 cfglost=0
1788535006.353518 [EFF] n=5 last=58533 min=58470 max=58534 late=0 stuck=0 rderr=0
1788535006.363633 [IMU] init=0 addr=0x68 who=0x68 rst=1 pmrb0=0x40 pmrb=0x1 sr=19 cfg=4 gcfg=0x0 acfg=0x8 icfg=0x30 ien=0x1 armed=1
1788535006.368892 [ACC] reads=932 stale=931 rderr=0 ax=72 ay=-123 az=1114
1788535006.371501 [PWR] pm=0x1 drift=0 rderr=0
1788535006.375528 [DWT] ok=1 cyc=3991292594 cyc_per_ms=800025
1788535007.390215 [HB] up_ms=22290 frames=978 inf=978 hazard=123 canary_err=0 q=0 qovr=0
1788535007.401066 [I2C] init=0 gate=0 whoami=0x140e0 wr=0 wrseen=0x27 addr=0x5a ok=8596 err=0 tmo=0 recov=1 pclk1=200000000 sysclk=400000000
1788535007.402439 [NAK] nacks=0
1788535007.407072 [CLK] cpu=800000000 sysb=400000000 pclk1=200000000
1788535007.411691 [TOF] res=0 step=0 id=0xeacc blk=0xeacc10 ctl=0x0
1788535007.417557 [RNG] init=0 step=99 id=0xeacc boot=1 calls=93 xerr=0 dm=1 tb=15
1788535007.424445 [RNG] osc=41 imp=881 imprb=881 mstart=0x40 cfg=91 cfgfail=0x0 vhv=0 vpolls=0
1788535007.430455 [PRT] calls=4033 xerr=0 ler=1 lidx=0x0 perr=0 maxcnt=17 addr8=0x52
1788535007.434677 [RTY] wr=0 wmax=0 wref=0  rd=0 rmax=0 rref=0
1788535007.442319 [RNG] frames=981 last=42 min=29 max=55 nrdy=0 dxfer=0 dstat=0 lst=0 nrdyerr=0 dclr=0
1788535007.448442 [DRV] init=0 id=7 mode=0x1 lib=0x2 seq=0x1 odc=0x8b sts=0xe0 armed=1
1788535007.453812 [TRG] pulses=11 suppressed=112 cyc=1600 rst=1 rstmode=0x40
1788535007.457220 [HLT] polls=19 faults=0x0 cfglost=0
1788535007.462949 [EFF] n=5 last=58533 min=58470 max=58534 late=0 stuck=0 rderr=0
1788535007.473073 [IMU] init=0 addr=0x68 who=0x68 rst=1 pmrb0=0x40 pmrb=0x1 sr=19 cfg=4 gcfg=0x0 acfg=0x8 icfg=0x30 ien=0x1 armed=1
1788535007.478204 [ACC] reads=982 stale=981 rderr=0 ax=72 ay=-123 az=1117
1788535007.480940 [PWR] pm=0x1 drift=0 rderr=0
1788535007.484816 [DWT] ok=1 cyc=577231090 cyc_per_ms=800096
1788535008.499504 [HB] up_ms=23391 frames=1028 inf=1028 hazard=123 canary_err=0 q=0 qovr=0
1788535008.510616 [I2C] init=0 gate=0 whoami=0x140e0 wr=0 wrseen=0x27 addr=0x5a ok=8893 err=0 tmo=0 recov=1 pclk1=200000000 sysclk=400000000
1788535008.511878 [NAK] nacks=0
1788535008.516503 [CLK] cpu=800000000 sysb=400000000 pclk1=200000000
1788535008.521003 [TOF] res=0 step=0 id=0xeacc blk=0xeacc10 ctl=0x0
1788535008.526998 [RNG] init=0 step=99 id=0xeacc boot=1 calls=93 xerr=0 dm=1 tb=15
1788535008.533872 [RNG] osc=41 imp=881 imprb=881 mstart=0x40 cfg=91 cfgfail=0x0 vhv=0 vpolls=0
1788535008.539883 [PRT] calls=4233 xerr=0 ler=1 lidx=0x0 perr=0 maxcnt=17 addr8=0x52
1788535008.543996 [RTY] wr=0 wmax=0 wref=0  rd=0 rmax=0 rref=0
1788535008.551872 [RNG] frames=1030 last=48 min=29 max=55 nrdy=0 dxfer=0 dstat=0 lst=0 nrdyerr=0 dclr=0
1788535008.557985 [DRV] init=0 id=7 mode=0x1 lib=0x2 seq=0x1 odc=0x8b sts=0xe0 armed=1
1788535008.563353 [TRG] pulses=11 suppressed=112 cyc=1600 rst=1 rstmode=0x40
1788535008.566603 [HLT] polls=20 faults=0x0 cfglost=0
1788535008.572506 [EFF] n=5 last=58533 min=58470 max=58534 late=0 stuck=0 rderr=0
1788535008.582740 [IMU] init=0 addr=0x68 who=0x68 rst=1 pmrb0=0x40 pmrb=0x1 sr=19 cfg=4 gcfg=0x0 acfg=0x8 icfg=0x30 ien=0x1 armed=1
1788535008.587850 [ACC] reads=1032 stale=1031 rderr=0 ax=73 ay=-124 az=1112
1788535008.590491 [PWR] pm=0x1 drift=0 rderr=0
1788535008.594738 [DWT] ok=1 cyc=1458246930 cyc_per_ms=800196
1788535009.608685 [HB] up_ms=24492 frames=1078 inf=1078 hazard=123 canary_err=0 q=0 qovr=0
1788535009.619815 [I2C] init=0 gate=0 whoami=0x140e0 wr=0 wrseen=0x27 addr=0x5a ok=9194 err=0 tmo=0 recov=1 pclk1=200000000 sysclk=400000000
1788535009.621053 [NAK] nacks=0
1788535009.625677 [CLK] cpu=800000000 sysb=400000000 pclk1=200000000
1788535009.630191 [TOF] res=0 step=0 id=0xeacc blk=0xeacc10 ctl=0x0
1788535009.636079 [RNG] init=0 step=99 id=0xeacc boot=1 calls=93 xerr=0 dm=1 tb=15
1788535009.643061 [RNG] osc=41 imp=881 imprb=881 mstart=0x40 cfg=91 cfgfail=0x0 vhv=0 vpolls=0
1788535009.649062 [PRT] calls=4433 xerr=0 ler=1 lidx=0x0 perr=0 maxcnt=17 addr8=0x52
1788535009.653217 [RTY] wr=0 wmax=0 wref=0  rd=0 rmax=0 rref=0
1788535009.661059 [RNG] frames=1080 last=38 min=29 max=55 nrdy=0 dxfer=0 dstat=0 lst=0 nrdyerr=0 dclr=0
1788535009.667205 [DRV] init=0 id=7 mode=0x1 lib=0x2 seq=0x1 odc=0x8b sts=0xe0 armed=1
1788535009.672568 [TRG] pulses=12 suppressed=112 cyc=1600 rst=1 rstmode=0x40
1788535009.675811 [HLT] polls=21 faults=0x0 cfglost=0
1788535009.681549 [EFF] n=5 last=58533 min=58470 max=58534 late=0 stuck=0 rderr=0
1788535009.691930 [IMU] init=0 addr=0x68 who=0x68 rst=1 pmrb0=0x40 pmrb=0x1 sr=19 cfg=4 gcfg=0x0 acfg=0x8 icfg=0x30 ien=0x1 armed=1
1788535009.697063 [ACC] reads=1082 stale=1081 rderr=0 ax=75 ay=-124 az=1109
1788535009.699682 [PWR] pm=0x1 drift=0 rderr=0
1788535009.703695 [DWT] ok=1 cyc=2339051166 cyc_per_ms=800003
1788535010.717997 [HB] up_ms=25593 frames=1128 inf=1128 hazard=164 canary_err=0 q=0 qovr=0
1788535010.729184 [I2C] init=0 gate=0 whoami=0x140e0 wr=0 wrseen=0x27 addr=0x5a ok=9496 err=0 tmo=0 recov=1 pclk1=200000000 sysclk=400000000
1788535010.730359 [NAK] nacks=0
1788535010.734979 [CLK] cpu=800000000 sysb=400000000 pclk1=200000000
1788535010.739487 [TOF] res=0 step=0 id=0xeacc blk=0xeacc10 ctl=0x0
1788535010.745413 [RNG] init=0 step=99 id=0xeacc boot=1 calls=93 xerr=0 dm=1 tb=15
1788535010.752364 [RNG] osc=41 imp=881 imprb=881 mstart=0x40 cfg=91 cfgfail=0x0 vhv=0 vpolls=0
1788535010.758395 [PRT] calls=4633 xerr=0 ler=1 lidx=0x0 perr=0 maxcnt=17 addr8=0x52
1788535010.762489 [RTY] wr=0 wmax=0 wref=0  rd=0 rmax=0 rref=0
1788535010.770134 [RNG] frames=1130 last=36 min=29 max=55 nrdy=0 dxfer=0 dstat=0 lst=0 nrdyerr=0 dclr=0
1788535010.776492 [DRV] init=0 id=7 mode=0x1 lib=0x2 seq=0x1 odc=0x8b sts=0xe0 armed=1
1788535010.781744 [TRG] pulses=14 suppressed=150 cyc=1600 rst=1 rstmode=0x40
1788535010.784983 [HLT] polls=22 faults=0x0 cfglost=0
1788535010.790734 [EFF] n=5 last=58533 min=58470 max=58534 late=0 stuck=0 rderr=0
1788535010.801131 [IMU] init=0 addr=0x68 who=0x68 rst=1 pmrb0=0x40 pmrb=0x1 sr=19 cfg=4 gcfg=0x0 acfg=0x8 icfg=0x30 ien=0x1 armed=1
1788535010.806368 [ACC] reads=1132 stale=1131 rderr=0 ax=74 ay=-124 az=1115
1788535010.808992 [PWR] pm=0x1 drift=0 rderr=0
1788535010.812988 [DWT] ok=1 cyc=3219847010 cyc_per_ms=799996
1788535011.826916 [HB] up_ms=26694 frames=1178 inf=1178 hazard=164 canary_err=0 q=0 qovr=0
1788535011.838073 [I2C] init=0 gate=0 whoami=0x140e0 wr=0 wrseen=0x27 addr=0x5a ok=9798 err=0 tmo=0 recov=1 pclk1=200000000 sysclk=400000000
1788535011.839436 [NAK] nacks=0
1788535011.844253 [CLK] cpu=800000000 sysb=400000000 pclk1=200000000
1788535011.848542 [TOF] res=0 step=0 id=0xeacc blk=0xeacc10 ctl=0x0
1788535011.854275 [RNG] init=0 step=99 id=0xeacc boot=1 calls=93 xerr=0 dm=1 tb=15
1788535011.861291 [RNG] osc=41 imp=881 imprb=881 mstart=0x40 cfg=91 cfgfail=0x0 vhv=0 vpolls=0
1788535011.867490 [PRT] calls=4832 xerr=0 ler=1 lidx=0x0 perr=0 maxcnt=17 addr8=0x52
1788535011.871414 [RTY] wr=0 wmax=0 wref=0  rd=0 rmax=0 rref=0
1788535011.879190 [RNG] frames=1180 last=40 min=29 max=55 nrdy=0 dxfer=0 dstat=0 lst=0 nrdyerr=0 dclr=0
1788535011.885537 [DRV] init=0 id=7 mode=0x1 lib=0x2 seq=0x1 odc=0x8b sts=0xe0 armed=1
1788535011.890785 [TRG] pulses=14 suppressed=150 cyc=1600 rst=1 rstmode=0x40
1788535011.894038 [HLT] polls=23 faults=0x0 cfglost=0
1788535011.899798 [EFF] n=5 last=58533 min=58470 max=58534 late=0 stuck=0 rderr=0
1788535011.910165 [IMU] init=0 addr=0x68 who=0x68 rst=1 pmrb0=0x40 pmrb=0x1 sr=19 cfg=4 gcfg=0x0 acfg=0x8 icfg=0x30 ien=0x1 armed=1
1788535011.915317 [ACC] reads=1182 stale=1181 rderr=0 ax=71 ay=-123 az=1113
1788535011.918126 [PWR] pm=0x1 drift=0 rderr=0
1788535011.921923 [DWT] ok=1 cyc=4100647074 cyc_per_ms=800000
1788535012.936192 [HB] up_ms=27795 frames=1228 inf=1228 hazard=164 canary_err=0 q=0 qovr=0
1788535012.947359 [I2C] init=0 gate=0 whoami=0x140e0 wr=0 wrseen=0x27 addr=0x5a ok=10100 err=0 tmo=0 recov=1 pclk1=200000000 sysclk=400000000
1788535012.948655 [NAK] nacks=0
1788535012.953350 [CLK] cpu=800000000 sysb=400000000 pclk1=200000000
1788535012.957877 [TOF] res=0 step=0 id=0xeacc blk=0xeacc10 ctl=0x0
1788535012.963717 [RNG] init=0 step=99 id=0xeacc boot=1 calls=93 xerr=0 dm=1 tb=15
1788535012.970614 [RNG] osc=41 imp=881 imprb=881 mstart=0x40 cfg=91 cfgfail=0x0 vhv=0 vpolls=0
1788535012.976725 [PRT] calls=5029 xerr=0 ler=1 lidx=0x0 perr=0 maxcnt=17 addr8=0x52
1788535012.980851 [RTY] wr=0 wmax=0 wref=0  rd=0 rmax=0 rref=0
1788535012.988524 [RNG] frames=1230 last=42 min=29 max=55 nrdy=0 dxfer=0 dstat=0 lst=0 nrdyerr=0 dclr=0
1788535012.994983 [DRV] init=0 id=7 mode=0x1 lib=0x2 seq=0x1 odc=0x8b sts=0xe0 armed=1
1788535013.000224 [TRG] pulses=14 suppressed=150 cyc=1600 rst=1 rstmode=0x40
1788535013.003481 [HLT] polls=24 faults=0x0 cfglost=0
1788535013.009224 [EFF] n=5 last=58533 min=58470 max=58534 late=0 stuck=0 rderr=0
1788535013.019475 [IMU] init=0 addr=0x68 who=0x68 rst=1 pmrb0=0x40 pmrb=0x1 sr=19 cfg=4 gcfg=0x0 acfg=0x8 icfg=0x30 ien=0x1 armed=1
1788535013.024718 [ACC] reads=1232 stale=1231 rderr=0 ax=73 ay=-121 az=1116
1788535013.027372 [PWR] pm=0x1 drift=0 rderr=0
1788535013.031365 [DWT] ok=1 cyc=686549790 cyc_per_ms=800063
1788535014.045541 [HB] up_ms=28896 frames=1277 inf=1277 hazard=164 canary_err=0 q=0 qovr=0
1788535014.056596 [I2C] init=0 gate=0 whoami=0x140e0 wr=0 wrseen=0x27 addr=0x5a ok=10402 err=0 tmo=0 recov=1 pclk1=200000000 sysclk=400000000
1788535014.057930 [NAK] nacks=0
1788535014.062519 [CLK] cpu=800000000 sysb=400000000 pclk1=200000000
1788535014.067161 [TOF] res=0 step=0 id=0xeacc blk=0xeacc10 ctl=0x0
1788535014.072906 [RNG] init=0 step=99 id=0xeacc boot=1 calls=93 xerr=0 dm=1 tb=15
1788535014.079783 [RNG] osc=41 imp=881 imprb=881 mstart=0x40 cfg=91 cfgfail=0x0 vhv=0 vpolls=0
1788535014.085907 [PRT] calls=5229 xerr=0 ler=1 lidx=0x0 perr=0 maxcnt=17 addr8=0x52
1788535014.090016 [RTY] wr=0 wmax=0 wref=0  rd=0 rmax=0 rref=0
1788535014.097791 [RNG] frames=1280 last=44 min=29 max=55 nrdy=0 dxfer=0 dstat=0 lst=0 nrdyerr=0 dclr=0
1788535014.103907 [DRV] init=0 id=7 mode=0x1 lib=0x2 seq=0x1 odc=0x8b sts=0xe0 armed=1
1788535014.109294 [TRG] pulses=14 suppressed=150 cyc=1600 rst=1 rstmode=0x40
1788535014.112688 [HLT] polls=25 faults=0x0 cfglost=0
1788535014.118409 [EFF] n=5 last=58533 min=58470 max=58534 late=0 stuck=0 rderr=0
1788535014.128546 [IMU] init=0 addr=0x68 who=0x68 rst=1 pmrb0=0x40 pmrb=0x1 sr=19 cfg=4 gcfg=0x0 acfg=0x8 icfg=0x30 ien=0x1 armed=1
1788535014.134046 [ACC] reads=1281 stale=1280 rderr=0 ax=72 ay=-123 az=1116
1788535014.136658 [PWR] pm=0x1 drift=0 rderr=0
1788535014.140647 [DWT] ok=1 cyc=1567483704 cyc_per_ms=800121
1788535015.155607 [HB] up_ms=29998 frames=1327 inf=1327 hazard=164 canary_err=0 q=0 qovr=0
1788535015.166842 [I2C] init=0 gate=0 whoami=0x140e0 wr=0 wrseen=0x27 addr=0x5a ok=10698 err=0 tmo=0 recov=2 pclk1=200000000 sysclk=400000000
1788535015.168241 [NAK] nacks=0
1788535015.172884 [CLK] cpu=800000000 sysb=400000000 pclk1=200000000
1788535015.177412 [TOF] res=0 step=0 id=0xeacc blk=0xeacc10 ctl=0x0
1788535015.183228 [RNG] init=0 step=99 id=0xeacc boot=1 calls=93 xerr=0 dm=1 tb=15
1788535015.190206 [RNG] osc=41 imp=881 imprb=881 mstart=0x40 cfg=91 cfgfail=0x0 vhv=0 vpolls=0
1788535015.196281 [PRT] calls=5429 xerr=0 ler=1 lidx=0x0 perr=0 maxcnt=17 addr8=0x52
1788535015.200209 [RTY] wr=0 wmax=0 wref=0  rd=0 rmax=0 rref=0
1788535015.208094 [RNG] frames=1329 last=50 min=29 max=55 nrdy=0 dxfer=0 dstat=0 lst=0 nrdyerr=0 dclr=0
1788535015.214334 [DRV] init=0 id=7 mode=0x1 lib=0x2 seq=0x1 odc=0x8b sts=0xe0 armed=1
1788535015.219583 [TRG] pulses=14 suppressed=150 cyc=1600 rst=1 rstmode=0x40
1788535015.222961 [HLT] polls=26 faults=0x0 cfglost=0
1788535015.228735 [EFF] n=5 last=58533 min=58470 max=58534 late=0 stuck=0 rderr=0
1788535015.238972 [IMU] init=0 addr=0x68 who=0x68 rst=1 pmrb0=0x40 pmrb=0x1 sr=19 cfg=4 gcfg=0x0 acfg=0x8 icfg=0x30 ien=0x1 armed=1
1788535015.244215 [ACC] reads=1331 stale=1330 rderr=0 ax=75 ay=-122 az=1116
1788535015.246833 [PWR] pm=0x1 drift=0 rderr=0
1788535015.250837 [DWT] ok=1 cyc=2448949790 cyc_per_ms=799878
1788535016.265659 [HB] up_ms=31099 frames=1377 inf=1377 hazard=164 canary_err=0 q=0 qovr=0
1788535016.276772 [I2C] init=0 gate=0 whoami=0x140e0 wr=0 wrseen=0x27 addr=0x5a ok=11000 err=0 tmo=0 recov=2 pclk1=200000000 sysclk=400000000
1788535016.278161 [NAK] nacks=0
1788535016.282769 [CLK] cpu=800000000 sysb=400000000 pclk1=200000000
1788535016.287262 [TOF] res=0 step=0 id=0xeacc blk=0xeacc10 ctl=0x0
1788535016.293202 [RNG] init=0 step=99 id=0xeacc boot=1 calls=93 xerr=0 dm=1 tb=15
1788535016.300153 [RNG] osc=41 imp=881 imprb=881 mstart=0x40 cfg=91 cfgfail=0x0 vhv=0 vpolls=0
1788535016.306161 [PRT] calls=5629 xerr=0 ler=1 lidx=0x0 perr=0 maxcnt=17 addr8=0x52
1788535016.310274 [RTY] wr=0 wmax=0 wref=0  rd=0 rmax=0 rref=0
1788535016.318021 [RNG] frames=1379 last=46 min=29 max=55 nrdy=0 dxfer=0 dstat=0 lst=0 nrdyerr=0 dclr=0
1788535016.324260 [DRV] init=0 id=7 mode=0x1 lib=0x2 seq=0x1 odc=0x8b sts=0xe0 armed=1
1788535016.329644 [TRG] pulses=14 suppressed=150 cyc=1600 rst=1 rstmode=0x40
1788535016.332903 [HLT] polls=27 faults=0x0 cfglost=0
1788535016.338642 [EFF] n=5 last=58533 min=58470 max=58534 late=0 stuck=0 rderr=0
1788535016.348897 [IMU] init=0 addr=0x68 who=0x68 rst=1 pmrb0=0x40 pmrb=0x1 sr=19 cfg=4 gcfg=0x0 acfg=0x8 icfg=0x30 ien=0x1 armed=1
1788535016.354177 [ACC] reads=1381 stale=1379 rderr=0 ax=73 ay=-125 az=1118
1788535016.356773 [PWR] pm=0x1 drift=0 rderr=0
1788535016.360776 [DWT] ok=1 cyc=3329750014 cyc_per_ms=800000
1788535017.375831 [HB] up_ms=32200 frames=1427 inf=1427 hazard=191 canary_err=0 q=0 qovr=0
1788535017.386946 [I2C] init=0 gate=0 whoami=0x140e0 wr=0 wrseen=0x27 addr=0x5a ok=11302 err=0 tmo=0 recov=2 pclk1=200000000 sysclk=400000000
1788535017.388339 [NAK] nacks=0
1788535017.392945 [CLK] cpu=800000000 sysb=400000000 pclk1=200000000
1788535017.397447 [TOF] res=0 step=0 id=0xeacc blk=0xeacc10 ctl=0x0
1788535017.403210 [RNG] init=0 step=99 id=0xeacc boot=1 calls=93 xerr=0 dm=1 tb=15
1788535017.410333 [RNG] osc=41 imp=881 imprb=881 mstart=0x40 cfg=91 cfgfail=0x0 vhv=0 vpolls=0
1788535017.416327 [PRT] calls=5829 xerr=0 ler=1 lidx=0x0 perr=0 maxcnt=17 addr8=0x52
1788535017.420453 [RTY] wr=0 wmax=0 wref=0  rd=0 rmax=0 rref=0
1788535017.428079 [RNG] frames=1429 last=42 min=29 max=55 nrdy=0 dxfer=0 dstat=0 lst=0 nrdyerr=0 dclr=0
1788535017.434449 [DRV] init=0 id=7 mode=0x1 lib=0x2 seq=0x1 odc=0x8b sts=0xe0 armed=1
1788535017.439697 [TRG] pulses=17 suppressed=177 cyc=1600 rst=1 rstmode=0x40
1788535017.442955 [HLT] polls=28 faults=0x0 cfglost=0
1788535017.448710 [EFF] n=5 last=58533 min=58470 max=58534 late=0 stuck=0 rderr=0
1788535017.459087 [IMU] init=0 addr=0x68 who=0x68 rst=1 pmrb0=0x40 pmrb=0x1 sr=19 cfg=4 gcfg=0x0 acfg=0x8 icfg=0x30 ien=0x1 armed=1
1788535017.464328 [ACC] reads=1431 stale=1429 rderr=0 ax=73 ay=-123 az=1114
1788535017.466963 [PWR] pm=0x1 drift=0 rderr=0
1788535017.470961 [DWT] ok=1 cyc=4210555638 cyc_per_ms=800005
1788535018.485256 [HB] up_ms=33301 frames=1477 inf=1477 hazard=205 canary_err=0 q=0 qovr=0
1788535018.496321 [I2C] init=0 gate=0 whoami=0x140e0 wr=0 wrseen=0x27 addr=0x5a ok=11604 err=0 tmo=0 recov=2 pclk1=200000000 sysclk=400000000
1788535018.497634 [NAK] nacks=0
1788535018.502382 [CLK] cpu=800000000 sysb=400000000 pclk1=200000000
1788535018.506885 [TOF] res=0 step=0 id=0xeacc blk=0xeacc10 ctl=0x0
1788535018.512752 [RNG] init=0 step=99 id=0xeacc boot=1 calls=93 xerr=0 dm=1 tb=15
1788535018.519639 [RNG] osc=41 imp=881 imprb=881 mstart=0x40 cfg=91 cfgfail=0x0 vhv=0 vpolls=0
1788535018.525761 [PRT] calls=6025 xerr=0 ler=1 lidx=0x0 perr=0 maxcnt=17 addr8=0x52
1788535018.529882 [RTY] wr=0 wmax=0 wref=0  rd=0 rmax=0 rref=0
1788535018.537511 [RNG] frames=1479 last=45 min=29 max=55 nrdy=0 dxfer=0 dstat=0 lst=0 nrdyerr=0 dclr=0
1788535018.543751 [DRV] init=0 id=7 mode=0x1 lib=0x2 seq=0x1 odc=0x8b sts=0xe0 armed=1
1788535018.549251 [TRG] pulses=17 suppressed=188 cyc=1600 rst=1 rstmode=0x40
1788535018.552503 [HLT] polls=29 faults=0x0 cfglost=0
1788535018.558257 [EFF] n=5 last=58533 min=58470 max=58534 late=0 stuck=0 rderr=0
1788535018.568516 [IMU] init=0 addr=0x68 who=0x68 rst=1 pmrb0=0x40 pmrb=0x1 sr=19 cfg=4 gcfg=0x0 acfg=0x8 icfg=0x30 ien=0x1 armed=1
1788535018.573759 [ACC] reads=1481 stale=1479 rderr=0 ax=76 ay=-123 az=1115
1788535018.576394 [PWR] pm=0x1 drift=0 rderr=0
1788535018.580388 [DWT] ok=1 cyc=796382294 cyc_per_ms=799994
1788535019.595452 [HB] up_ms=34402 frames=1527 inf=1527 hazard=205 canary_err=0 q=0 qovr=0
1788535019.606566 [I2C] init=0 gate=0 whoami=0x140e0 wr=0 wrseen=0x27 addr=0x5a ok=11906 err=0 tmo=0 recov=2 pclk1=200000000 sysclk=400000000
1788535019.607819 [NAK] nacks=0
1788535019.612682 [CLK] cpu=800000000 sysb=400000000 pclk1=200000000
1788535019.617206 [TOF] res=0 step=0 id=0xeacc blk=0xeacc10 ctl=0x0
1788535019.622947 [RNG] init=0 step=99 id=0xeacc boot=1 calls=93 xerr=0 dm=1 tb=15
1788535019.629811 [RNG] osc=41 imp=881 imprb=881 mstart=0x40 cfg=91 cfgfail=0x0 vhv=0 vpolls=0
1788535019.636068 [PRT] calls=6225 xerr=0 ler=1 lidx=0x0 perr=0 maxcnt=17 addr8=0x52
1788535019.640065 [RTY] wr=0 wmax=0 wref=0  rd=0 rmax=0 rref=0
1788535019.647813 [RNG] frames=1529 last=49 min=29 max=55 nrdy=0 dxfer=0 dstat=0 lst=0 nrdyerr=0 dclr=0
1788535019.653942 [DRV] init=0 id=7 mode=0x1 lib=0x2 seq=0x1 odc=0x8b sts=0xe0 armed=1
1788535019.659436 [TRG] pulses=17 suppressed=188 cyc=1600 rst=1 rstmode=0x40
1788535019.662685 [HLT] polls=30 faults=0x0 cfglost=0
1788535019.668438 [EFF] n=5 last=58533 min=58470 max=58534 late=0 stuck=0 rderr=0
1788535019.678697 [IMU] init=0 addr=0x68 who=0x68 rst=1 pmrb0=0x40 pmrb=0x1 sr=19 cfg=4 gcfg=0x0 acfg=0x8 icfg=0x30 ien=0x1 armed=1
1788535019.684065 [ACC] reads=1530 stale=1528 rderr=0 ax=76 ay=-123 az=1114
1788535019.686690 [PWR] pm=0x1 drift=0 rderr=0
1788535019.690692 [DWT] ok=1 cyc=1677211370 cyc_per_ms=800026
1788535020.705511 [HB] up_ms=35503 frames=1576 inf=1576 hazard=205 canary_err=0 q=0 qovr=0
1788535020.716490 [I2C] init=0 gate=0 whoami=0x140e0 wr=0 wrseen=0x27 addr=0x5a ok=12208 err=0 tmo=0 recov=2 pclk1=200000000 sysclk=400000000
1788535020.717868 [NAK] nacks=0
1788535020.722495 [CLK] cpu=800000000 sysb=400000000 pclk1=200000000
1788535020.727141 [TOF] res=0 step=0 id=0xeacc blk=0xeacc10 ctl=0x0
1788535020.732991 [RNG] init=0 step=99 id=0xeacc boot=1 calls=93 xerr=0 dm=1 tb=15
1788535020.739873 [RNG] osc=41 imp=881 imprb=881 mstart=0x40 cfg=91 cfgfail=0x0 vhv=0 vpolls=0
1788535020.745874 [PRT] calls=6425 xerr=0 ler=1 lidx=0x0 perr=0 maxcnt=17 addr8=0x52
1788535020.750142 [RTY] wr=0 wmax=0 wref=0  rd=0 rmax=0 rref=0
1788535020.757877 [RNG] frames=1579 last=41 min=29 max=55 nrdy=0 dxfer=0 dstat=0 lst=0 nrdyerr=0 dclr=0
1788535020.763999 [DRV] init=0 id=7 mode=0x1 lib=0x2 seq=0x1 odc=0x8b sts=0xe0 armed=1
1788535020.769371 [TRG] pulses=17 suppressed=188 cyc=1600 rst=1 rstmode=0x40
1788535020.772747 [HLT] polls=31 faults=0x0 cfglost=0
1788535020.778558 [EFF] n=5 last=58533 min=58470 max=58534 late=0 stuck=0 rderr=0
1788535020.788754 [IMU] init=0 addr=0x68 who=0x68 rst=1 pmrb0=0x40 pmrb=0x1 sr=19 cfg=4 gcfg=0x0 acfg=0x8 icfg=0x30 ien=0x1 armed=1
1788535020.793999 [ACC] reads=1580 stale=1578 rderr=0 ax=73 ay=-124 az=1113
1788535020.796749 [PWR] pm=0x1 drift=0 rderr=0
1788535020.800756 [DWT] ok=1 cyc=2558117372 cyc_per_ms=800096
1788535021.816352 [HB] up_ms=36605 frames=1626 inf=1626 hazard=205 canary_err=0 q=0 qovr=0
1788535021.827429 [I2C] init=0 gate=0 whoami=0x140e0 wr=0 wrseen=0x27 addr=0x5a ok=12508 err=0 tmo=0 recov=2 pclk1=200000000 sysclk=400000000
1788535021.839763 [NAK] nacks=0
1788535021.839901 [CLK] cpu=800000000 sysb=400000000 pclk1=200000000
1788535021.839937 [TOF] res=0 step=0 id=0xeacc blk=0xeacc10 ctl=0x0
1788535021.843814 [RNG] init=0 step=99 id=0xeacc boot=1 calls=93 xerr=0 dm=1 tb=15
1788535021.850665 [RNG] osc=41 imp=881 imprb=881 mstart=0x40 cfg=91 cfgfail=0x0 vhv=0 vpolls=0
1788535021.856802 [PRT] calls=6625 xerr=0 ler=1 lidx=0x0 perr=0 maxcnt=17 addr8=0x52
1788535021.860804 [RTY] wr=0 wmax=0 wref=0  rd=0 rmax=0 rref=0
1788535021.868678 [RNG] frames=1628 last=43 min=29 max=55 nrdy=0 dxfer=0 dstat=0 lst=0 nrdyerr=0 dclr=0
1788535021.874789 [DRV] init=0 id=7 mode=0x1 lib=0x2 seq=0x1 odc=0x8b sts=0xe0 armed=1
1788535021.880192 [TRG] pulses=17 suppressed=188 cyc=1600 rst=1 rstmode=0x40
1788535021.883418 [HLT] polls=32 faults=0x0 cfglost=0
1788535021.889311 [EFF] n=5 last=58533 min=58470 max=58534 late=0 stuck=0 rderr=0
1788535021.899547 [IMU] init=0 addr=0x68 who=0x68 rst=1 pmrb0=0x40 pmrb=0x1 sr=19 cfg=4 gcfg=0x0 acfg=0x8 icfg=0x30 ien=0x1 armed=1
1788535021.904687 [ACC] reads=1630 stale=1628 rderr=0 ax=73 ay=-122 az=1120
1788535021.907427 [PWR] pm=0x1 drift=0 rderr=0
1788535021.911552 [DWT] ok=1 cyc=3439582262 cyc_per_ms=799877
1788535022.927396 [HB] up_ms=37707 frames=1676 inf=1676 hazard=205 canary_err=0 q=0 qovr=0
1788535022.938626 [I2C] init=0 gate=0 whoami=0x140e0 wr=0 wrseen=0x27 addr=0x5a ok=12806 err=0 tmo=0 recov=2 pclk1=200000000 sysclk=400000000
1788535022.939898 [NAK] nacks=0
1788535022.944524 [CLK] cpu=800000000 sysb=400000000 pclk1=200000000
1788535022.949004 [TOF] res=0 step=0 id=0xeacc blk=0xeacc10 ctl=0x0
1788535022.955021 [RNG] init=0 step=99 id=0xeacc boot=1 calls=93 xerr=0 dm=1 tb=15
1788535022.961902 [RNG] osc=41 imp=881 imprb=881 mstart=0x40 cfg=91 cfgfail=0x0 vhv=0 vpolls=0
1788535022.968006 [PRT] calls=6825 xerr=0 ler=1 lidx=0x0 perr=0 maxcnt=17 addr8=0x52
1788535022.972011 [RTY] wr=0 wmax=0 wref=0  rd=0 rmax=0 rref=0
1788535022.979858 [RNG] frames=1678 last=41 min=29 max=55 nrdy=0 dxfer=0 dstat=0 lst=0 nrdyerr=0 dclr=0
1788535022.986133 [DRV] init=0 id=7 mode=0x1 lib=0x2 seq=0x1 odc=0x8b sts=0xe0 armed=1
1788535022.991403 [TRG] pulses=17 suppressed=188 cyc=1600 rst=1 rstmode=0x40
1788535022.994611 [HLT] polls=33 faults=0x0 cfglost=0
1788535023.000482 [EFF] n=5 last=58533 min=58470 max=58534 late=0 stuck=0 rderr=0
1788535023.010735 [IMU] init=0 addr=0x68 who=0x68 rst=1 pmrb0=0x40 pmrb=0x1 sr=19 cfg=4 gcfg=0x0 acfg=0x8 icfg=0x30 ien=0x1 armed=1
1788535023.015984 [ACC] reads=1680 stale=1678 rderr=0 ax=75 ay=-125 az=1115
1788535023.018623 [PWR] pm=0x1 drift=0 rderr=0
1788535023.022491 [DWT] ok=1 cyc=26215242 cyc_per_ms=800000
1788535024.037424 [HB] up_ms=38808 frames=1726 inf=1726 hazard=211 canary_err=0 q=0 qovr=0
1788535024.048535 [I2C] init=0 gate=0 whoami=0x140e0 wr=0 wrseen=0x27 addr=0x5a ok=13108 err=0 tmo=0 recov=2 pclk1=200000000 sysclk=400000000
1788535024.049906 [NAK] nacks=0
1788535024.054548 [CLK] cpu=800000000 sysb=400000000 pclk1=200000000
1788535024.059048 [TOF] res=0 step=0 id=0xeacc blk=0xeacc10 ctl=0x0
1788535024.064798 [RNG] init=0 step=99 id=0xeacc boot=1 calls=93 xerr=0 dm=1 tb=15
1788535024.071963 [RNG] osc=41 imp=881 imprb=881 mstart=0x40 cfg=91 cfgfail=0x0 vhv=0 vpolls=0
1788535024.077923 [PRT] calls=7025 xerr=0 ler=1 lidx=0x0 perr=0 maxcnt=17 addr8=0x52
1788535024.081926 [RTY] wr=0 wmax=0 wref=0  rd=0 rmax=0 rref=0
1788535024.089660 [RNG] frames=1728 last=41 min=29 max=55 nrdy=0 dxfer=0 dstat=0 lst=0 nrdyerr=0 dclr=0
1788535024.095946 [DRV] init=0 id=7 mode=0x1 lib=0x2 seq=0x1 odc=0x8b sts=0xe0 armed=1
1788535024.101291 [TRG] pulses=18 suppressed=196 cyc=1600 rst=1 rstmode=0x40
1788535024.104559 [HLT] polls=34 faults=0x0 cfglost=0
1788535024.110286 [EFF] n=5 last=58533 min=58470 max=58534 late=0 stuck=0 rderr=0
1788535024.120536 [IMU] init=0 addr=0x68 who=0x68 rst=1 pmrb0=0x40 pmrb=0x1 sr=19 cfg=4 gcfg=0x0 acfg=0x8 icfg=0x30 ien=0x1 armed=1
1788535024.125777 [ACC] reads=1730 stale=1727 rderr=0 ax=72 ay=-122 az=1114
1788535024.128428 [PWR] pm=0x1 drift=0 rderr=0
1788535024.132344 [DWT] ok=1 cyc=907018798 cyc_per_ms=800003
1788535025.146721 [HB] up_ms=39909 frames=1776 inf=1776 hazard=246 canary_err=0 q=0 qovr=0
1788535025.157964 [I2C] init=0 gate=0 whoami=0x140e0 wr=0 wrseen=0x27 addr=0x5a ok=13410 err=0 tmo=0 recov=2 pclk1=200000000 sysclk=400000000
1788535025.159223 [NAK] nacks=0
1788535025.163837 [CLK] cpu=800000000 sysb=400000000 pclk1=200000000
1788535025.168339 [TOF] res=0 step=0 id=0xeacc blk=0xeacc10 ctl=0x0
1788535025.174215 [RNG] init=0 step=99 id=0xeacc boot=1 calls=93 xerr=0 dm=1 tb=15
1788535025.181216 [RNG] osc=41 imp=881 imprb=881 mstart=0x40 cfg=91 cfgfail=0x0 vhv=0 vpolls=0
1788535025.187217 [PRT] calls=7225 xerr=0 ler=1 lidx=0x0 perr=0 maxcnt=17 addr8=0x52
1788535025.191346 [RTY] wr=0 wmax=0 wref=0  rd=0 rmax=0 rref=0
1788535025.198972 [RNG] frames=1778 last=44 min=29 max=55 nrdy=0 dxfer=0 dstat=0 lst=0 nrdyerr=0 dclr=0
1788535025.205347 [DRV] init=0 id=7 mode=0x1 lib=0x2 seq=0x1 odc=0x8b sts=0xe0 armed=1
1788535025.210721 [TRG] pulses=20 suppressed=226 cyc=1600 rst=1 rstmode=0x40
1788535025.213975 [HLT] polls=35 faults=0x0 cfglost=0
1788535025.219717 [EFF] n=5 last=58533 min=58470 max=58534 late=0 stuck=0 rderr=0
1788535025.229967 [IMU] init=0 addr=0x68 who=0x68 rst=1 pmrb0=0x40 pmrb=0x1 sr=19 cfg=4 gcfg=0x0 acfg=0x8 icfg=0x30 ien=0x1 armed=1
1788535025.235210 [ACC] reads=1780 stale=1777 rderr=0 ax=72 ay=-122 az=1110
1788535025.237846 [PWR] pm=0x1 drift=0 rderr=0
1788535025.241848 [DWT] ok=1 cyc=1787814954 cyc_per_ms=799996
1788535026.255657 [HB] up_ms=41010 frames=1826 inf=1826 hazard=246 canary_err=0 q=0 qovr=0
1788535026.266782 [I2C] init=0 gate=0 whoami=0x140e0 wr=0 wrseen=0x27 addr=0x5a ok=13712 err=0 tmo=0 recov=2 pclk1=200000000 sysclk=400000000
1788535026.268174 [NAK] nacks=0
1788535026.272772 [CLK] cpu=800000000 sysb=400000000 pclk1=200000000
1788535026.277272 [TOF] res=0 step=0 id=0xeacc blk=0xeacc10 ctl=0x0
1788535026.283185 [RNG] init=0 step=99 id=0xeacc boot=1 calls=93 xerr=0 dm=1 tb=15
1788535026.290016 [RNG] osc=41 imp=881 imprb=881 mstart=0x40 cfg=91 cfgfail=0x0 vhv=0 vpolls=0
1788535026.296168 [PRT] calls=7421 xerr=0 ler=1 lidx=0x0 perr=0 maxcnt=17 addr8=0x52
1788535026.300268 [RTY] wr=0 wmax=0 wref=0  rd=0 rmax=0 rref=0
1788535026.307892 [RNG] frames=1828 last=44 min=29 max=55 nrdy=0 dxfer=0 dstat=0 lst=0 nrdyerr=0 dclr=0
1788535026.314278 [DRV] init=0 id=7 mode=0x1 lib=0x2 seq=0x1 odc=0x8b sts=0xe0 armed=1
1788535026.319644 [TRG] pulses=20 suppressed=226 cyc=1600 rst=1 rstmode=0x40
1788535026.322899 [HLT] polls=36 faults=0x0 cfglost=0
1788535026.328647 [EFF] n=5 last=58533 min=58470 max=58534 late=0 stuck=0 rderr=0
1788535026.338898 [IMU] init=0 addr=0x68 who=0x68 rst=1 pmrb0=0x40 pmrb=0x1 sr=19 cfg=4 gcfg=0x0 acfg=0x8 icfg=0x30 ien=0x1 armed=1
1788535026.344169 [ACC] reads=1830 stale=1827 rderr=0 ax=73 ay=-123 az=1113
1788535026.346778 [PWR] pm=0x1 drift=0 rderr=0
1788535026.350811 [DWT] ok=1 cyc=2668615374 cyc_per_ms=800000
1788535027.364337 [HB] up_ms=42111 frames=1876 inf=1876 hazard=246 canary_err=0 q=0 qovr=0
1788535027.375320 [I2C] init=0 gate=0 whoami=0x140e0 wr=0 wrseen=0x27 addr=0x5a ok=14014 err=0 tmo=0 recov=2 pclk1=200000000 sysclk=400000000
1788535027.376712 [NAK] nacks=0
1788535027.381446 [CLK] cpu=800000000 sysb=400000000 pclk1=200000000
1788535027.385951 [TOF] res=0 step=0 id=0xeacc blk=0xeacc10 ctl=0x0
1788535027.391830 [RNG] init=0 step=99 id=0xeacc boot=1 calls=93 xerr=0 dm=1 tb=15
1788535027.398698 [RNG] osc=41 imp=881 imprb=881 mstart=0x40 cfg=91 cfgfail=0x0 vhv=0 vpolls=0
1788535027.404840 [PRT] calls=7621 xerr=0 ler=1 lidx=0x0 perr=0 maxcnt=17 addr8=0x52
1788535027.408959 [RTY] wr=0 wmax=0 wref=0  rd=0 rmax=0 rref=0
1788535027.416579 [RNG] frames=1878 last=41 min=29 max=55 nrdy=0 dxfer=0 dstat=0 lst=0 nrdyerr=0 dclr=0
1788535027.422706 [DRV] init=0 id=7 mode=0x1 lib=0x2 seq=0x1 odc=0x8b sts=0xe0 armed=1
1788535027.428193 [TRG] pulses=20 suppressed=226 cyc=1600 rst=1 rstmode=0x40
1788535027.431461 [HLT] polls=37 faults=0x0 cfglost=0
1788535027.437203 [EFF] n=5 last=58533 min=58470 max=58534 late=0 stuck=0 rderr=0
1788535027.447333 [IMU] init=0 addr=0x68 who=0x68 rst=1 pmrb0=0x40 pmrb=0x1 sr=19 cfg=4 gcfg=0x0 acfg=0x8 icfg=0x30 ien=0x1 armed=1
1788535027.452705 [ACC] reads=1879 stale=1876 rderr=0 ax=72 ay=-123 az=1115
1788535027.455463 [PWR] pm=0x1 drift=0 rderr=0
1788535027.459334 [DWT] ok=1 cyc=3549415066 cyc_per_ms=799999
1788535028.472384 [HB] up_ms=43212 frames=1925 inf=1925 hazard=246 canary_err=0 q=0 qovr=0
1788535028.483501 [I2C] init=0 gate=0 whoami=0x140e0 wr=0 wrseen=0x27 addr=0x5a ok=14310 err=0 tmo=0 recov=3 pclk1=200000000 sysclk=400000000
1788535028.484885 [NAK] nacks=0
1788535028.489503 [CLK] cpu=800000000 sysb=400000000 pclk1=200000000
1788535028.494000 [TOF] res=0 step=0 id=0xeacc blk=0xeacc10 ctl=0x0
1788535028.499889 [RNG] init=0 step=99 id=0xeacc boot=1 calls=93 xerr=0 dm=1 tb=15
1788535028.506886 [RNG] osc=41 imp=881 imprb=881 mstart=0x40 cfg=91 cfgfail=0x0 vhv=0 vpolls=0
1788535028.512907 [PRT] calls=7821 xerr=0 ler=1 lidx=0x0 perr=0 maxcnt=17 addr8=0x52
1788535028.516909 [RTY] wr=0 wmax=0 wref=0  rd=0 rmax=0 rref=0
1788535028.524753 [RNG] frames=1927 last=47 min=29 max=55 nrdy=0 dxfer=0 dstat=0 lst=0 nrdyerr=0 dclr=0
1788535028.530875 [DRV] init=0 id=7 mode=0x1 lib=0x2 seq=0x1 odc=0x8b sts=0xe0 armed=1
1788535028.536261 [TRG] pulses=20 suppressed=226 cyc=1600 rst=1 rstmode=0x40
1788535028.539503 [HLT] polls=38 faults=0x0 cfglost=0
1788535028.545376 [EFF] n=5 last=58533 min=58470 max=58534 late=0 stuck=0 rderr=0
1788535028.555506 [IMU] init=0 addr=0x68 who=0x68 rst=1 pmrb0=0x40 pmrb=0x1 sr=19 cfg=4 gcfg=0x0 acfg=0x8 icfg=0x30 ien=0x1 armed=1
1788535028.560758 [ACC] reads=1929 stale=1926 rderr=0 ax=73 ay=-125 az=1115
1788535028.563393 [PWR] pm=0x1 drift=0 rderr=0
1788535028.567376 [DWT] ok=1 cyc=135248118 cyc_per_ms=800000
1788535029.580251 [HB] up_ms=44313 frames=1975 inf=1975 hazard=246 canary_err=0 q=0 qovr=0
1788535029.591450 [I2C] init=0 gate=0 whoami=0x140e0 wr=0 wrseen=0x27 addr=0x5a ok=14612 err=0 tmo=0 recov=3 pclk1=200000000 sysclk=400000000
1788535029.592816 [NAK] nacks=0
1788535029.597325 [CLK] cpu=800000000 sysb=400000000 pclk1=200000000
1788535029.601814 [TOF] res=0 step=0 id=0xeacc blk=0xeacc10 ctl=0x0
1788535029.607685 [RNG] init=0 step=99 id=0xeacc boot=1 calls=93 xerr=0 dm=1 tb=15
1788535029.614685 [RNG] osc=41 imp=881 imprb=881 mstart=0x40 cfg=91 cfgfail=0x0 vhv=0 vpolls=0
1788535029.620685 [PRT] calls=8021 xerr=0 ler=1 lidx=0x0 perr=0 maxcnt=17 addr8=0x52
1788535029.624808 [RTY] wr=0 wmax=0 wref=0  rd=0 rmax=0 rref=0
1788535029.632579 [RNG] frames=1977 last=46 min=29 max=55 nrdy=0 dxfer=0 dstat=0 lst=0 nrdyerr=0 dclr=0
1788535029.638820 [DRV] init=0 id=7 mode=0x1 lib=0x2 seq=0x1 odc=0x8b sts=0xe0 armed=1
1788535029.644079 [TRG] pulses=20 suppressed=226 cyc=1600 rst=1 rstmode=0x40
1788535029.647445 [HLT] polls=39 faults=0x0 cfglost=0
1788535029.653069 [EFF] n=5 last=58533 min=58470 max=58534 late=0 stuck=0 rderr=0
1788535029.663452 [IMU] init=0 addr=0x68 who=0x68 rst=1 pmrb0=0x40 pmrb=0x1 sr=19 cfg=4 gcfg=0x0 acfg=0x8 icfg=0x30 ien=0x1 armed=1
1788535029.668696 [ACC] reads=1979 stale=1976 rderr=0 ax=72 ay=-121 az=1113
1788535029.671334 [PWR] pm=0x1 drift=0 rderr=0
1788535029.675324 [DWT] ok=1 cyc=1016047990 cyc_per_ms=799999
1788535030.688259 [HB] up_ms=45414 frames=2025 inf=2025 hazard=246 canary_err=0 q=0 qovr=0
1788535030.699492 [I2C] init=0 gate=0 whoami=0x140e0 wr=0 wrseen=0x27 addr=0x5a ok=14914 err=0 tmo=0 recov=3 pclk1=200000000 sysclk=400000000
1788535030.700865 [NAK] nacks=0
1788535030.705394 [CLK] cpu=800000000 sysb=400000000 pclk1=200000000
1788535030.709868 [TOF] res=0 step=0 id=0xeacc blk=0xeacc10 ctl=0x0
1788535030.715745 [RNG] init=0 step=99 id=0xeacc boot=1 calls=93 xerr=0 dm=1 tb=15
1788535030.722743 [RNG] osc=41 imp=881 imprb=881 mstart=0x40 cfg=91 cfgfail=0x0 vhv=0 vpolls=0
1788535030.728747 [PRT] calls=8221 xerr=0 ler=1 lidx=0x0 perr=0 maxcnt=17 addr8=0x52
1788535030.732870 [RTY] wr=0 wmax=0 wref=0  rd=0 rmax=0 rref=0
1788535030.740497 [RNG] frames=2027 last=44 min=29 max=55 nrdy=0 dxfer=0 dstat=0 lst=0 nrdyerr=0 dclr=0
1788535030.746871 [DRV] init=0 id=7 mode=0x1 lib=0x2 seq=0x1 odc=0x8b sts=0xe0 armed=1
1788535030.752286 [TRG] pulses=20 suppressed=226 cyc=1600 rst=1 rstmode=0x40
1788535030.755493 [HLT] polls=40 faults=0x0 cfglost=0
1788535030.761251 [EFF] n=5 last=58533 min=58470 max=58534 late=0 stuck=0 rderr=0
1788535030.771519 [IMU] init=0 addr=0x68 who=0x68 rst=1 pmrb0=0x40 pmrb=0x1 sr=19 cfg=4 gcfg=0x0 acfg=0x8 icfg=0x30 ien=0x1 armed=1
1788535030.776751 [ACC] reads=2029 stale=2026 rderr=0 ax=72 ay=-122 az=1115
1788535030.779384 [PWR] pm=0x1 drift=0 rderr=0
1788535030.783376 [DWT] ok=1 cyc=1896847738 cyc_per_ms=799999
1788535031.796838 [HB] up_ms=46515 frames=2075 inf=2075 hazard=281 canary_err=0 q=0 qovr=0
1788535031.807923 [I2C] init=0 gate=0 whoami=0x140e0 wr=0 wrseen=0x27 addr=0x5a ok=15216 err=0 tmo=0 recov=3 pclk1=200000000 sysclk=400000000
1788535031.809298 [NAK] nacks=1
1788535031.813929 [CLK] cpu=800000000 sysb=400000000 pclk1=200000000
1788535031.818434 [TOF] res=0 step=0 id=0xeacc blk=0xeacc10 ctl=0x0
1788535031.824298 [RNG] init=0 step=99 id=0xeacc boot=1 calls=93 xerr=0 dm=1 tb=15
1788535031.831220 [RNG] osc=41 imp=881 imprb=881 mstart=0x40 cfg=91 cfgfail=0x0 vhv=0 vpolls=0
1788535031.837301 [PRT] calls=8417 xerr=0 ler=1 lidx=0x0 perr=0 maxcnt=17 addr8=0x52
1788535031.841429 [RTY] wr=0 wmax=0 wref=0  rd=0 rmax=0 rref=0
1788535031.849063 [RNG] frames=2077 last=41 min=29 max=55 nrdy=0 dxfer=0 dstat=0 lst=0 nrdyerr=0 dclr=0
1788535031.855438 [DRV] init=0 id=7 mode=0x1 lib=0x2 seq=0x1 odc=0x8b sts=0xe0 armed=1
1788535031.860683 [TRG] pulses=23 suppressed=261 cyc=1600 rst=1 rstmode=0x40
1788535031.864054 [HLT] polls=41 faults=0x0 cfglost=0
1788535031.869808 [EFF] n=5 last=58533 min=58470 max=58534 late=0 stuck=0 rderr=0
1788535031.880057 [IMU] init=0 addr=0x68 who=0x68 rst=1 pmrb0=0x40 pmrb=0x1 sr=19 cfg=4 gcfg=0x0 acfg=0x8 icfg=0x30 ien=0x1 armed=1
1788535031.885297 [ACC] reads=2078 stale=2076 rderr=1 ax=73 ay=-121 az=1115
1788535031.887931 [PWR] pm=0x1 drift=0 rderr=0
1788535031.891939 [DWT] ok=1 cyc=2777653226 cyc_per_ms=800004
1788535032.905491 [HB] up_ms=47616 frames=2125 inf=2125 hazard=287 canary_err=0 q=0 qovr=0
1788535032.916478 [I2C] init=0 gate=0 whoami=0x140e0 wr=0 wrseen=0x27 addr=0x5a ok=15517 err=1 tmo=0 recov=3 pclk1=200000000 sysclk=400000000
1788535032.917853 [NAK] nacks=1
1788535032.922603 [CLK] cpu=800000000 sysb=400000000 pclk1=200000000
1788535032.927120 [TOF] res=0 step=0 id=0xeacc blk=0xeacc10 ctl=0x0
1788535032.932981 [RNG] init=0 step=99 id=0xeacc boot=1 calls=93 xerr=0 dm=1 tb=15
1788535032.939859 [RNG] osc=41 imp=881 imprb=881 mstart=0x40 cfg=91 cfgfail=0x0 vhv=0 vpolls=0
1788535032.945983 [PRT] calls=8617 xerr=0 ler=1 lidx=0x0 perr=0 maxcnt=17 addr8=0x52
1788535032.950132 [RTY] wr=0 wmax=0 wref=0  rd=0 rmax=0 rref=0
1788535032.957737 [RNG] frames=2127 last=41 min=29 max=55 nrdy=0 dxfer=0 dstat=0 lst=0 nrdyerr=0 dclr=0
1788535032.963981 [DRV] init=0 id=7 mode=0x1 lib=0x2 seq=0x1 odc=0x8b sts=0xe0 armed=1
1788535032.969365 [TRG] pulses=23 suppressed=264 cyc=1600 rst=1 rstmode=0x40
1788535032.972611 [HLT] polls=42 faults=0x0 cfglost=0
1788535032.978360 [EFF] n=5 last=58533 min=58470 max=58534 late=0 stuck=0 rderr=0
1788535032.988611 [IMU] init=0 addr=0x68 who=0x68 rst=1 pmrb0=0x40 pmrb=0x1 sr=19 cfg=4 gcfg=0x0 acfg=0x8 icfg=0x30 ien=0x1 armed=1
1788535032.993987 [ACC] reads=2127 stale=2125 rderr=1 ax=72 ay=-123 az=1116
1788535032.996608 [PWR] pm=0x1 drift=0 rderr=0
1788535033.000606 [DWT] ok=1 cyc=3658447702 cyc_per_ms=799994
1788535034.014302 [HB] up_ms=48717 frames=2174 inf=2174 hazard=287 canary_err=0 q=0 qovr=0
1788535034.025318 [I2C] init=0 gate=0 whoami=0x140e0 wr=0 wrseen=0x27 addr=0x5a ok=15819 err=1 tmo=0 recov=3 pclk1=200000000 sysclk=400000000
1788535034.026549 [NAK] nacks=1
1788535034.031185 [CLK] cpu=800000000 sysb=400000000 pclk1=200000000
1788535034.035794 [TOF] res=0 step=0 id=0xeacc blk=0xeacc10 ctl=0x0
1788535034.041660 [RNG] init=0 step=99 id=0xeacc boot=1 calls=93 xerr=0 dm=1 tb=15
1788535034.048538 [RNG] osc=41 imp=881 imprb=881 mstart=0x40 cfg=91 cfgfail=0x0 vhv=0 vpolls=0
1788535034.054566 [PRT] calls=8817 xerr=0 ler=1 lidx=0x0 perr=0 maxcnt=17 addr8=0x52
1788535034.058795 [RTY] wr=0 wmax=0 wref=0  rd=0 rmax=0 rref=0
1788535034.066436 [RNG] frames=2177 last=47 min=29 max=55 nrdy=0 dxfer=0 dstat=0 lst=0 nrdyerr=0 dclr=0
1788535034.072672 [DRV] init=0 id=7 mode=0x1 lib=0x2 seq=0x1 odc=0x8b sts=0xe0 armed=1
1788535034.077917 [TRG] pulses=23 suppressed=264 cyc=1600 rst=1 rstmode=0x40
1788535034.081415 [HLT] polls=43 faults=0x0 cfglost=0
1788535034.087043 [EFF] n=5 last=58533 min=58470 max=58534 late=0 stuck=0 rderr=0
1788535034.097284 [IMU] init=0 addr=0x68 who=0x68 rst=1 pmrb0=0x40 pmrb=0x1 sr=19 cfg=4 gcfg=0x0 acfg=0x8 icfg=0x30 ien=0x1 armed=1
1788535034.102543 [ACC] reads=2177 stale=2175 rderr=1 ax=74 ay=-123 az=1116
1788535034.105286 [PWR] pm=0x1 drift=0 rderr=0
1788535034.109196 [DWT] ok=1 cyc=244415036 cyc_per_ms=800122
1788535035.122979 [HB] up_ms=49818 frames=2224 inf=2224 hazard=287 canary_err=0 q=0 qovr=0
1788535035.134090 [I2C] init=0 gate=0 whoami=0x140e0 wr=0 wrseen=0x27 addr=0x5a ok=16119 err=1 tmo=0 recov=3 pclk1=200000000 sysclk=400000000
1788535035.135342 [NAK] nacks=1
1788535035.139964 [CLK] cpu=800000000 sysb=400000000 pclk1=200000000
1788535035.144463 [TOF] res=0 step=0 id=0xeacc blk=0xeacc10 ctl=0x0
1788535035.150519 [RNG] init=0 step=99 id=0xeacc boot=1 calls=93 xerr=0 dm=1 tb=15
1788535035.157343 [RNG] osc=41 imp=881 imprb=881 mstart=0x40 cfg=91 cfgfail=0x0 vhv=0 vpolls=0
1788535035.163356 [PRT] calls=9017 xerr=0 ler=1 lidx=0x0 perr=0 maxcnt=17 addr8=0x52
1788535035.167481 [RTY] wr=0 wmax=0 wref=0  rd=0 rmax=0 rref=0
1788535035.175342 [RNG] frames=2226 last=39 min=29 max=55 nrdy=0 dxfer=0 dstat=0 lst=0 nrdyerr=0 dclr=0
1788535035.181468 [DRV] init=0 id=7 mode=0x1 lib=0x2 seq=0x1 odc=0x8b sts=0xe0 armed=1
1788535035.186721 [TRG] pulses=23 suppressed=264 cyc=1600 rst=1 rstmode=0x40
1788535035.190092 [HLT] polls=44 faults=0x0 cfglost=0
1788535035.195966 [EFF] n=5 last=58533 min=58470 max=58534 late=0 stuck=0 rderr=0
1788535035.206093 [IMU] init=0 addr=0x68 who=0x68 rst=1 pmrb0=0x40 pmrb=0x1 sr=19 cfg=4 gcfg=0x0 acfg=0x8 icfg=0x30 ien=0x1 armed=1
1788535035.211342 [ACC] reads=2227 stale=2225 rderr=1 ax=73 ay=-122 az=1114
1788535035.213980 [PWR] pm=0x1 drift=0 rderr=0
1788535035.218114 [DWT] ok=1 cyc=1125080438 cyc_per_ms=799877
1788535036.232798 [HB] up_ms=50920 frames=2274 inf=2274 hazard=287 canary_err=0 q=0 qovr=0
1788535036.243900 [I2C] init=0 gate=0 whoami=0x140e0 wr=0 wrseen=0x27 addr=0x5a ok=16417 err=1 tmo=0 recov=3 pclk1=200000000 sysclk=400000000
1788535036.245279 [NAK] nacks=1
1788535036.249898 [CLK] cpu=800000000 sysb=400000000 pclk1=200000000
1788535036.254405 [TOF] res=0 step=0 id=0xeacc blk=0xeacc10 ctl=0x0
1788535036.260407 [RNG] init=0 step=99 id=0xeacc boot=1 calls=93 xerr=0 dm=1 tb=15
1788535036.267289 [RNG] osc=41 imp=881 imprb=881 mstart=0x40 cfg=91 cfgfail=0x0 vhv=0 vpolls=0
1788535036.273280 [PRT] calls=9217 xerr=0 ler=1 lidx=0x0 perr=0 maxcnt=17 addr8=0x52
1788535036.277299 [RTY] wr=0 wmax=0 wref=0  rd=0 rmax=0 rref=0
1788535036.285186 [RNG] frames=2276 last=42 min=29 max=55 nrdy=0 dxfer=0 dstat=0 lst=0 nrdyerr=0 dclr=0
1788535036.291407 [DRV] init=0 id=7 mode=0x1 lib=0x2 seq=0x1 odc=0x8b sts=0xe0 armed=1
1788535036.296667 [TRG] pulses=23 suppressed=264 cyc=1600 rst=1 rstmode=0x40
1788535036.299911 [HLT] polls=45 faults=0x0 cfglost=0
1788535036.305774 [EFF] n=5 last=58533 min=58470 max=58534 late=0 stuck=0 rderr=0
1788535036.316036 [IMU] init=0 addr=0x68 who=0x68 rst=1 pmrb0=0x40 pmrb=0x1 sr=19 cfg=4 gcfg=0x0 acfg=0x8 icfg=0x30 ien=0x1 armed=1
1788535036.321198 [ACC] reads=2277 stale=2275 rderr=1 ax=74 ay=-122 az=1114
1788535036.323903 [PWR] pm=0x1 drift=0 rderr=0
1788535036.327904 [DWT] ok=1 cyc=2006680650 cyc_per_ms=800000
1788535037.342223 [HB] up_ms=52021 frames=2324 inf=2324 hazard=287 canary_err=0 q=0 qovr=0
1788535037.353456 [I2C] init=0 gate=0 whoami=0x140e0 wr=0 wrseen=0x27 addr=0x5a ok=16719 err=1 tmo=0 recov=3 pclk1=200000000 sysclk=400000000
1788535037.354706 [NAK] nacks=1
1788535037.359346 [CLK] cpu=800000000 sysb=400000000 pclk1=200000000
1788535037.363832 [TOF] res=0 step=0 id=0xeacc blk=0xeacc10 ctl=0x0
1788535037.369709 [RNG] init=0 step=99 id=0xeacc boot=1 calls=93 xerr=0 dm=1 tb=15
1788535037.376709 [RNG] osc=41 imp=881 imprb=881 mstart=0x40 cfg=91 cfgfail=0x0 vhv=0 vpolls=0
1788535037.382707 [PRT] calls=9417 xerr=0 ler=1 lidx=0x0 perr=0 maxcnt=17 addr8=0x52
1788535037.386832 [RTY] wr=0 wmax=0 wref=0  rd=0 rmax=0 rref=0
1788535037.394588 [RNG] frames=2326 last=41 min=29 max=55 nrdy=0 dxfer=0 dstat=0 lst=0 nrdyerr=0 dclr=0
1788535037.400833 [DRV] init=0 id=7 mode=0x1 lib=0x2 seq=0x1 odc=0x8b sts=0xe0 armed=1
1788535037.406087 [TRG] pulses=23 suppressed=264 cyc=1600 rst=1 rstmode=0x40
1788535037.409457 [HLT] polls=46 faults=0x0 cfglost=0
1788535037.415086 [EFF] n=5 last=58533 min=58470 max=58534 late=0 stuck=0 rderr=0
1788535037.425473 [IMU] init=0 addr=0x68 who=0x68 rst=1 pmrb0=0x40 pmrb=0x1 sr=19 cfg=4 gcfg=0x0 acfg=0x8 icfg=0x30 ien=0x1 armed=1
1788535037.430720 [ACC] reads=2327 stale=2325 rderr=1 ax=74 ay=-120 az=1115
1788535037.433349 [PWR] pm=0x1 drift=0 rderr=0
1788535037.437337 [DWT] ok=1 cyc=2887480690 cyc_per_ms=800000
1788535038.451285 [HB] up_ms=53122 frames=2374 inf=2374 hazard=301 canary_err=0 q=0 qovr=0
1788535038.462522 [I2C] init=0 gate=0 whoami=0x140e0 wr=0 wrseen=0x27 addr=0x5a ok=17021 err=1 tmo=0 recov=3 pclk1=200000000 sysclk=400000000
1788535038.463774 [NAK] nacks=1
1788535038.468398 [CLK] cpu=800000000 sysb=400000000 pclk1=200000000
1788535038.472893 [TOF] res=0 step=0 id=0xeacc blk=0xeacc10 ctl=0x0
1788535038.478772 [RNG] init=0 step=99 id=0xeacc boot=1 calls=93 xerr=0 dm=1 tb=15
1788535038.485770 [RNG] osc=41 imp=881 imprb=881 mstart=0x40 cfg=91 cfgfail=0x0 vhv=0 vpolls=0
1788535038.491762 [PRT] calls=9617 xerr=0 ler=1 lidx=0x0 perr=0 maxcnt=17 addr8=0x52
1788535038.495890 [RTY] wr=0 wmax=0 wref=0  rd=0 rmax=0 rref=0
1788535038.503509 [RNG] frames=2376 last=42 min=29 max=55 nrdy=0 dxfer=0 dstat=0 lst=0 nrdyerr=0 dclr=0
1788535038.509895 [DRV] init=0 id=7 mode=0x1 lib=0x2 seq=0x1 odc=0x8b sts=0xe0 armed=1
1788535038.515264 [TRG] pulses=25 suppressed=279 cyc=1600 rst=1 rstmode=0x40
1788535038.518521 [HLT] polls=47 faults=0x0 cfglost=0
1788535038.524264 [EFF] n=5 last=58533 min=58470 max=58534 late=0 stuck=0 rderr=0
1788535038.534522 [IMU] init=0 addr=0x68 who=0x68 rst=1 pmrb0=0x40 pmrb=0x1 sr=19 cfg=4 gcfg=0x0 acfg=0x8 icfg=0x30 ien=0x1 armed=1
1788535038.539768 [ACC] reads=2377 stale=2375 rderr=1 ax=72 ay=-121 az=1115
1788535038.542392 [PWR] pm=0x1 drift=0 rderr=0
1788535038.546403 [DWT] ok=1 cyc=3768286490 cyc_per_ms=800005
1788535039.560699 [HB] up_ms=54223 frames=2423 inf=2423 hazard=328 canary_err=0 q=0 qovr=0
1788535039.571694 [I2C] init=0 gate=0 whoami=0x140e0 wr=0 wrseen=0x27 addr=0x5a ok=17323 err=1 tmo=0 recov=4 pclk1=200000000 sysclk=400000000
1788535039.573073 [NAK] nacks=1
1788535039.577584 [CLK] cpu=800000000 sysb=400000000 pclk1=200000000
1788535039.582331 [TOF] res=0 step=0 id=0xeacc blk=0xeacc10 ctl=0x0
1788535039.588074 [RNG] init=0 step=99 id=0xeacc boot=1 calls=93 xerr=0 dm=1 tb=15
1788535039.595074 [RNG] osc=41 imp=881 imprb=881 mstart=0x40 cfg=91 cfgfail=0x0 vhv=0 vpolls=0
1788535039.601073 [PRT] calls=9813 xerr=0 ler=1 lidx=0x0 perr=0 maxcnt=17 addr8=0x52
1788535039.605321 [RTY] wr=0 wmax=0 wref=0  rd=0 rmax=0 rref=0
1788535039.612955 [RNG] frames=2426 last=36 min=29 max=55 nrdy=0 dxfer=0 dstat=0 lst=0 nrdyerr=0 dclr=0
1788535039.619194 [DRV] init=0 id=7 mode=0x1 lib=0x2 seq=0x1 odc=0x8b sts=0xe0 armed=1
1788535039.624451 [TRG] pulses=26 suppressed=302 cyc=1600 rst=1 rstmode=0x40
1788535039.627825 [HLT] polls=48 faults=0x0 cfglost=0
1788535039.633564 [EFF] n=5 last=58533 min=58470 max=58534 late=0 stuck=0 rderr=0
1788535039.643832 [IMU] init=0 addr=0x68 who=0x68 rst=1 pmrb0=0x40 pmrb=0x1 sr=19 cfg=4 gcfg=0x0 acfg=0x8 icfg=0x30 ien=0x1 armed=1
1788535039.649081 [ACC] reads=2426 stale=2424 rderr=1 ax=74 ay=-124 az=1114
1788535039.651829 [PWR] pm=0x1 drift=0 rderr=0
1788535039.655715 [DWT] ok=1 cyc=354248064 cyc_per_ms=800117
1788535040.670265 [HB] up_ms=55324 frames=2473 inf=2473 hazard=328 canary_err=0 q=0 qovr=0
1788535040.681378 [I2C] init=0 gate=0 whoami=0x140e0 wr=0 wrseen=0x27 addr=0x5a ok=17623 err=1 tmo=0 recov=4 pclk1=200000000 sysclk=400000000
1788535040.682751 [NAK] nacks=1
1788535040.687253 [CLK] cpu=800000000 sysb=400000000 pclk1=200000000
1788535040.691745 [TOF] res=0 step=0 id=0xeacc blk=0xeacc10 ctl=0x0
1788535040.697756 [RNG] init=0 step=99 id=0xeacc boot=1 calls=93 xerr=0 dm=1 tb=15
1788535040.704766 [RNG] osc=41 imp=881 imprb=881 mstart=0x40 cfg=91 cfgfail=0x0 vhv=0 vpolls=0
1788535040.710760 [PRT] calls=10013 xerr=0 ler=1 lidx=0x0 perr=0 maxcnt=17 addr8=0x52
1788535040.714881 [RTY] wr=0 wmax=0 wref=0  rd=0 rmax=0 rref=0
1788535040.722760 [RNG] frames=2475 last=42 min=29 max=55 nrdy=0 dxfer=0 dstat=0 lst=0 nrdyerr=0 dclr=0
1788535040.728884 [DRV] init=0 id=7 mode=0x1 lib=0x2 seq=0x1 odc=0x8b sts=0xe0 armed=1
1788535040.734254 [TRG] pulses=26 suppressed=302 cyc=1600 rst=1 rstmode=0x40
1788535040.737513 [HLT] polls=49 faults=0x0 cfglost=0
1788535040.743381 [EFF] n=5 last=58533 min=58470 max=58534 late=0 stuck=0 rderr=0
1788535040.753632 [IMU] init=0 addr=0x68 who=0x68 rst=1 pmrb0=0x40 pmrb=0x1 sr=19 cfg=4 gcfg=0x0 acfg=0x8 icfg=0x30 ien=0x1 armed=1
1788535040.758756 [ACC] reads=2476 stale=2474 rderr=1 ax=72 ay=-122 az=1115
1788535040.761538 [PWR] pm=0x1 drift=0 rderr=0
1788535040.765635 [DWT] ok=1 cyc=1235005874 cyc_per_ms=799961
1788535041.780947 [HB] up_ms=56426 frames=2523 inf=2523 hazard=328 canary_err=0 q=0 qovr=0
1788535041.792070 [I2C] init=0 gate=0 whoami=0x140e0 wr=0 wrseen=0x27 addr=0x5a ok=17921 err=1 tmo=0 recov=4 pclk1=200000000 sysclk=400000000
1788535041.793444 [NAK] nacks=1
1788535041.798057 [CLK] cpu=800000000 sysb=400000000 pclk1=200000000
1788535041.802552 [TOF] res=0 step=0 id=0xeacc blk=0xeacc10 ctl=0x0
1788535041.808569 [RNG] init=0 step=99 id=0xeacc boot=1 calls=93 xerr=0 dm=1 tb=15
1788535041.815437 [RNG] osc=41 imp=881 imprb=881 mstart=0x40 cfg=91 cfgfail=0x0 vhv=0 vpolls=0
1788535041.821553 [PRT] calls=10213 xerr=0 ler=1 lidx=0x0 perr=0 maxcnt=17 addr8=0x52
1788535041.825585 [RTY] wr=0 wmax=0 wref=0  rd=0 rmax=0 rref=0
1788535041.833434 [RNG] frames=2525 last=39 min=29 max=55 nrdy=0 dxfer=0 dstat=0 lst=0 nrdyerr=0 dclr=0
1788535041.839691 [DRV] init=0 id=7 mode=0x1 lib=0x2 seq=0x1 odc=0x8b sts=0xe0 armed=1
1788535041.844938 [TRG] pulses=26 suppressed=302 cyc=1600 rst=1 rstmode=0x40
1788535041.848195 [HLT] polls=50 faults=0x0 cfglost=0
1788535041.854057 [EFF] n=5 last=58533 min=58470 max=58534 late=0 stuck=0 rderr=0
1788535041.864325 [IMU] init=0 addr=0x68 who=0x68 rst=1 pmrb0=0x40 pmrb=0x1 sr=19 cfg=4 gcfg=0x0 acfg=0x8 icfg=0x30 ien=0x1 armed=1
1788535041.869560 [ACC] reads=2526 stale=2524 rderr=1 ax=75 ay=-121 az=1114
1788535041.872213 [PWR] pm=0x1 drift=0 rderr=0
1788535041.876196 [DWT] ok=1 cyc=2116583972 cyc_per_ms=799980
1788535042.891371 [HB] up_ms=57528 frames=2573 inf=2573 hazard=328 canary_err=0 q=0 qovr=0
1788535042.902620 [I2C] init=0 gate=0 whoami=0x140e0 wr=0 wrseen=0x27 addr=0x5a ok=18223 err=1 tmo=0 recov=4 pclk1=200000000 sysclk=400000000
1788535042.903995 [NAK] nacks=1
1788535042.908495 [CLK] cpu=800000000 sysb=400000000 pclk1=200000000
1788535042.912996 [TOF] res=0 step=0 id=0xeacc blk=0xeacc10 ctl=0x0
1788535042.918862 [RNG] init=0 step=99 id=0xeacc boot=1 calls=93 xerr=0 dm=1 tb=15
1788535042.925886 [RNG] osc=41 imp=881 imprb=881 mstart=0x40 cfg=91 cfgfail=0x0 vhv=0 vpolls=0
1788535042.931995 [PRT] calls=10413 xerr=0 ler=1 lidx=0x0 perr=0 maxcnt=17 addr8=0x52
1788535042.936159 [RTY] wr=0 wmax=0 wref=0  rd=0 rmax=0 rref=0
1788535042.944000 [RNG] frames=2575 last=49 min=29 max=55 nrdy=0 dxfer=0 dstat=0 lst=0 nrdyerr=0 dclr=0
1788535042.950140 [DRV] init=0 id=7 mode=0x1 lib=0x2 seq=0x1 odc=0x8b sts=0xe0 armed=1
1788535042.955366 [TRG] pulses=26 suppressed=302 cyc=1600 rst=1 rstmode=0x40
1788535042.958621 [HLT] polls=51 faults=0x0 cfglost=0
1788535042.964361 [EFF] n=5 last=58533 min=58470 max=58534 late=0 stuck=0 rderr=0
1788535042.974750 [IMU] init=0 addr=0x68 who=0x68 rst=1 pmrb0=0x40 pmrb=0x1 sr=19 cfg=4 gcfg=0x0 acfg=0x8 icfg=0x30 ien=0x1 armed=1
1788535042.979994 [ACC] reads=2576 stale=2574 rderr=1 ax=73 ay=-124 az=1115
1788535042.982619 [PWR] pm=0x1 drift=0 rderr=0
1788535042.986625 [DWT] ok=1 cyc=2998183816 cyc_per_ms=799999
1788535044.000310 [HB] up_ms=58629 frames=2623 inf=2623 hazard=328 canary_err=0 q=0 qovr=0
1788535044.011432 [I2C] init=0 gate=0 whoami=0x140e0 wr=0 wrseen=0x27 addr=0x5a ok=18525 err=1 tmo=0 recov=4 pclk1=200000000 sysclk=400000000
1788535044.012800 [NAK] nacks=1
1788535044.017439 [CLK] cpu=800000000 sysb=400000000 pclk1=200000000
1788535044.021923 [TOF] res=0 step=0 id=0xeacc blk=0xeacc10 ctl=0x0
1788535044.027664 [RNG] init=0 step=99 id=0xeacc boot=1 calls=93 xerr=0 dm=1 tb=15
1788535044.034806 [RNG] osc=41 imp=881 imprb=881 mstart=0x40 cfg=91 cfgfail=0x0 vhv=0 vpolls=0
1788535044.040924 [PRT] calls=10613 xerr=0 ler=1 lidx=0x0 perr=0 maxcnt=17 addr8=0x52
1788535044.044947 [RTY] wr=0 wmax=0 wref=0  rd=0 rmax=0 rref=0
1788535044.052671 [RNG] frames=2625 last=40 min=29 max=55 nrdy=0 dxfer=0 dstat=0 lst=0 nrdyerr=0 dclr=0
1788535044.058924 [DRV] init=0 id=7 mode=0x1 lib=0x2 seq=0x1 odc=0x8b sts=0xe0 armed=1
1788535044.064292 [TRG] pulses=26 suppressed=302 cyc=1600 rst=1 rstmode=0x40
1788535044.067550 [HLT] polls=52 faults=0x0 cfglost=0
1788535044.073297 [EFF] n=5 last=58533 min=58470 max=58534 late=0 stuck=0 rderr=0
1788535044.083674 [IMU] init=0 addr=0x68 who=0x68 rst=1 pmrb0=0x40 pmrb=0x1 sr=19 cfg=4 gcfg=0x0 acfg=0x8 icfg=0x30 ien=0x1 armed=1
1788535044.088804 [ACC] reads=2626 stale=2624 rderr=1 ax=72 ay=-121 az=1111
1788535044.091428 [PWR] pm=0x1 drift=0 rderr=0
1788535044.095445 [DWT] ok=1 cyc=3878983972 cyc_per_ms=800000
1788535045.109662 [HB] up_ms=59730 frames=2673 inf=2673 hazard=328 canary_err=0 q=0 qovr=0
1788535045.120848 [I2C] init=0 gate=0 whoami=0x140e0 wr=0 wrseen=0x27 addr=0x5a ok=18827 err=1 tmo=0 recov=4 pclk1=200000000 sysclk=400000000
1788535045.122221 [NAK] nacks=1
1788535045.126728 [CLK] cpu=800000000 sysb=400000000 pclk1=200000000
1788535045.131223 [TOF] res=0 step=0 id=0xeacc blk=0xeacc10 ctl=0x0
1788535045.137115 [RNG] init=0 step=99 id=0xeacc boot=1 calls=93 xerr=0 dm=1 tb=15
1788535045.144125 [RNG] osc=41 imp=881 imprb=881 mstart=0x40 cfg=91 cfgfail=0x0 vhv=0 vpolls=0
1788535045.150349 [PRT] calls=10812 xerr=0 ler=1 lidx=0x0 perr=0 maxcnt=17 addr8=0x52
1788535045.154352 [RTY] wr=0 wmax=0 wref=0  rd=0 rmax=0 rref=0
1788535045.162131 [RNG] frames=2675 last=41 min=29 max=55 nrdy=0 dxfer=0 dstat=0 lst=0 nrdyerr=0 dclr=0
1788535045.168474 [DRV] init=0 id=7 mode=0x1 lib=0x2 seq=0x1 odc=0x8b sts=0xe0 armed=1
1788535045.173739 [TRG] pulses=26 suppressed=302 cyc=1600 rst=1 rstmode=0x40
1788535045.176982 [HLT] polls=53 faults=0x0 cfglost=0
1788535045.182728 [EFF] n=5 last=58533 min=58470 max=58534 late=0 stuck=0 rderr=0
1788535045.193139 [IMU] init=0 addr=0x68 who=0x68 rst=1 pmrb0=0x40 pmrb=0x1 sr=19 cfg=4 gcfg=0x0 acfg=0x8 icfg=0x30 ien=0x1 armed=1
1788535045.198351 [ACC] reads=2676 stale=2674 rderr=1 ax=74 ay=-122 az=1113
1788535045.200985 [PWR] pm=0x1 drift=0 rderr=0
1788535045.204856 [DWT] ok=1 cyc=464816736 cyc_per_ms=800000
1788535046.219045 [HB] up_ms=60831 frames=2723 inf=2723 hazard=369 canary_err=0 q=0 qovr=0
1788535046.230037 [I2C] init=0 gate=0 whoami=0x140e0 wr=0 wrseen=0x27 addr=0x5a ok=19129 err=1 tmo=0 recov=4 pclk1=200000000 sysclk=400000000
1788535046.231412 [NAK] nacks=1
1788535046.236192 [CLK] cpu=800000000 sysb=400000000 pclk1=200000000
1788535046.240659 [TOF] res=0 step=0 id=0xeacc blk=0xeacc10 ctl=0x0
1788535046.246570 [RNG] init=0 step=99 id=0xeacc boot=1 calls=93 xerr=0 dm=1 tb=15
1788535046.253417 [RNG] osc=41 imp=881 imprb=881 mstart=0x40 cfg=91 cfgfail=0x0 vhv=0 vpolls=0
1788535046.259660 [PRT] calls=11009 xerr=0 ler=1 lidx=0x0 perr=0 maxcnt=17 addr8=0x52
1788535046.263795 [RTY] wr=0 wmax=0 wref=0  rd=0 rmax=0 rref=0
1788535046.271409 [RNG] frames=2725 last=52 min=29 max=55 nrdy=0 dxfer=0 dstat=0 lst=0 nrdyerr=0 dclr=0
1788535046.277536 [DRV] init=0 id=7 mode=0x1 lib=0x2 seq=0x1 odc=0x8b sts=0xe0 armed=1
1788535046.283041 [TRG] pulses=29 suppressed=340 cyc=1600 rst=1 rstmode=0x40
1788535046.286301 [HLT] polls=54 faults=0x0 cfglost=0
1788535046.292036 [EFF] n=5 last=58533 min=58470 max=58534 late=0 stuck=0 rderr=0
1788535046.302297 [IMU] init=0 addr=0x68 who=0x68 rst=1 pmrb0=0x40 pmrb=0x1 sr=19 cfg=4 gcfg=0x0 acfg=0x8 icfg=0x30 ien=0x1 armed=1
1788535046.307669 [ACC] reads=2726 stale=2724 rderr=1 ax=73 ay=-124 az=1118
1788535046.310285 [PWR] pm=0x1 drift=0 rderr=0
1788535046.314191 [DWT] ok=1 cyc=1345616820 cyc_per_ms=800000
1788535047.328479 [HB] up_ms=61932 frames=2772 inf=2772 hazard=369 canary_err=0 q=0 qovr=0
1788535047.339471 [I2C] init=0 gate=0 whoami=0x140e0 wr=0 wrseen=0x27 addr=0x5a ok=19431 err=1 tmo=0 recov=4 pclk1=200000000 sysclk=400000000
1788535047.340842 [NAK] nacks=1
1788535047.345470 [CLK] cpu=800000000 sysb=400000000 pclk1=200000000
1788535047.350113 [TOF] res=0 step=0 id=0xeacc blk=0xeacc10 ctl=0x0
1788535047.355977 [RNG] init=0 step=99 id=0xeacc boot=1 calls=93 xerr=0 dm=1 tb=15
1788535047.362848 [RNG] osc=41 imp=881 imprb=881 mstart=0x40 cfg=91 cfgfail=0x0 vhv=0 vpolls=0
1788535047.368972 [PRT] calls=11209 xerr=0 ler=1 lidx=0x0 perr=0 maxcnt=17 addr8=0x52
1788535047.373092 [RTY] wr=0 wmax=0 wref=0  rd=0 rmax=0 rref=0
1788535047.380843 [RNG] frames=2775 last=48 min=29 max=55 nrdy=0 dxfer=0 dstat=0 lst=0 nrdyerr=0 dclr=0
1788535047.386972 [DRV] init=0 id=7 mode=0x1 lib=0x2 seq=0x1 odc=0x8b sts=0xe0 armed=1
1788535047.392338 [TRG] pulses=29 suppressed=340 cyc=1600 rst=1 rstmode=0x40
1788535047.395720 [HLT] polls=55 faults=0x0 cfglost=0
1788535047.401471 [EFF] n=5 last=58533 min=58470 max=58534 late=0 stuck=0 rderr=0
1788535047.411597 [IMU] init=0 addr=0x68 who=0x68 rst=1 pmrb0=0x40 pmrb=0x1 sr=19 cfg=4 gcfg=0x0 acfg=0x8 icfg=0x30 ien=0x1 armed=1
1788535047.417092 [ACC] reads=2775 stale=2773 rderr=1 ax=71 ay=-120 az=1113
1788535047.419716 [PWR] pm=0x1 drift=0 rderr=0
1788535047.423725 [DWT] ok=1 cyc=2226549898 cyc_per_ms=800120
1788535048.438654 [HB] up_ms=63034 frames=2822 inf=2822 hazard=369 canary_err=0 q=0 qovr=0
1788535048.449776 [I2C] init=0 gate=0 whoami=0x140e0 wr=0 wrseen=0x27 addr=0x5a ok=19733 err=1 tmo=0 recov=4 pclk1=200000000 sysclk=400000000
1788535048.451017 [NAK] nacks=1
1788535048.455664 [CLK] cpu=800000000 sysb=400000000 pclk1=200000000
1788535048.460282 [TOF] res=0 step=0 id=0xeacc blk=0xeacc10 ctl=0x0
1788535048.466178 [RNG] init=0 step=99 id=0xeacc boot=1 calls=93 xerr=0 dm=1 tb=15
1788535048.473020 [RNG] osc=41 imp=881 imprb=881 mstart=0x40 cfg=91 cfgfail=0x0 vhv=0 vpolls=0
1788535048.479169 [PRT] calls=11409 xerr=0 ler=1 lidx=0x0 perr=0 maxcnt=17 addr8=0x52
1788535048.483276 [RTY] wr=0 wmax=0 wref=0  rd=0 rmax=0 rref=0
1788535048.491018 [RNG] frames=2824 last=46 min=29 max=55 nrdy=0 dxfer=0 dstat=0 lst=0 nrdyerr=0 dclr=0
1788535048.497283 [DRV] init=0 id=7 mode=0x1 lib=0x2 seq=0x1 odc=0x8b sts=0xe0 armed=1
1788535048.502529 [TRG] pulses=29 suppressed=340 cyc=1600 rst=1 rstmode=0x40
1788535048.505917 [HLT] polls=56 faults=0x0 cfglost=0
1788535048.511777 [EFF] n=5 last=58533 min=58470 max=58534 late=0 stuck=0 rderr=0
1788535048.521900 [IMU] init=0 addr=0x68 who=0x68 rst=1 pmrb0=0x40 pmrb=0x1 sr=19 cfg=4 gcfg=0x0 acfg=0x8 icfg=0x30 ien=0x1 armed=1
1788535048.527026 [ACC] reads=2825 stale=2823 rderr=1 ax=72 ay=-121 az=1117
1788535048.529896 [PWR] pm=0x1 drift=0 rderr=0
1788535048.533908 [DWT] ok=1 cyc=3108138950 cyc_per_ms=799990
1788535049.548583 [HB] up_ms=64136 frames=2872 inf=2872 hazard=369 canary_err=0 q=0 qovr=0
1788535049.559859 [I2C] init=0 gate=0 whoami=0x140e0 wr=0 wrseen=0x27 addr=0x5a ok=20030 err=1 tmo=0 recov=4 pclk1=200000000 sysclk=400000000
1788535049.561093 [NAK] nacks=1
1788535049.565729 [CLK] cpu=800000000 sysb=400000000 pclk1=200000000
1788535049.571217 [TOF] res=0 step=0 id=0xeacc blk=0xeacc10 ctl=0x0
1788535049.576175 [RNG] init=0 step=99 id=0xeacc boot=1 calls=93 xerr=0 dm=1 tb=15
1788535049.583052 [RNG] osc=41 imp=881 imprb=881 mstart=0x40 cfg=91 cfgfail=0x0 vhv=0 vpolls=0
1788535049.589192 [PRT] calls=11609 xerr=0 ler=1 lidx=0x0 perr=0 maxcnt=17 addr8=0x52
1788535049.593190 [RTY] wr=0 wmax=0 wref=0  rd=0 rmax=0 rref=0
1788535049.601068 [RNG] frames=2874 last=47 min=29 max=55 nrdy=0 dxfer=0 dstat=0 lst=0 nrdyerr=0 dclr=0
1788535049.607719 [DRV] init=0 id=7 mode=0x1 lib=0x2 seq=0x1 odc=0x8b sts=0xe0 armed=1
1788535049.612555 [TRG] pulses=29 suppressed=340 cyc=1600 rst=1 rstmode=0x40
1788535049.615832 [HLT] polls=57 faults=0x0 cfglost=0
1788535049.621806 [EFF] n=5 last=58533 min=58470 max=58534 late=0 stuck=0 rderr=0
1788535049.631929 [IMU] init=0 addr=0x68 who=0x68 rst=1 pmrb0=0x40 pmrb=0x1 sr=19 cfg=4 gcfg=0x0 acfg=0x8 icfg=0x30 ien=0x1 armed=1
1788535049.637179 [ACC] reads=2875 stale=2873 rderr=1 ax=73 ay=-124 az=1115
1788535049.639810 [PWR] pm=0x1 drift=0 rderr=0
1788535049.643934 [DWT] ok=1 cyc=3989616772 cyc_per_ms=799889
1788535050.658648 [HB] up_ms=65238 frames=2922 inf=2922 hazard=369 canary_err=0 q=0 qovr=0
1788535050.669897 [I2C] init=0 gate=0 whoami=0x140e0 wr=0 wrseen=0x27 addr=0x5a ok=20331 err=1 tmo=0 recov=4 pclk1=200000000 sysclk=400000000
1788535050.671164 [NAK] nacks=1
1788535050.675766 [CLK] cpu=800000000 sysb=400000000 pclk1=200000000
1788535050.680257 [TOF] res=0 step=0 id=0xeacc blk=0xeacc10 ctl=0x0
1788535050.686262 [RNG] init=0 step=99 id=0xeacc boot=1 calls=93 xerr=0 dm=1 tb=15
1788535050.693148 [RNG] osc=41 imp=881 imprb=881 mstart=0x40 cfg=91 cfgfail=0x0 vhv=0 vpolls=0
1788535050.699264 [PRT] calls=11809 xerr=0 ler=1 lidx=0x0 perr=0 maxcnt=17 addr8=0x52
1788535050.703267 [RTY] wr=0 wmax=0 wref=0  rd=0 rmax=0 rref=0
1788535050.711161 [RNG] frames=2924 last=43 min=29 max=55 nrdy=0 dxfer=0 dstat=0 lst=0 nrdyerr=0 dclr=0
1788535050.717396 [DRV] init=0 id=7 mode=0x1 lib=0x2 seq=0x1 odc=0x8b sts=0xe0 armed=1
1788535050.722638 [TRG] pulses=29 suppressed=340 cyc=1600 rst=1 rstmode=0x40
1788535050.725884 [HLT] polls=58 faults=0x0 cfglost=0
1788535050.731759 [EFF] n=5 last=58533 min=58470 max=58534 late=0 stuck=0 rderr=0
1788535050.742020 [IMU] init=0 addr=0x68 who=0x68 rst=1 pmrb0=0x40 pmrb=0x1 sr=19 cfg=4 gcfg=0x0 acfg=0x8 icfg=0x30 ien=0x1 armed=1
1788535050.747260 [ACC] reads=2925 stale=2923 rderr=1 ax=73 ay=-124 az=1116
1788535050.749889 [PWR] pm=0x1 drift=0 rderr=0
1788535050.753765 [DWT] ok=1 cyc=576249448 cyc_per_ms=799999
1788535051.767827 [HB] up_ms=66339 frames=2972 inf=2972 hazard=369 canary_err=0 q=0 qovr=0
1788535051.779073 [I2C] init=0 gate=0 whoami=0x140e0 wr=0 wrseen=0x27 addr=0x5a ok=20633 err=1 tmo=0 recov=4 pclk1=200000000 sysclk=400000000
1788535051.780449 [NAK] nacks=1
1788535051.784945 [CLK] cpu=800000000 sysb=400000000 pclk1=200000000
1788535051.789448 [TOF] res=0 step=0 id=0xeacc blk=0xeacc10 ctl=0x0
1788535051.795336 [RNG] init=0 step=99 id=0xeacc boot=1 calls=93 xerr=0 dm=1 tb=15
1788535051.802444 [RNG] osc=41 imp=881 imprb=881 mstart=0x40 cfg=91 cfgfail=0x0 vhv=0 vpolls=0
1788535051.808450 [PRT] calls=12009 xerr=0 ler=1 lidx=0x0 perr=0 maxcnt=17 addr8=0x52
1788535051.812577 [RTY] wr=0 wmax=0 wref=0  rd=0 rmax=0 rref=0
1788535051.820324 [RNG] frames=2974 last=44 min=29 max=55 nrdy=0 dxfer=0 dstat=0 lst=0 nrdyerr=0 dclr=0
1788535051.826567 [DRV] init=0 id=7 mode=0x1 lib=0x2 seq=0x1 odc=0x8b sts=0xe0 armed=1
1788535051.831944 [TRG] pulses=29 suppressed=340 cyc=1600 rst=1 rstmode=0x40
1788535051.835188 [HLT] polls=59 faults=0x0 cfglost=0
1788535051.840945 [EFF] n=5 last=58533 min=58470 max=58534 late=0 stuck=0 rderr=0
1788535051.851207 [IMU] init=0 addr=0x68 who=0x68 rst=1 pmrb0=0x40 pmrb=0x1 sr=19 cfg=4 gcfg=0x0 acfg=0x8 icfg=0x30 ien=0x1 armed=1
1788535051.856437 [ACC] reads=2975 stale=2972 rderr=1 ax=75 ay=-122 az=1112
1788535051.859074 [PWR] pm=0x1 drift=0 rderr=0
1788535051.863073 [DWT] ok=1 cyc=1457049564 cyc_per_ms=800000
1788535052.876375 [HB] up_ms=67440 frames=3022 inf=3022 hazard=391 canary_err=0 q=0 qovr=0
1788535052.887491 [I2C] init=0 gate=0 whoami=0x140e0 wr=0 wrseen=0x27 addr=0x5a ok=20935 err=1 tmo=0 recov=4 pclk1=200000000 sysclk=400000000
1788535052.888866 [NAK] nacks=1
1788535052.893512 [CLK] cpu=800000000 sysb=400000000 pclk1=200000000
1788535052.898016 [TOF] res=0 step=0 id=0xeacc blk=0xeacc10 ctl=0x0
1788535052.903755 [RNG] init=0 step=99 id=0xeacc boot=1 calls=93 xerr=0 dm=1 tb=15
1788535052.910871 [RNG] osc=41 imp=881 imprb=881 mstart=0x40 cfg=91 cfgfail=0x0 vhv=0 vpolls=0
1788535052.916877 [PRT] calls=12209 xerr=0 ler=1 lidx=0x0 perr=0 maxcnt=17 addr8=0x52
1788535052.921007 [RTY] wr=0 wmax=0 wref=0  rd=0 rmax=0 rref=0
1788535052.928639 [RNG] frames=3024 last=41 min=29 max=55 nrdy=0 dxfer=0 dstat=0 lst=0 nrdyerr=0 dclr=0
1788535052.935001 [DRV] init=0 id=7 mode=0x1 lib=0x2 seq=0x1 odc=0x8b sts=0xe0 armed=1
1788535052.940250 [TRG] pulses=31 suppressed=363 cyc=1600 rst=1 rstmode=0x40
1788535052.943634 [HLT] polls=60 faults=0x0 cfglost=0
1788535052.949247 [EFF] n=5 last=58533 min=58470 max=58534 late=0 stuck=0 rderr=0
1788535052.959642 [IMU] init=0 addr=0x68 who=0x68 rst=1 pmrb0=0x40 pmrb=0x1 sr=19 cfg=4 gcfg=0x0 acfg=0x8 icfg=0x30 ien=0x1 armed=1
1788535052.964880 [ACC] reads=3025 stale=3022 rderr=1 ax=73 ay=-122 az=1116
1788535052.967498 [PWR] pm=0x1 drift=0 rderr=0
1788535052.971525 [DWT] ok=1 cyc=2337852820 cyc_per_ms=800002
1788535053.986314 [HB] up_ms=68542 frames=3072 inf=3072 hazard=410 canary_err=0 q=0 qovr=0
1788535053.997436 [I2C] init=0 gate=0 whoami=0x140e0 wr=0 wrseen=0x27 addr=0x5a ok=21237 err=1 tmo=0 recov=4 pclk1=200000000 sysclk=400000000
1788535053.998812 [NAK] nacks=1
1788535054.003432 [CLK] cpu=800000000 sysb=400000000 pclk1=200000000
1788535054.007933 [TOF] res=0 step=0 id=0xeacc blk=0xeacc10 ctl=0x0
1788535054.013799 [RNG] init=0 step=99 id=0xeacc boot=1 calls=93 xerr=0 dm=1 tb=15
1788535054.020679 [RNG] osc=41 imp=881 imprb=881 mstart=0x40 cfg=91 cfgfail=0x0 vhv=0 vpolls=0
1788535054.026929 [PRT] calls=12405 xerr=0 ler=1 lidx=0x0 perr=0 maxcnt=17 addr8=0x52
1788535054.031049 [RTY] wr=0 wmax=0 wref=0  rd=0 rmax=0 rref=0
1788535054.038683 [RNG] frames=3074 last=44 min=29 max=55 nrdy=0 dxfer=0 dstat=0 lst=0 nrdyerr=0 dclr=0
1788535054.045062 [DRV] init=0 id=7 mode=0x1 lib=0x2 seq=0x1 odc=0x8b sts=0xe0 armed=1
1788535054.050312 [TRG] pulses=32 suppressed=378 cyc=1600 rst=1 rstmode=0x40
1788535054.053561 [HLT] polls=61 faults=0x0 cfglost=0
1788535054.059307 [EFF] n=5 last=58533 min=58470 max=58534 late=0 stuck=0 rderr=0
1788535054.069682 [IMU] init=0 addr=0x68 who=0x68 rst=1 pmrb0=0x40 pmrb=0x1 sr=19 cfg=4 gcfg=0x0 acfg=0x8 icfg=0x30 ien=0x1 armed=1
1788535054.074929 [ACC] reads=3075 stale=3072 rderr=1 ax=72 ay=-123 az=1115
1788535054.077555 [PWR] pm=0x1 drift=0 rderr=0
1788535054.081573 [DWT] ok=1 cyc=3219449420 cyc_per_ms=799996
1788535055.094874 [HB] up_ms=69643 frames=3122 inf=3122 hazard=410 canary_err=0 q=0 qovr=0
1788535055.105886 [I2C] init=0 gate=0 whoami=0x140e0 wr=0 wrseen=0x27 addr=0x5a ok=21539 err=1 tmo=0 recov=4 pclk1=200000000 sysclk=400000000
1788535055.107260 [NAK] nacks=1
1788535055.112001 [CLK] cpu=800000000 sysb=400000000 pclk1=200000000
1788535055.116488 [TOF] res=0 step=0 id=0xeacc blk=0xeacc10 ctl=0x0
1788535055.122238 [RNG] init=0 step=99 id=0xeacc boot=1 calls=93 xerr=0 dm=1 tb=15
1788535055.129148 [RNG] osc=41 imp=881 imprb=881 mstart=0x40 cfg=91 cfgfail=0x0 vhv=0 vpolls=0
1788535055.135368 [PRT] calls=12605 xerr=0 ler=1 lidx=0x0 perr=0 maxcnt=17 addr8=0x52
1788535055.139494 [RTY] wr=0 wmax=0 wref=0  rd=0 rmax=0 rref=0
1788535055.147139 [RNG] frames=3124 last=41 min=29 max=55 nrdy=0 dxfer=0 dstat=0 lst=0 nrdyerr=0 dclr=0
1788535055.153361 [DRV] init=0 id=7 mode=0x1 lib=0x2 seq=0x1 odc=0x8b sts=0xe0 armed=1
1788535055.158876 [TRG] pulses=32 suppressed=378 cyc=1600 rst=1 rstmode=0x40
1788535055.162122 [HLT] polls=62 faults=0x0 cfglost=0
1788535055.167865 [EFF] n=5 last=58533 min=58470 max=58534 late=0 stuck=0 rderr=0
1788535055.177987 [IMU] init=0 addr=0x68 who=0x68 rst=1 pmrb0=0x40 pmrb=0x1 sr=19 cfg=4 gcfg=0x0 acfg=0x8 icfg=0x30 ien=0x1 armed=1
1788535055.183369 [ACC] reads=3124 stale=3121 rderr=1 ax=73 ay=-122 az=1112
1788535055.185992 [PWR] pm=0x1 drift=0 rderr=0
1788535055.189992 [DWT] ok=1 cyc=4100249412 cyc_per_ms=799999
1788535056.203551 [HB] up_ms=70744 frames=3171 inf=3171 hazard=410 canary_err=0 q=0 qovr=0
1788535056.214542 [I2C] init=0 gate=0 whoami=0x140e0 wr=0 wrseen=0x27 addr=0x5a ok=21841 err=1 tmo=0 recov=4 pclk1=200000000 sysclk=400000000
1788535056.215912 [NAK] nacks=1
1788535056.220417 [CLK] cpu=800000000 sysb=400000000 pclk1=200000000
1788535056.225213 [TOF] res=0 step=0 id=0xeacc blk=0xeacc10 ctl=0x0
1788535056.230915 [RNG] init=0 step=99 id=0xeacc boot=1 calls=93 xerr=0 dm=1 tb=15
1788535056.237928 [RNG] osc=41 imp=881 imprb=881 mstart=0x40 cfg=91 cfgfail=0x0 vhv=0 vpolls=0
1788535056.243926 [PRT] calls=12805 xerr=0 ler=1 lidx=0x0 perr=0 maxcnt=17 addr8=0x52
1788535056.248209 [RTY] wr=0 wmax=0 wref=0  rd=0 rmax=0 rref=0
1788535056.255920 [RNG] frames=3174 last=45 min=29 max=55 nrdy=0 dxfer=0 dstat=0 lst=0 nrdyerr=0 dclr=0
1788535056.262054 [DRV] init=0 id=7 mode=0x1 lib=0x2 seq=0x1 odc=0x8b sts=0xe0 armed=1
1788535056.267425 [TRG] pulses=32 suppressed=378 cyc=1600 rst=1 rstmode=0x40
1788535056.270825 [HLT] polls=63 faults=0x0 cfglost=0
1788535056.276545 [EFF] n=5 last=58533 min=58470 max=58534 late=0 stuck=0 rderr=0
1788535056.286680 [IMU] init=0 addr=0x68 who=0x68 rst=1 pmrb0=0x40 pmrb=0x1 sr=19 cfg=4 gcfg=0x0 acfg=0x8 icfg=0x30 ien=0x1 armed=1
1788535056.292060 [ACC] reads=3174 stale=3171 rderr=1 ax=75 ay=-122 az=1118
1788535056.294673 [PWR] pm=0x1 drift=0 rderr=0
1788535056.298674 [DWT] ok=1 cyc=686215910 cyc_per_ms=800121
1788535057.313615 [HB] up_ms=71846 frames=3221 inf=3221 hazard=410 canary_err=0 q=0 qovr=0
1788535057.324597 [I2C] init=0 gate=0 whoami=0x140e0 wr=0 wrseen=0x27 addr=0x5a ok=22143 err=1 tmo=0 recov=4 pclk1=200000000 sysclk=400000000
1788535057.325968 [NAK] nacks=1
1788535057.330596 [CLK] cpu=800000000 sysb=400000000 pclk1=200000000
1788535057.335114 [TOF] res=0 step=0 id=0xeacc blk=0xeacc10 ctl=0x0
1788535057.341095 [RNG] init=0 step=99 id=0xeacc boot=1 calls=93 xerr=0 dm=1 tb=15
1788535057.347977 [RNG] osc=41 imp=881 imprb=881 mstart=0x40 cfg=91 cfgfail=0x0 vhv=0 vpolls=0
1788535057.353973 [PRT] calls=13005 xerr=0 ler=1 lidx=0x0 perr=0 maxcnt=17 addr8=0x52
1788535057.358112 [RTY] wr=0 wmax=0 wref=0  rd=0 rmax=0 rref=0
1788535057.365979 [RNG] frames=3223 last=49 min=29 max=55 nrdy=0 dxfer=0 dstat=0 lst=0 nrdyerr=0 dclr=0
1788535057.372136 [DRV] init=0 id=7 mode=0x1 lib=0x2 seq=0x1 odc=0x8b sts=0xe0 armed=1
1788535057.377491 [TRG] pulses=32 suppressed=378 cyc=1600 rst=1 rstmode=0x40
1788535057.380721 [HLT] polls=64 faults=0x0 cfglost=0
1788535057.386600 [EFF] n=5 last=58533 min=58470 max=58534 late=0 stuck=0 rderr=0
1788535057.396724 [IMU] init=0 addr=0x68 who=0x68 rst=1 pmrb0=0x40 pmrb=0x1 sr=19 cfg=4 gcfg=0x0 acfg=0x8 icfg=0x30 ien=0x1 armed=1
1788535057.401979 [ACC] reads=3224 stale=3221 rderr=1 ax=75 ay=-122 az=1114
1788535057.404729 [PWR] pm=0x1 drift=0 rderr=0
1788535057.408739 [DWT] ok=1 cyc=1567753566 cyc_per_ms=799943
1788535058.423414 [HB] up_ms=72948 frames=3271 inf=3271 hazard=410 canary_err=0 q=0 qovr=0
1788535058.434536 [I2C] init=0 gate=0 whoami=0x140e0 wr=0 wrseen=0x27 addr=0x5a ok=22439 err=1 tmo=0 recov=4 pclk1=200000000 sysclk=400000000
1788535058.435902 [NAK] nacks=1
1788535058.440568 [CLK] cpu=800000000 sysb=400000000 pclk1=200000000
1788535058.445031 [TOF] res=0 step=0 id=0xeacc blk=0xeacc10 ctl=0x0
1788535058.451029 [RNG] init=0 step=99 id=0xeacc boot=1 calls=93 xerr=0 dm=1 tb=15
1788535058.457900 [RNG] osc=41 imp=881 imprb=881 mstart=0x40 cfg=91 cfgfail=0x0 vhv=0 vpolls=0
1788535058.464031 [PRT] calls=13205 xerr=0 ler=1 lidx=0x0 perr=0 maxcnt=17 addr8=0x52
1788535058.468043 [RTY] wr=0 wmax=0 wref=0  rd=0 rmax=0 rref=0
1788535058.475917 [RNG] frames=3273 last=40 min=29 max=55 nrdy=0 dxfer=0 dstat=0 lst=0 nrdyerr=0 dclr=0
1788535058.482042 [DRV] init=0 id=7 mode=0x1 lib=0x2 seq=0x1 odc=0x8b sts=0xe0 armed=1
1788535058.487422 [TRG] pulses=32 suppressed=378 cyc=1600 rst=1 rstmode=0x40
1788535058.490663 [HLT] polls=65 faults=0x0 cfglost=0
1788535058.496533 [EFF] n=5 last=58533 min=58470 max=58534 late=0 stuck=0 rderr=0
1788535058.506671 [IMU] init=0 addr=0x68 who=0x68 rst=1 pmrb0=0x40 pmrb=0x1 sr=19 cfg=4 gcfg=0x0 acfg=0x8 icfg=0x30 ien=0x1 armed=1
1788535058.511940 [ACC] reads=3274 stale=3271 rderr=1 ax=73 ay=-125 az=1115
1788535058.514547 [PWR] pm=0x1 drift=0 rderr=0
1788535058.518657 [DWT] ok=1 cyc=2449282316 cyc_per_ms=799935
1788535059.533226 [HB] up_ms=74050 frames=3321 inf=3321 hazard=411 canary_err=0 q=0 qovr=0
1788535059.544330 [I2C] init=0 gate=0 whoami=0x140e0 wr=0 wrseen=0x27 addr=0x5a ok=22741 err=1 tmo=0 recov=4 pclk1=200000000 sysclk=400000000
1788535059.545708 [NAK] nacks=1
1788535059.550222 [CLK] cpu=800000000 sysb=400000000 pclk1=200000000
1788535059.557158 [TOF] res=0 step=0 id=0xeacc blk=0xeacc10 ctl=0x0
1788535059.560731 [RNG] init=0 step=99 id=0xeacc boot=1 calls=93 xerr=0 dm=1 tb=15
1788535059.567728 [RNG] osc=41 imp=881 imprb=881 mstart=0x40 cfg=91 cfgfail=0x0 vhv=0 vpolls=0
1788535059.573715 [PRT] calls=13405 xerr=0 ler=1 lidx=0x0 perr=0 maxcnt=17 addr8=0x52
1788535059.577837 [RTY] wr=0 wmax=0 wref=0  rd=0 rmax=0 rref=0
1788535059.585707 [RNG] frames=3323 last=43 min=29 max=55 nrdy=0 dxfer=0 dstat=0 lst=0 nrdyerr=0 dclr=0
1788535059.591842 [DRV] init=0 id=7 mode=0x1 lib=0x2 seq=0x1 odc=0x8b sts=0xe0 armed=1
1788535059.597212 [TRG] pulses=33 suppressed=381 cyc=1600 rst=1 rstmode=0x40
1788535059.600465 [HLT] polls=66 faults=0x0 cfglost=0
1788535059.606219 [EFF] n=5 last=58533 min=58470 max=58534 late=0 stuck=0 rderr=0
1788535059.616469 [IMU] init=0 addr=0x68 who=0x68 rst=1 pmrb0=0x40 pmrb=0x1 sr=19 cfg=4 gcfg=0x0 acfg=0x8 icfg=0x30 ien=0x1 armed=1
1788535059.621718 [ACC] reads=3324 stale=3321 rderr=1 ax=74 ay=-123 az=1118
1788535059.624345 [PWR] pm=0x1 drift=0 rderr=0
1788535059.628345 [DWT] ok=1 cyc=3330885496 cyc_per_ms=800002
1788535060.642896 [HB] up_ms=75152 frames=3371 inf=3371 hazard=451 canary_err=0 q=0 qovr=0
1788535060.654160 [I2C] init=0 gate=0 whoami=0x140e0 wr=0 wrseen=0x27 addr=0x5a ok=23043 err=1 tmo=0 recov=4 pclk1=200000000 sysclk=400000000
1788535060.655523 [NAK] nacks=1
1788535060.660028 [CLK] cpu=800000000 sysb=400000000 pclk1=200000000
1788535060.664583 [TOF] res=0 step=0 id=0xeacc blk=0xeacc10 ctl=0x0
1788535060.670400 [RNG] init=0 step=99 id=0xeacc boot=1 calls=93 xerr=0 dm=1 tb=15
1788535060.677519 [RNG] osc=41 imp=881 imprb=881 mstart=0x40 cfg=91 cfgfail=0x0 vhv=0 vpolls=0
1788535060.683518 [PRT] calls=13605 xerr=0 ler=1 lidx=0x0 perr=0 maxcnt=17 addr8=0x52
1788535060.687649 [RTY] wr=0 wmax=0 wref=0  rd=0 rmax=0 rref=0
1788535060.695392 [RNG] frames=3373 last=36 min=29 max=55 nrdy=0 dxfer=0 dstat=0 lst=0 nrdyerr=0 dclr=0
1788535060.701645 [DRV] init=0 id=7 mode=0x1 lib=0x2 seq=0x1 odc=0x8b sts=0xe0 armed=1
1788535060.707026 [TRG] pulses=35 suppressed=416 cyc=1600 rst=1 rstmode=0x40
1788535060.710274 [HLT] polls=67 faults=0x0 cfglost=0
1788535060.716025 [EFF] n=5 last=58533 min=58470 max=58534 late=0 stuck=0 rderr=0
1788535060.726401 [IMU] init=0 addr=0x68 who=0x68 rst=1 pmrb0=0x40 pmrb=0x1 sr=19 cfg=4 gcfg=0x0 acfg=0x8 icfg=0x30 ien=0x1 armed=1
1788535060.731521 [ACC] reads=3374 stale=3371 rderr=1 ax=74 ay=-123 az=1112
1788535060.734176 [PWR] pm=0x1 drift=0 rderr=0
1788535060.738169 [DWT] ok=1 cyc=4212482320 cyc_per_ms=799997
1788535061.752324 [HB] up_ms=76253 frames=3421 inf=3421 hazard=451 canary_err=0 q=0 qovr=0
1788535061.763448 [I2C] init=0 gate=0 whoami=0x140e0 wr=0 wrseen=0x27 addr=0x5a ok=23345 err=1 tmo=0 recov=4 pclk1=200000000 sysclk=400000000
1788535061.764826 [NAK] nacks=1
1788535061.769442 [CLK] cpu=800000000 sysb=400000000 pclk1=200000000
1788535061.773958 [TOF] res=0 step=0 id=0xeacc blk=0xeacc10 ctl=0x0
1788535061.779703 [RNG] init=0 step=99 id=0xeacc boot=1 calls=93 xerr=0 dm=1 tb=15
1788535061.786821 [RNG] osc=41 imp=881 imprb=881 mstart=0x40 cfg=91 cfgfail=0x0 vhv=0 vpolls=0
1788535061.792950 [PRT] calls=13805 xerr=0 ler=1 lidx=0x0 perr=0 maxcnt=17 addr8=0x52
1788535061.796955 [RTY] wr=0 wmax=0 wref=0  rd=0 rmax=0 rref=0
1788535061.804695 [RNG] frames=3423 last=42 min=29 max=55 nrdy=0 dxfer=0 dstat=0 lst=0 nrdyerr=0 dclr=0
1788535061.811076 [DRV] init=0 id=7 mode=0x1 lib=0x2 seq=0x1 odc=0x8b sts=0xe0 armed=1
1788535061.816326 [TRG] pulses=35 suppressed=416 cyc=1600 rst=1 rstmode=0x40
1788535061.819572 [HLT] polls=68 faults=0x0 cfglost=0
1788535061.825336 [EFF] n=5 last=58533 min=58470 max=58534 late=0 stuck=0 rderr=0
1788535061.835703 [IMU] init=0 addr=0x68 who=0x68 rst=1 pmrb0=0x40 pmrb=0x1 sr=19 cfg=4 gcfg=0x0 acfg=0x8 icfg=0x30 ien=0x1 armed=1
1788535061.840826 [ACC] reads=3424 stale=3421 rderr=1 ax=74 ay=-124 az=1114
1788535061.843592 [PWR] pm=0x1 drift=0 rderr=0
1788535061.847465 [DWT] ok=1 cyc=798314548 cyc_per_ms=799999
1788535062.861163 [HB] up_ms=77354 frames=3471 inf=3471 hazard=451 canary_err=0 q=0 qovr=0
1788535062.872260 [I2C] init=0 gate=0 whoami=0x140e0 wr=0 wrseen=0x27 addr=0x5a ok=23647 err=1 tmo=0 recov=4 pclk1=200000000 sysclk=400000000
1788535062.873629 [NAK] nacks=1
1788535062.878264 [CLK] cpu=800000000 sysb=400000000 pclk1=200000000
1788535062.882758 [TOF] res=0 step=0 id=0xeacc blk=0xeacc10 ctl=0x0
1788535062.888633 [RNG] init=0 step=99 id=0xeacc boot=1 calls=93 xerr=0 dm=1 tb=15
1788535062.895511 [RNG] osc=41 imp=881 imprb=881 mstart=0x40 cfg=91 cfgfail=0x0 vhv=0 vpolls=0
1788535062.901755 [PRT] calls=14001 xerr=0 ler=1 lidx=0x0 perr=0 maxcnt=17 addr8=0x52
1788535062.905881 [RTY] wr=0 wmax=0 wref=0  rd=0 rmax=0 rref=0
1788535062.913506 [RNG] frames=3473 last=41 min=29 max=55 nrdy=0 dxfer=0 dstat=0 lst=0 nrdyerr=0 dclr=0
1788535062.919759 [DRV] init=0 id=7 mode=0x1 lib=0x2 seq=0x1 odc=0x8b sts=0xe0 armed=1
1788535062.925157 [TRG] pulses=35 suppressed=416 cyc=1600 rst=1 rstmode=0x40
1788535062.928381 [HLT] polls=69 faults=0x0 cfglost=0
1788535062.934155 [EFF] n=5 last=58533 min=58470 max=58534 late=0 stuck=0 rderr=0
1788535062.944506 [IMU] init=0 addr=0x68 who=0x68 rst=1 pmrb0=0x40 pmrb=0x1 sr=19 cfg=4 gcfg=0x0 acfg=0x8 icfg=0x30 ien=0x1 armed=1
1788535062.949635 [ACC] reads=3474 stale=3471 rderr=1 ax=73 ay=-123 az=1114
1788535062.952380 [PWR] pm=0x1 drift=0 rderr=0
1788535062.956259 [DWT] ok=1 cyc=1679114868 cyc_per_ms=800000
1788535063.969946 [HB] up_ms=78455 frames=3521 inf=3521 hazard=451 canary_err=0 q=0 qovr=0
1788535063.981066 [I2C] init=0 gate=0 whoami=0x140e0 wr=0 wrseen=0x27 addr=0x5a ok=23949 err=1 tmo=0 recov=4 pclk1=200000000 sysclk=400000000
1788535063.982344 [NAK] nacks=1
1788535063.987067 [CLK] cpu=800000000 sysb=400000000 pclk1=200000000
1788535063.991573 [TOF] res=0 step=0 id=0xeacc blk=0xeacc10 ctl=0x0
1788535063.997431 [RNG] init=0 step=99 id=0xeacc boot=1 calls=93 xerr=0 dm=1 tb=15
1788535064.004309 [RNG] osc=41 imp=881 imprb=881 mstart=0x40 cfg=91 cfgfail=0x0 vhv=0 vpolls=0
1788535064.010578 [PRT] calls=14201 xerr=0 ler=1 lidx=0x0 perr=0 maxcnt=17 addr8=0x52
1788535064.014696 [RTY] wr=0 wmax=0 wref=0  rd=0 rmax=0 rref=0
1788535064.022322 [RNG] frames=3523 last=40 min=29 max=55 nrdy=0 dxfer=0 dstat=0 lst=0 nrdyerr=0 dclr=0
1788535064.028566 [DRV] init=0 id=7 mode=0x1 lib=0x2 seq=0x1 odc=0x8b sts=0xe0 armed=1
1788535064.034073 [TRG] pulses=35 suppressed=416 cyc=1600 rst=1 rstmode=0x40
1788535064.037318 [HLT] polls=70 faults=0x0 cfglost=0
1788535064.043072 [EFF] n=5 last=58533 min=58470 max=58534 late=0 stuck=0 rderr=0
1788535064.053204 [IMU] init=0 addr=0x68 who=0x68 rst=1 pmrb0=0x40 pmrb=0x1 sr=19 cfg=4 gcfg=0x0 acfg=0x8 icfg=0x30 ien=0x1 armed=1
1788535064.058579 [ACC] reads=3523 stale=3520 rderr=1 ax=71 ay=-124 az=1115
1788535064.061184 [PWR] pm=0x1 drift=0 rderr=0
1788535064.065196 [DWT] ok=1 cyc=2559942900 cyc_per_ms=800025
1788535065.079625 [HB] up_ms=79557 frames=3570 inf=3570 hazard=451 canary_err=0 q=0 qovr=0
1788535065.090621 [I2C] init=0 gate=0 whoami=0x140e0 wr=0 wrseen=0x27 addr=0x5a ok=24251 err=1 tmo=0 recov=4 pclk1=200000000 sysclk=400000000
1788535065.091995 [NAK] nacks=1
1788535065.096492 [CLK] cpu=800000000 sysb=400000000 pclk1=200000000
1788535065.101239 [TOF] res=0 step=0 id=0xeacc blk=0xeacc10 ctl=0x0
1788535065.106994 [RNG] init=0 step=99 id=0xeacc boot=1 calls=93 xerr=0 dm=1 tb=15
1788535065.113994 [RNG] osc=41 imp=881 imprb=881 mstart=0x40 cfg=91 cfgfail=0x0 vhv=0 vpolls=0
1788535065.120029 [PRT] calls=14401 xerr=0 ler=1 lidx=0x0 perr=0 maxcnt=17 addr8=0x52
1788535065.124262 [RTY] wr=0 wmax=0 wref=0  rd=0 rmax=0 rref=0
1788535065.131992 [RNG] frames=3573 last=45 min=29 max=55 nrdy=0 dxfer=0 dstat=0 lst=0 nrdyerr=0 dclr=0
1788535065.138159 [DRV] init=0 id=7 mode=0x1 lib=0x2 seq=0x1 odc=0x8b sts=0xe0 armed=1
1788535065.143373 [TRG] pulses=35 suppressed=416 cyc=1600 rst=1 rstmode=0x40
1788535065.146878 [HLT] polls=71 faults=0x0 cfglost=0
1788535065.152629 [EFF] n=5 last=58533 min=58470 max=58534 late=0 stuck=0 rderr=0
1788535065.162752 [IMU] init=0 addr=0x68 who=0x68 rst=1 pmrb0=0x40 pmrb=0x1 sr=19 cfg=4 gcfg=0x0 acfg=0x8 icfg=0x30 ien=0x1 armed=1
1788535065.168147 [ACC] reads=3573 stale=3570 rderr=1 ax=73 ay=-121 az=1116
1788535065.170743 [PWR] pm=0x1 drift=0 rderr=0
1788535065.174757 [DWT] ok=1 cyc=3441648606 cyc_per_ms=800095
1788535066.189062 [HB] up_ms=80659 frames=3620 inf=3620 hazard=451 canary_err=0 q=0 qovr=0
1788535066.200055 [I2C] init=0 gate=0 whoami=0x140e0 wr=0 wrseen=0x27 addr=0x5a ok=24553 err=1 tmo=0 recov=4 pclk1=200000000 sysclk=400000000
1788535066.201291 [NAK] nacks=1
1788535066.205925 [CLK] cpu=800000000 sysb=400000000 pclk1=200000000
1788535066.210558 [TOF] res=0 step=0 id=0xeacc blk=0xeacc10 ctl=0x0
1788535066.216421 [RNG] init=0 step=99 id=0xeacc boot=1 calls=93 xerr=0 dm=1 tb=15
1788535066.223306 [RNG] osc=41 imp=881 imprb=881 mstart=0x40 cfg=91 cfgfail=0x0 vhv=0 vpolls=0
1788535066.229442 [PRT] calls=14601 xerr=0 ler=1 lidx=0x0 perr=0 maxcnt=17 addr8=0x52
1788535066.233557 [RTY] wr=0 wmax=0 wref=0  rd=0 rmax=0 rref=0
1788535066.241315 [RNG] frames=3622 last=36 min=29 max=55 nrdy=0 dxfer=0 dstat=0 lst=0 nrdyerr=0 dclr=0
1788535066.247552 [DRV] init=0 id=7 mode=0x1 lib=0x2 seq=0x1 odc=0x8b sts=0xe0 armed=1
1788535066.252801 [TRG] pulses=35 suppressed=416 cyc=1600 rst=1 rstmode=0x40
1788535066.256064 [HLT] polls=72 faults=0x0 cfglost=0
1788535066.261936 [EFF] n=5 last=58533 min=58470 max=58534 late=0 stuck=0 rderr=0
1788535066.272221 [IMU] init=0 addr=0x68 who=0x68 rst=1 pmrb0=0x40 pmrb=0x1 sr=19 cfg=4 gcfg=0x0 acfg=0x8 icfg=0x30 ien=0x1 armed=1
1788535066.277314 [ACC] reads=3623 stale=3620 rderr=1 ax=75 ay=-120 az=1118
1788535066.280057 [PWR] pm=0x1 drift=0 rderr=0
1788535066.283936 [DWT] ok=1 cyc=28218938 cyc_per_ms=799943
1788535067.297499 [HB] up_ms=81760 frames=3670 inf=3670 hazard=481 canary_err=0 q=0 qovr=0
1788535067.308618 [I2C] init=0 gate=0 whoami=0x140e0 wr=0 wrseen=0x27 addr=0x5a ok=24845 err=2 tmo=0 recov=6 pclk1=200000000 sysclk=400000000
1788535067.309981 [NAK] nacks=1
1788535067.314485 [CLK] cpu=800000000 sysb=400000000 pclk1=200000000
1788535067.318977 [TOF] res=0 step=0 id=0xeacc blk=0xeacc10 ctl=0x0
1788535067.324977 [RNG] init=0 step=99 id=0xeacc boot=1 calls=93 xerr=0 dm=1 tb=15
1788535067.331853 [RNG] osc=41 imp=881 imprb=881 mstart=0x40 cfg=91 cfgfail=0x0 vhv=0 vpolls=0
1788535067.337984 [PRT] calls=14797 xerr=0 ler=1 lidx=0x0 perr=0 maxcnt=17 addr8=0x52
1788535067.342127 [RTY] wr=0 wmax=0 wref=0  rd=0 rmax=0 rref=0
1788535067.349857 [RNG] frames=3671 last=43 min=29 max=55 nrdy=0 dxfer=0 dstat=0 lst=0 nrdyerr=0 dclr=0
1788535067.356127 [DRV] init=0 id=7 mode=0x1 lib=0x2 seq=0x1 odc=0x8b sts=0xe0 armed=1
1788535067.361352 [TRG] pulses=38 suppressed=445 cyc=1600 rst=1 rstmode=0x40
1788535067.364604 [HLT] polls=73 faults=0x0 cfglost=0
1788535067.370609 [EFF] n=5 last=58533 min=58470 max=58534 late=0 stuck=0 rderr=0
1788535067.380741 [IMU] init=0 addr=0x68 who=0x68 rst=1 pmrb0=0x40 pmrb=0x1 sr=19 cfg=4 gcfg=0x0 acfg=0x8 icfg=0x30 ien=0x1 armed=1
1788535067.385987 [ACC] reads=3671 stale=3669 rderr=2 ax=72 ay=-122 az=1115
1788535067.388612 [PWR] pm=0x1 drift=0 rderr=0
1788535067.392646 [DWT] ok=1 cyc=908934030 cyc_per_ms=799922
1788535068.406549 [HB] up_ms=82862 frames=3719 inf=3719 hazard=492 canary_err=0 q=0 qovr=0
1788535068.417794 [I2C] init=0 gate=0 whoami=0x140e0 wr=0 wrseen=0x27 addr=0x5a ok=25144 err=2 tmo=0 recov=6 pclk1=200000000 sysclk=400000000
1788535068.419032 [NAK] nacks=1
1788535068.423654 [CLK] cpu=800000000 sysb=400000000 pclk1=200000000
1788535068.428167 [TOF] res=0 step=0 id=0xeacc blk=0xeacc10 ctl=0x0
1788535068.434191 [RNG] init=0 step=99 id=0xeacc boot=1 calls=93 xerr=0 dm=1 tb=15
1788535068.441031 [RNG] osc=41 imp=881 imprb=881 mstart=0x40 cfg=91 cfgfail=0x0 vhv=0 vpolls=0
1788535068.447199 [PRT] calls=14997 xerr=0 ler=1 lidx=0x0 perr=0 maxcnt=17 addr8=0x52
1788535068.451178 [RTY] wr=0 wmax=0 wref=0  rd=0 rmax=0 rref=0
1788535068.459050 [RNG] frames=3721 last=37 min=29 max=55 nrdy=0 dxfer=0 dstat=0 lst=0 nrdyerr=0 dclr=0
1788535068.465173 [DRV] init=0 id=7 mode=0x1 lib=0x2 seq=0x1 odc=0x8b sts=0xe0 armed=1
1788535068.470534 [TRG] pulses=38 suppressed=454 cyc=1600 rst=1 rstmode=0x40
1788535068.473792 [HLT] polls=74 faults=0x0 cfglost=0
1788535068.479677 [EFF] n=5 last=58533 min=58470 max=58534 late=0 stuck=0 rderr=0
1788535068.489793 [IMU] init=0 addr=0x68 who=0x68 rst=1 pmrb0=0x40 pmrb=0x1 sr=19 cfg=4 gcfg=0x0 acfg=0x8 icfg=0x30 ien=0x1 armed=1
1788535068.495061 [ACC] reads=3721 stale=3719 rderr=2 ax=72 ay=-123 az=1117
1788535068.497668 [PWR] pm=0x1 drift=0 rderr=0
1788535068.501798 [DWT] ok=1 cyc=1790547520 cyc_per_ms=800012
1788535069.515729 [HB] up_ms=83964 frames=3769 inf=3769 hazard=492 canary_err=0 q=0 qovr=0
1788535069.526978 [I2C] init=0 gate=0 whoami=0x140e0 wr=0 wrseen=0x27 addr=0x5a ok=25446 err=2 tmo=0 recov=6 pclk1=200000000 sysclk=400000000
1788535069.528345 [NAK] nacks=1
1788535069.532855 [CLK] cpu=800000000 sysb=400000000 pclk1=200000000
1788535069.537349 [TOF] res=0 step=0 id=0xeacc blk=0xeacc10 ctl=0x0
1788535069.543215 [RNG] init=0 step=99 id=0xeacc boot=1 calls=93 xerr=0 dm=1 tb=15
1788535069.550337 [RNG] osc=41 imp=881 imprb=881 mstart=0x40 cfg=91 cfgfail=0x0 vhv=0 vpolls=0
1788535069.556365 [PRT] calls=15197 xerr=0 ler=1 lidx=0x0 perr=0 maxcnt=17 addr8=0x52
1788535069.560476 [RTY] wr=0 wmax=0 wref=0  rd=0 rmax=0 rref=0
1788535069.568353 [RNG] frames=3771 last=44 min=29 max=55 nrdy=0 dxfer=0 dstat=0 lst=0 nrdyerr=0 dclr=0
1788535069.574478 [DRV] init=0 id=7 mode=0x1 lib=0x2 seq=0x1 odc=0x8b sts=0xe0 armed=1
1788535069.579714 [TRG] pulses=38 suppressed=454 cyc=1600 rst=1 rstmode=0x40
1788535069.583088 [HLT] polls=75 faults=0x0 cfglost=0
1788535069.588734 [EFF] n=5 last=58533 min=58470 max=58534 late=0 stuck=0 rderr=0
1788535069.599128 [IMU] init=0 addr=0x68 who=0x68 rst=1 pmrb0=0x40 pmrb=0x1 sr=19 cfg=4 gcfg=0x0 acfg=0x8 icfg=0x30 ien=0x1 armed=1
1788535069.604350 [ACC] reads=3771 stale=3769 rderr=2 ax=72 ay=-122 az=1117
1788535069.606976 [PWR] pm=0x1 drift=0 rderr=0
1788535069.610977 [DWT] ok=1 cyc=2672147412 cyc_per_ms=799999
1788535070.624281 [HB] up_ms=85065 frames=3819 inf=3819 hazard=492 canary_err=0 q=0 qovr=0
1788535070.635404 [I2C] init=0 gate=0 whoami=0x140e0 wr=0 wrseen=0x27 addr=0x5a ok=25748 err=2 tmo=0 recov=6 pclk1=200000000 sysclk=400000000
1788535070.636770 [NAK] nacks=1
1788535070.641401 [CLK] cpu=800000000 sysb=400000000 pclk1=200000000
1788535070.645894 [TOF] res=0 step=0 id=0xeacc blk=0xeacc10 ctl=0x0
1788535070.651649 [RNG] init=0 step=99 id=0xeacc boot=1 calls=93 xerr=0 dm=1 tb=15
1788535070.658774 [RNG] osc=41 imp=881 imprb=881 mstart=0x40 cfg=91 cfgfail=0x0 vhv=0 vpolls=0
1788535070.664902 [PRT] calls=15397 xerr=0 ler=1 lidx=0x0 perr=0 maxcnt=17 addr8=0x52
1788535070.668896 [RTY] wr=0 wmax=0 wref=0  rd=0 rmax=0 rref=0
1788535070.676646 [RNG] frames=3821 last=45 min=28 max=57 nrdy=0 dxfer=0 dstat=0 lst=0 nrdyerr=0 dclr=0
1788535070.682897 [DRV] init=0 id=7 mode=0x1 lib=0x2 seq=0x1 odc=0x8b sts=0xe0 armed=1
1788535070.688273 [TRG] pulses=38 suppressed=454 cyc=1600 rst=1 rstmode=0x40
1788535070.691528 [HLT] polls=76 faults=0x0 cfglost=0
1788535070.697276 [EFF] n=5 last=58533 min=58470 max=58534 late=0 stuck=0 rderr=0
1788535070.707523 [IMU] init=0 addr=0x68 who=0x68 rst=1 pmrb0=0x40 pmrb=0x1 sr=19 cfg=4 gcfg=0x0 acfg=0x8 icfg=0x30 ien=0x1 armed=1
1788535070.712775 [ACC] reads=3821 stale=3819 rderr=2 ax=77 ay=-121 az=1114
1788535070.715420 [PWR] pm=0x1 drift=0 rderr=0
1788535070.719404 [DWT] ok=1 cyc=3552947444 cyc_per_ms=800000
1788535071.732347 [HB] up_ms=86166 frames=3869 inf=3869 hazard=492 canary_err=0 q=0 qovr=0
1788535071.743594 [I2C] init=0 gate=0 whoami=0x140e0 wr=0 wrseen=0x27 addr=0x5a ok=26050 err=2 tmo=0 recov=6 pclk1=200000000 sysclk=400000000
1788535071.744960 [NAK] nacks=1
1788535071.749465 [CLK] cpu=800000000 sysb=400000000 pclk1=200000000
1788535071.753955 [TOF] res=0 step=0 id=0xeacc blk=0xeacc10 ctl=0x0
1788535071.759837 [RNG] init=0 step=99 id=0xeacc boot=1 calls=93 xerr=0 dm=1 tb=15
1788535071.766836 [RNG] osc=41 imp=881 imprb=881 mstart=0x40 cfg=91 cfgfail=0x0 vhv=0 vpolls=0
1788535071.772949 [PRT] calls=15596 xerr=0 ler=1 lidx=0x0 perr=0 maxcnt=17 addr8=0x52
1788535071.777086 [RTY] wr=0 wmax=0 wref=0  rd=0 rmax=0 rref=0
1788535071.784721 [RNG] frames=3871 last=45 min=28 max=57 nrdy=0 dxfer=0 dstat=0 lst=0 nrdyerr=0 dclr=0
1788535071.791089 [DRV] init=0 id=7 mode=0x1 lib=0x2 seq=0x1 odc=0x8b sts=0xe0 armed=1
1788535071.796343 [TRG] pulses=38 suppressed=454 cyc=1600 rst=1 rstmode=0x40
1788535071.799589 [HLT] polls=77 faults=0x0 cfglost=0
1788535071.805333 [EFF] n=5 last=58533 min=58470 max=58534 late=0 stuck=0 rderr=0
1788535071.815714 [IMU] init=0 addr=0x68 who=0x68 rst=1 pmrb0=0x40 pmrb=0x1 sr=19 cfg=4 gcfg=0x0 acfg=0x8 icfg=0x30 ien=0x1 armed=1
1788535071.820832 [ACC] reads=3871 stale=3869 rderr=2 ax=73 ay=-121 az=1115
1788535071.823456 [PWR] pm=0x1 drift=0 rderr=0
1788535071.827459 [DWT] ok=1 cyc=138780304 cyc_per_ms=800000
1788535072.840646 [HB] up_ms=87267 frames=3919 inf=3919 hazard=492 canary_err=0 q=0 qovr=0
1788535072.851648 [I2C] init=0 gate=0 whoami=0x140e0 wr=0 wrseen=0x27 addr=0x5a ok=26352 err=2 tmo=0 recov=6 pclk1=200000000 sysclk=400000000
1788535072.853008 [NAK] nacks=1
1788535072.857759 [CLK] cpu=800000000 sysb=400000000 pclk1=200000000
1788535072.862274 [TOF] res=0 step=0 id=0xeacc blk=0xeacc10 ctl=0x0
1788535072.868169 [RNG] init=0 step=99 id=0xeacc boot=1 calls=93 xerr=0 dm=1 tb=15
1788535072.875013 [RNG] osc=41 imp=881 imprb=881 mstart=0x40 cfg=91 cfgfail=0x0 vhv=0 vpolls=0
1788535072.881265 [PRT] calls=15793 xerr=0 ler=1 lidx=0x0 perr=0 maxcnt=17 addr8=0x52
1788535072.885261 [RTY] wr=0 wmax=0 wref=0  rd=0 rmax=0 rref=0
1788535072.893033 [RNG] frames=3921 last=43 min=28 max=57 nrdy=0 dxfer=0 dstat=0 lst=0 nrdyerr=0 dclr=0
1788535072.899163 [DRV] init=0 id=7 mode=0x1 lib=0x2 seq=0x1 odc=0x8b sts=0xe0 armed=1
1788535072.904643 [TRG] pulses=38 suppressed=454 cyc=1600 rst=1 rstmode=0x40
1788535072.907885 [HLT] polls=78 faults=0x0 cfglost=0
1788535072.913638 [EFF] n=5 last=58533 min=58470 max=58534 late=0 stuck=0 rderr=0
1788535072.923901 [IMU] init=0 addr=0x68 who=0x68 rst=1 pmrb0=0x40 pmrb=0x1 sr=19 cfg=4 gcfg=0x0 acfg=0x8 icfg=0x30 ien=0x1 armed=1
1788535072.929165 [ACC] reads=3921 stale=3919 rderr=2 ax=72 ay=-122 az=1114
1788535072.931765 [PWR] pm=0x1 drift=0 rderr=0
1788535072.935765 [DWT] ok=1 cyc=1019580316 cyc_per_ms=800000
1788535073.950076 [HB] up_ms=88368 frames=3968 inf=3968 hazard=500 canary_err=0 q=0 qovr=0
1788535073.961089 [I2C] init=0 gate=0 whoami=0x140e0 wr=0 wrseen=0x27 addr=0x5a ok=26654 err=2 tmo=0 recov=6 pclk1=200000000 sysclk=400000000
1788535073.962311 [NAK] nacks=1
1788535073.967078 [CLK] cpu=800000000 sysb=400000000 pclk1=200000000
1788535073.971703 [TOF] res=0 step=0 id=0xeacc blk=0xeacc10 ctl=0x0
1788535073.977448 [RNG] init=0 step=99 id=0xeacc boot=1 calls=93 xerr=0 dm=1 tb=15
1788535073.984326 [RNG] osc=41 imp=881 imprb=881 mstart=0x40 cfg=91 cfgfail=0x0 vhv=0 vpolls=0
1788535073.990454 [PRT] calls=15993 xerr=0 ler=1 lidx=0x0 perr=0 maxcnt=17 addr8=0x52
1788535073.994705 [RTY] wr=0 wmax=0 wref=0  rd=0 rmax=0 rref=0
1788535074.002324 [RNG] frames=3971 last=40 min=28 max=57 nrdy=0 dxfer=0 dstat=0 lst=0 nrdyerr=0 dclr=0
1788535074.008568 [DRV] init=0 id=7 mode=0x1 lib=0x2 seq=0x1 odc=0x8b sts=0xe0 armed=1
1788535074.013940 [TRG] pulses=39 suppressed=464 cyc=1600 rst=1 rstmode=0x40
1788535074.017322 [HLT] polls=79 faults=0x0 cfglost=0
1788535074.023082 [EFF] n=5 last=58533 min=58470 max=58534 late=0 stuck=0 rderr=0
1788535074.033211 [IMU] init=0 addr=0x68 who=0x68 rst=1 pmrb0=0x40 pmrb=0x1 sr=19 cfg=4 gcfg=0x0 acfg=0x8 icfg=0x30 ien=0x1 armed=1
1788535074.038577 [ACC] reads=3970 stale=3968 rderr=2 ax=73 ay=-125 az=1112
1788535074.041205 [PWR] pm=0x1 drift=0 rderr=0
1788535074.045227 [DWT] ok=1 cyc=1900518026 cyc_per_ms=800125
1788535075.059519 [HB] up_ms=89470 frames=4018 inf=4018 hazard=533 canary_err=0 q=0 qovr=0
1788535075.070620 [I2C] init=0 gate=0 whoami=0x140e0 wr=0 wrseen=0x27 addr=0x5a ok=26956 err=2 tmo=0 recov=6 pclk1=200000000 sysclk=400000000
1788535075.082866 [NAK] nacks=1
1788535075.082957 [CLK] cpu=800000000 sysb=400000000 pclk1=200000000
1788535075.083042 [TOF] res=0 step=0 id=0xeacc blk=0xeacc10 ctl=0x0
1788535075.086997 [RNG] init=0 step=99 id=0xeacc boot=1 calls=93 xerr=0 dm=1 tb=15
1788535075.093870 [RNG] osc=41 imp=881 imprb=881 mstart=0x40 cfg=91 cfgfail=0x0 vhv=0 vpolls=0
1788535075.100005 [PRT] calls=16193 xerr=0 ler=1 lidx=0x0 perr=0 maxcnt=17 addr8=0x52
1788535075.104246 [RTY] wr=0 wmax=0 wref=0  rd=0 rmax=0 rref=0
1788535075.111884 [RNG] frames=4020 last=41 min=28 max=57 nrdy=0 dxfer=0 dstat=0 lst=0 nrdyerr=0 dclr=0
1788535075.118146 [DRV] init=0 id=7 mode=0x1 lib=0x2 seq=0x1 odc=0x8b sts=0xe0 armed=1
1788535075.123382 [TRG] pulses=41 suppressed=492 cyc=1600 rst=1 rstmode=0x40
1788535075.126761 [HLT] polls=80 faults=0x0 cfglost=0
1788535075.132632 [EFF] n=5 last=58533 min=58470 max=58534 late=0 stuck=0 rderr=0
1788535075.142749 [IMU] init=0 addr=0x68 who=0x68 rst=1 pmrb0=0x40 pmrb=0x1 sr=19 cfg=4 gcfg=0x0 acfg=0x8 icfg=0x30 ien=0x1 armed=1
1788535075.148008 [ACC] reads=4020 stale=4018 rderr=2 ax=75 ay=-122 az=1118
1788535075.150753 [PWR] pm=0x1 drift=0 rderr=0
1788535075.154764 [DWT] ok=1 cyc=2782102474 cyc_per_ms=799985
1788535076.169433 [HB] up_ms=90572 frames=4068 inf=4068 hazard=533 canary_err=0 q=0 qovr=0
1788535076.180567 [I2C] init=0 gate=0 whoami=0x140e0 wr=0 wrseen=0x27 addr=0x5a ok=27253 err=2 tmo=0 recov=6 pclk1=200000000 sysclk=400000000
1788535076.181809 [NAK] nacks=1
1788535076.186432 [CLK] cpu=800000000 sysb=400000000 pclk1=200000000
1788535076.190939 [TOF] res=0 step=0 id=0xeacc blk=0xeacc10 ctl=0x0
1788535076.196927 [RNG] init=0 step=99 id=0xeacc boot=1 calls=93 xerr=0 dm=1 tb=15
1788535076.203833 [RNG] osc=41 imp=881 imprb=881 mstart=0x40 cfg=91 cfgfail=0x0 vhv=0 vpolls=0
1788535076.209928 [PRT] calls=16393 xerr=0 ler=1 lidx=0x0 perr=0 maxcnt=17 addr8=0x52
1788535076.214051 [RTY] wr=0 wmax=0 wref=0  rd=0 rmax=0 rref=0
1788535076.221821 [RNG] frames=4070 last=37 min=28 max=57 nrdy=0 dxfer=0 dstat=0 lst=0 nrdyerr=0 dclr=0
1788535076.228051 [DRV] init=0 id=7 mode=0x1 lib=0x2 seq=0x1 odc=0x8b sts=0xe0 armed=1
1788535076.233309 [TRG] pulses=41 suppressed=492 cyc=1600 rst=1 rstmode=0x40
1788535076.236561 [HLT] polls=81 faults=0x0 cfglost=0
1788535076.242560 [EFF] n=5 last=58533 min=58470 max=58534 late=0 stuck=0 rderr=0
1788535076.252696 [IMU] init=0 addr=0x68 who=0x68 rst=1 pmrb0=0x40 pmrb=0x1 sr=19 cfg=4 gcfg=0x0 acfg=0x8 icfg=0x30 ien=0x1 armed=1
1788535076.257938 [ACC] reads=4070 stale=4068 rderr=2 ax=73 ay=-124 az=1114
1788535076.260560 [PWR] pm=0x1 drift=0 rderr=0
1788535076.264681 [DWT] ok=1 cyc=3663580316 cyc_per_ms=799889
1788535077.279745 [HB] up_ms=91674 frames=4118 inf=4118 hazard=533 canary_err=0 q=0 qovr=0
1788535077.290989 [I2C] init=0 gate=0 whoami=0x140e0 wr=0 wrseen=0x27 addr=0x5a ok=27554 err=2 tmo=0 recov=6 pclk1=200000000 sysclk=400000000
1788535077.292361 [NAK] nacks=1
1788535077.296868 [CLK] cpu=800000000 sysb=400000000 pclk1=200000000
1788535077.301486 [TOF] res=0 step=0 id=0xeacc blk=0xeacc10 ctl=0x0
1788535077.307361 [RNG] init=0 step=99 id=0xeacc boot=1 calls=93 xerr=0 dm=1 tb=15
1788535077.314381 [RNG] osc=41 imp=881 imprb=881 mstart=0x40 cfg=91 cfgfail=0x0 vhv=0 vpolls=0
1788535077.320358 [PRT] calls=16593 xerr=0 ler=1 lidx=0x0 perr=0 maxcnt=17 addr8=0x52
1788535077.324480 [RTY] wr=0 wmax=0 wref=0  rd=0 rmax=0 rref=0
1788535077.332363 [RNG] frames=4120 last=46 min=28 max=57 nrdy=0 dxfer=0 dstat=0 lst=0 nrdyerr=0 dclr=0
1788535077.338486 [DRV] init=0 id=7 mode=0x1 lib=0x2 seq=0x1 odc=0x8b sts=0xe0 armed=1
1788535077.343865 [TRG] pulses=41 suppressed=492 cyc=1600 rst=1 rstmode=0x40
1788535077.347197 [HLT] polls=82 faults=0x0 cfglost=0
1788535077.352868 [EFF] n=5 last=58533 min=58470 max=58534 late=0 stuck=0 rderr=0
1788535077.363142 [IMU] init=0 addr=0x68 who=0x68 rst=1 pmrb0=0x40 pmrb=0x1 sr=19 cfg=4 gcfg=0x0 acfg=0x8 icfg=0x30 ien=0x1 armed=1
1788535077.368366 [ACC] reads=4120 stale=4118 rderr=2 ax=72 ay=-124 az=1116
1788535077.370987 [PWR] pm=0x1 drift=0 rderr=0
1788535077.374863 [DWT] ok=1 cyc=250212924 cyc_per_ms=799999
1788535078.388546 [HB] up_ms=92775 frames=4168 inf=4168 hazard=533 canary_err=0 q=0 qovr=0
1788535078.399794 [I2C] init=0 gate=0 whoami=0x140e0 wr=0 wrseen=0x27 addr=0x5a ok=27856 err=2 tmo=0 recov=6 pclk1=200000000 sysclk=400000000
1788535078.401052 [NAK] nacks=1
1788535078.405663 [CLK] cpu=800000000 sysb=400000000 pclk1=200000000
1788535078.410193 [TOF] res=0 step=0 id=0xeacc blk=0xeacc10 ctl=0x0
1788535078.416048 [RNG] init=0 step=99 id=0xeacc boot=1 calls=93 xerr=0 dm=1 tb=15
1788535078.423039 [RNG] osc=41 imp=881 imprb=881 mstart=0x40 cfg=91 cfgfail=0x0 vhv=0 vpolls=0
1788535078.429191 [PRT] calls=16793 xerr=0 ler=1 lidx=0x0 perr=0 maxcnt=17 addr8=0x52
1788535078.433177 [RTY] wr=0 wmax=0 wref=0  rd=0 rmax=0 rref=0
1788535078.440924 [RNG] frames=4170 last=40 min=28 max=57 nrdy=0 dxfer=0 dstat=0 lst=0 nrdyerr=0 dclr=0
1788535078.447288 [DRV] init=0 id=7 mode=0x1 lib=0x2 seq=0x1 odc=0x8b sts=0xe0 armed=1
1788535078.452554 [TRG] pulses=41 suppressed=492 cyc=1600 rst=1 rstmode=0x40
1788535078.455807 [HLT] polls=83 faults=0x0 cfglost=0
1788535078.461556 [EFF] n=5 last=58533 min=58470 max=58534 late=0 stuck=0 rderr=0
1788535078.471792 [IMU] init=0 addr=0x68 who=0x68 rst=1 pmrb0=0x40 pmrb=0x1 sr=19 cfg=4 gcfg=0x0 acfg=0x8 icfg=0x30 ien=0x1 armed=1
1788535078.477055 [ACC] reads=4170 stale=4167 rderr=2 ax=74 ay=-122 az=1113
1788535078.479676 [PWR] pm=0x1 drift=0 rderr=0
1788535078.483677 [DWT] ok=1 cyc=1131013132 cyc_per_ms=800000
1788535079.497227 [HB] up_ms=93876 frames=4218 inf=4218 hazard=533 canary_err=0 q=0 qovr=0
1788535079.508362 [I2C] init=0 gate=0 whoami=0x140e0 wr=0 wrseen=0x27 addr=0x5a ok=28158 err=2 tmo=0 recov=6 pclk1=200000000 sysclk=400000000
