1788555831.202467 [HB] up_ms=170984 frames=7711 inf=7711 hazard=984 canary_err=0 q=0 qovr=0
1788555831.213594 [I2C] init=0 gate=0 whoami=0x140e0 wr=0 wrseen=0x27 addr=0x5a ok=49258 err=0 tmo=0 recov=0 pclk1=200000000 sysclk=400000000
1788555831.215096 [NAK] nacks=0
1788555831.219569 [CLK] cpu=800000000 sysb=400000000 pclk1=200000000
1788555831.224070 [TOF] res=0 step=0 id=0xeacc blk=0xeacc10 ctl=0x0
1788555831.229855 [RNG] init=0 step=99 id=0xeacc boot=1 calls=93 xerr=0 dm=1 tb=15
1788555831.236953 [RNG] osc=41 imp=881 imprb=881 mstart=0x40 cfg=91 cfgfail=0x0 vhv=0 vpolls=0
1788555831.243236 [PRT] calls=30961 xerr=0 ler=1 lidx=0x0 perr=0 maxcnt=17 addr8=0x52
1788555831.247094 [RTY] wr=0 wmax=0 wref=0  rd=0 rmax=0 rref=0
1788555831.254823 [RNG] frames=7711 last=49 min=29 max=53 nrdy=2 dxfer=0 dstat=0 lst=0 nrdyerr=0 dclr=0
1788555831.261180 [DRV] init=0 id=7 mode=0x1 lib=0x2 seq=0x1 odc=0x8b sts=0xe0 armed=1
1788555831.266442 [TRG] pulses=74 suppressed=910 cyc=1600 rst=1 rstmode=0x40
1788555831.269815 [HLT] polls=154 faults=0x0 cfglost=0
1788555831.275557 [EFF] n=5 last=58539 min=58421 max=58540 late=0 stuck=0 rderr=0
1788555831.285813 [IMU] init=0 addr=0x68 who=0x68 rst=1 pmrb0=0x40 pmrb=0x1 sr=19 cfg=4 gcfg=0x0 acfg=0x8 icfg=0x30 ien=0x1 armed=1
1788555831.290932 [ACC] reads=7715 stale=7708 rderr=0 ax=45 ay=-74 az=1121
1788555831.293678 [PWR] pm=0x1 drift=0 rderr=0
1788555831.297573 [DWT] ok=1 cyc=3568740724 cyc_per_ms=799999
1788555832.312412 [HB] up_ms=172086 frames=7761 inf=7761 hazard=984 canary_err=0 q=0 qovr=0
1788555832.323716 [I2C] init=0 gate=0 whoami=0x140e0 wr=0 wrseen=0x27 addr=0x5a ok=49560 err=0 tmo=0 recov=0 pclk1=200000000 sysclk=400000000
1788555832.324993 [NAK] nacks=0
1788555832.329510 [CLK] cpu=800000000 sysb=400000000 pclk1=200000000
1788555832.334048 [TOF] res=0 step=0 id=0xeacc blk=0xeacc10 ctl=0x0
1788555832.339919 [RNG] init=0 step=99 id=0xeacc boot=1 calls=93 xerr=0 dm=1 tb=15
1788555832.346894 [RNG] osc=41 imp=881 imprb=881 mstart=0x40 cfg=91 cfgfail=0x0 vhv=0 vpolls=0
1788555832.353014 [PRT] calls=31161 xerr=0 ler=1 lidx=0x0 perr=0 maxcnt=17 addr8=0x52
1788555832.357235 [RTY] wr=0 wmax=0 wref=0  rd=0 rmax=0 rref=0
1788555832.364758 [RNG] frames=7761 last=48 min=29 max=53 nrdy=2 dxfer=0 dstat=0 lst=0 nrdyerr=0 dclr=0
1788555832.371168 [DRV] init=0 id=7 mode=0x1 lib=0x2 seq=0x1 odc=0x8b sts=0xe0 armed=1
1788555832.376532 [TRG] pulses=74 suppressed=910 cyc=1600 rst=1 rstmode=0x40
1788555832.379768 [HLT] polls=155 faults=0x0 cfglost=0
1788555832.385538 [EFF] n=5 last=58539 min=58421 max=58540 late=0 stuck=0 rderr=0
1788555832.395954 [IMU] init=0 addr=0x68 who=0x68 rst=1 pmrb0=0x40 pmrb=0x1 sr=19 cfg=4 gcfg=0x0 acfg=0x8 icfg=0x30 ien=0x1 armed=1
1788555832.401054 [ACC] reads=7765 stale=7758 rderr=0 ax=45 ay=-75 az=1124
1788555832.403664 [PWR] pm=0x1 drift=0 rderr=0
1788555832.407515 [DWT] ok=1 cyc=155373236 cyc_per_ms=799999
1788555833.422006 [HB] up_ms=173187 frames=7811 inf=7811 hazard=995 canary_err=0 q=0 qovr=0
1788555833.433218 [I2C] init=0 gate=0 whoami=0x140e0 wr=0 wrseen=0x27 addr=0x5a ok=49862 err=0 tmo=0 recov=0 pclk1=200000000 sysclk=400000000
1788555833.434527 [NAK] nacks=0
1788555833.439137 [CLK] cpu=800000000 sysb=400000000 pclk1=200000000
1788555833.443636 [TOF] res=0 step=0 id=0xeacc blk=0xeacc10 ctl=0x0
1788555833.449482 [RNG] init=0 step=99 id=0xeacc boot=1 calls=93 xerr=0 dm=1 tb=15
1788555833.456502 [RNG] osc=41 imp=881 imprb=881 mstart=0x40 cfg=91 cfgfail=0x0 vhv=0 vpolls=0
1788555833.462610 [PRT] calls=31357 xerr=0 ler=1 lidx=0x0 perr=0 maxcnt=17 addr8=0x52
1788555833.466739 [RTY] wr=0 wmax=0 wref=0  rd=0 rmax=0 rref=0
1788555833.474506 [RNG] frames=7811 last=44 min=29 max=53 nrdy=2 dxfer=0 dstat=0 lst=0 nrdyerr=0 dclr=0
1788555833.480731 [DRV] init=0 id=7 mode=0x1 lib=0x2 seq=0x1 odc=0x8b sts=0xe0 armed=1
1788555833.486135 [TRG] pulses=75 suppressed=923 cyc=1600 rst=1 rstmode=0x40
1788555833.489481 [HLT] polls=156 faults=0x0 cfglost=0
1788555833.495264 [EFF] n=5 last=58539 min=58421 max=58540 late=0 stuck=0 rderr=0
1788555833.505486 [IMU] init=0 addr=0x68 who=0x68 rst=1 pmrb0=0x40 pmrb=0x1 sr=19 cfg=4 gcfg=0x0 acfg=0x8 icfg=0x30 ien=0x1 armed=1
1788555833.510639 [ACC] reads=7815 stale=7807 rderr=0 ax=46 ay=-75 az=1125
1788555833.513366 [PWR] pm=0x1 drift=0 rderr=0
1788555833.517378 [DWT] ok=1 cyc=1036179492 cyc_per_ms=800005
1788555834.532241 [HB] up_ms=174289 frames=7861 inf=7861 hazard=1025 canary_err=0 q=0 qovr=0
1788555834.543355 [I2C] init=0 gate=0 whoami=0x140e0 wr=0 wrseen=0x27 addr=0x5a ok=50164 err=0 tmo=0 recov=0 pclk1=200000000 sysclk=400000000
1788555834.544589 [NAK] nacks=0
1788555834.549351 [CLK] cpu=800000000 sysb=400000000 pclk1=200000000
1788555834.553828 [TOF] res=0 step=0 id=0xeacc blk=0xeacc10 ctl=0x0
1788555834.559724 [RNG] init=0 step=99 id=0xeacc boot=1 calls=93 xerr=0 dm=1 tb=15
1788555834.566586 [RNG] osc=41 imp=881 imprb=881 mstart=0x40 cfg=91 cfgfail=0x0 vhv=0 vpolls=0
1788555834.572845 [PRT] calls=31557 xerr=0 ler=1 lidx=0x0 perr=0 maxcnt=17 addr8=0x52
1788555834.576942 [RTY] wr=0 wmax=0 wref=0  rd=0 rmax=0 rref=0
1788555834.584591 [RNG] frames=7861 last=43 min=29 max=53 nrdy=2 dxfer=0 dstat=0 lst=0 nrdyerr=0 dclr=0
1788555834.590830 [DRV] init=0 id=7 mode=0x1 lib=0x2 seq=0x1 odc=0x8b sts=0xe0 armed=1
1788555834.596347 [TRG] pulses=77 suppressed=948 cyc=1600 rst=1 rstmode=0x40
1788555834.599596 [HLT] polls=157 faults=0x0 cfglost=0
1788555834.605322 [EFF] n=5 last=58539 min=58421 max=58540 late=0 stuck=0 rderr=0
1788555834.615705 [IMU] init=0 addr=0x68 who=0x68 rst=1 pmrb0=0x40 pmrb=0x1 sr=19 cfg=4 gcfg=0x0 acfg=0x8 icfg=0x30 ien=0x1 armed=1
1788555834.620840 [ACC] reads=7865 stale=7857 rderr=0 ax=44 ay=-77 az=1126
1788555834.623461 [PWR] pm=0x1 drift=0 rderr=0
1788555834.627463 [DWT] ok=1 cyc=1917843378 cyc_per_ms=800057
1788555835.643013 [HB] up_ms=175391 frames=7911 inf=7911 hazard=1025 canary_err=0 q=0 qovr=0
1788555835.653913 [I2C] init=0 gate=0 whoami=0x140e0 wr=0 wrseen=0x27 addr=0x5a ok=50466 err=0 tmo=0 recov=0 pclk1=200000000 sysclk=400000000
1788555835.655290 [NAK] nacks=0
1788555835.660045 [CLK] cpu=800000000 sysb=400000000 pclk1=200000000
1788555835.664544 [TOF] res=0 step=0 id=0xeacc blk=0xeacc10 ctl=0x0
1788555835.670417 [RNG] init=0 step=99 id=0xeacc boot=1 calls=93 xerr=0 dm=1 tb=15
1788555835.677296 [RNG] osc=41 imp=881 imprb=881 mstart=0x40 cfg=91 cfgfail=0x0 vhv=0 vpolls=0
1788555835.683578 [PRT] calls=31757 xerr=0 ler=1 lidx=0x0 perr=0 maxcnt=17 addr8=0x52
1788555835.687787 [RTY] wr=0 wmax=0 wref=0  rd=0 rmax=0 rref=0
1788555835.695321 [RNG] frames=7911 last=39 min=29 max=53 nrdy=2 dxfer=0 dstat=0 lst=0 nrdyerr=0 dclr=0
1788555835.701555 [DRV] init=0 id=7 mode=0x1 lib=0x2 seq=0x1 odc=0x8b sts=0xe0 armed=1
1788555835.706924 [TRG] pulses=77 suppressed=948 cyc=1600 rst=1 rstmode=0x40
1788555835.710294 [HLT] polls=158 faults=0x0 cfglost=0
1788555835.716045 [EFF] n=5 last=58539 min=58421 max=58540 late=0 stuck=0 rderr=0
1788555835.726328 [IMU] init=0 addr=0x68 who=0x68 rst=1 pmrb0=0x40 pmrb=0x1 sr=19 cfg=4 gcfg=0x0 acfg=0x8 icfg=0x30 ien=0x1 armed=1
1788555835.731633 [ACC] reads=7914 stale=7906 rderr=0 ax=46 ay=-73 az=1124
1788555835.734255 [PWR] pm=0x1 drift=0 rderr=0
1788555835.738173 [DWT] ok=1 cyc=2799471482 cyc_per_ms=800025
1788555836.753552 [HB] up_ms=176493 frames=7960 inf=7960 hazard=1025 canary_err=0 q=0 qovr=0
1788555836.764859 [I2C] init=0 gate=0 whoami=0x140e0 wr=0 wrseen=0x27 addr=0x5a ok=50762 err=0 tmo=0 recov=1 pclk1=200000000 sysclk=400000000
1788555836.766018 [NAK] nacks=0
1788555836.770664 [CLK] cpu=800000000 sysb=400000000 pclk1=200000000
1788555836.775205 [TOF] res=0 step=0 id=0xeacc blk=0xeacc10 ctl=0x0
1788555836.781203 [RNG] init=0 step=99 id=0xeacc boot=1 calls=93 xerr=0 dm=1 tb=15
1788555836.788013 [RNG] osc=41 imp=881 imprb=881 mstart=0x40 cfg=91 cfgfail=0x0 vhv=0 vpolls=0
1788555836.794152 [PRT] calls=31957 xerr=0 ler=1 lidx=0x0 perr=0 maxcnt=17 addr8=0x52
1788555836.798276 [RTY] wr=0 wmax=0 wref=0  rd=0 rmax=0 rref=0
1788555836.806149 [RNG] frames=7960 last=42 min=29 max=53 nrdy=2 dxfer=0 dstat=0 lst=0 nrdyerr=0 dclr=0
1788555836.812264 [DRV] init=0 id=7 mode=0x1 lib=0x2 seq=0x1 odc=0x8b sts=0xe0 armed=1
1788555836.817518 [TRG] pulses=77 suppressed=948 cyc=1600 rst=1 rstmode=0x40
1788555836.820957 [HLT] polls=159 faults=0x0 cfglost=0
1788555836.826923 [EFF] n=5 last=58539 min=58421 max=58540 late=0 stuck=0 rderr=0
1788555836.837022 [IMU] init=0 addr=0x68 who=0x68 rst=1 pmrb0=0x40 pmrb=0x1 sr=19 cfg=4 gcfg=0x0 acfg=0x8 icfg=0x30 ien=0x1 armed=1
1788555836.842145 [ACC] reads=7964 stale=7954 rderr=0 ax=45 ay=-78 az=1125
1788555836.844753 [PWR] pm=0x1 drift=0 rderr=0
1788555836.848905 [DWT] ok=1 cyc=3681043506 cyc_per_ms=799974
1788555837.863879 [HB] up_ms=177595 frames=8010 inf=8010 hazard=1025 canary_err=0 q=0 qovr=0
1788555837.875177 [I2C] init=0 gate=0 whoami=0x140e0 wr=0 wrseen=0x27 addr=0x5a ok=51064 err=0 tmo=0 recov=1 pclk1=200000000 sysclk=400000000
1788555837.876491 [NAK] nacks=0
1788555837.881135 [CLK] cpu=800000000 sysb=400000000 pclk1=200000000
1788555837.885606 [TOF] res=0 step=0 id=0xeacc blk=0xeacc10 ctl=0x0
1788555837.891470 [RNG] init=0 step=99 id=0xeacc boot=1 calls=93 xerr=0 dm=1 tb=15
1788555837.898701 [RNG] osc=41 imp=881 imprb=881 mstart=0x40 cfg=91 cfgfail=0x0 vhv=0 vpolls=0
1788555837.904598 [PRT] calls=32157 xerr=0 ler=1 lidx=0x0 perr=0 maxcnt=17 addr8=0x52
1788555837.908603 [RTY] wr=0 wmax=0 wref=0  rd=0 rmax=0 rref=0
1788555837.916483 [RNG] frames=8010 last=47 min=29 max=53 nrdy=2 dxfer=0 dstat=0 lst=0 nrdyerr=0 dclr=0
1788555837.922792 [DRV] init=0 id=7 mode=0x1 lib=0x2 seq=0x1 odc=0x8b sts=0xe0 armed=1
1788555837.927971 [TRG] pulses=77 suppressed=948 cyc=1600 rst=1 rstmode=0x40
1788555837.931362 [HLT] polls=160 faults=0x0 cfglost=0
1788555837.937144 [EFF] n=5 last=58539 min=58421 max=58540 late=0 stuck=0 rderr=0
1788555837.947555 [IMU] init=0 addr=0x68 who=0x68 rst=1 pmrb0=0x40 pmrb=0x1 sr=19 cfg=4 gcfg=0x0 acfg=0x8 icfg=0x30 ien=0x1 armed=1
1788555837.952619 [ACC] reads=8014 stale=8004 rderr=0 ax=45 ay=-76 az=1123
1788555837.955225 [PWR] pm=0x1 drift=0 rderr=0
1788555837.959118 [DWT] ok=1 cyc=267676142 cyc_per_ms=799999
1788555838.974703 [HB] up_ms=178697 frames=8060 inf=8060 hazard=1025 canary_err=0 q=0 qovr=0
1788555838.985948 [I2C] init=0 gate=0 whoami=0x140e0 wr=0 wrseen=0x27 addr=0x5a ok=51366 err=0 tmo=0 recov=1 pclk1=200000000 sysclk=400000000
1788555838.987189 [NAK] nacks=0
1788555838.991808 [CLK] cpu=800000000 sysb=400000000 pclk1=200000000
1788555838.996311 [TOF] res=0 step=0 id=0xeacc blk=0xeacc10 ctl=0x0
1788555839.002186 [RNG] init=0 step=99 id=0xeacc boot=1 calls=93 xerr=0 dm=1 tb=15
1788555839.009201 [RNG] osc=41 imp=881 imprb=881 mstart=0x40 cfg=91 cfgfail=0x0 vhv=0 vpolls=0
1788555839.015334 [PRT] calls=32357 xerr=0 ler=1 lidx=0x0 perr=0 maxcnt=17 addr8=0x52
1788555839.019440 [RTY] wr=0 wmax=0 wref=0  rd=0 rmax=0 rref=0
1788555839.027185 [RNG] frames=8060 last=42 min=29 max=53 nrdy=2 dxfer=0 dstat=0 lst=0 nrdyerr=0 dclr=0
1788555839.033455 [DRV] init=0 id=7 mode=0x1 lib=0x2 seq=0x1 odc=0x8b sts=0xe0 armed=1
1788555839.038693 [TRG] pulses=77 suppressed=948 cyc=1600 rst=1 rstmode=0x40
1788555839.042068 [HLT] polls=161 faults=0x0 cfglost=0
1788555839.047839 [EFF] n=5 last=58539 min=58421 max=58540 late=0 stuck=0 rderr=0
1788555839.058192 [IMU] init=0 addr=0x68 who=0x68 rst=1 pmrb0=0x40 pmrb=0x1 sr=19 cfg=4 gcfg=0x0 acfg=0x8 icfg=0x30 ien=0x1 armed=1
1788555839.063411 [ACC] reads=8064 stale=8053 rderr=0 ax=45 ay=-76 az=1124
1788555839.065995 [PWR] pm=0x1 drift=0 rderr=0
1788555839.069969 [DWT] ok=1 cyc=1149276070 cyc_per_ms=799999
1788555840.085130 [HB] up_ms=179799 frames=8110 inf=8110 hazard=1025 canary_err=0 q=0 qovr=0
1788555840.096197 [I2C] init=0 gate=0 whoami=0x140e0 wr=0 wrseen=0x27 addr=0x5a ok=51668 err=0 tmo=0 recov=1 pclk1=200000000 sysclk=400000000
1788555840.097641 [NAK] nacks=0
1788555840.102110 [CLK] cpu=800000000 sysb=400000000 pclk1=200000000
1788555840.106574 [TOF] res=0 step=0 id=0xeacc blk=0xeacc10 ctl=0x0
1788555840.112446 [RNG] init=0 step=99 id=0xeacc boot=1 calls=93 xerr=0 dm=1 tb=15
1788555840.119592 [RNG] osc=41 imp=881 imprb=881 mstart=0x40 cfg=91 cfgfail=0x0 vhv=0 vpolls=0
1788555840.125528 [PRT] calls=32557 xerr=0 ler=1 lidx=0x0 perr=0 maxcnt=17 addr8=0x52
1788555840.129648 [RTY] wr=0 wmax=0 wref=0  rd=0 rmax=0 rref=0
1788555840.137280 [RNG] frames=8110 last=39 min=29 max=53 nrdy=2 dxfer=0 dstat=0 lst=0 nrdyerr=0 dclr=0
1788555840.143691 [DRV] init=0 id=7 mode=0x1 lib=0x2 seq=0x1 odc=0x8b sts=0xe0 armed=1
1788555840.149446 [TRG] pulses=77 suppressed=948 cyc=1600 rst=1 rstmode=0x40
1788555840.152300 [HLT] polls=162 faults=0x0 cfglost=0
1788555840.158028 [EFF] n=5 last=58539 min=58421 max=58540 late=0 stuck=0 rderr=0
1788555840.168645 [IMU] init=0 addr=0x68 who=0x68 rst=1 pmrb0=0x40 pmrb=0x1 sr=19 cfg=4 gcfg=0x0 acfg=0x8 icfg=0x30 ien=0x1 armed=1
1788555840.173543 [ACC] reads=8114 stale=8103 rderr=0 ax=44 ay=-76 az=1124
1788555840.176154 [PWR] pm=0x1 drift=0 rderr=0
1788555840.180165 [DWT] ok=1 cyc=2030875970 cyc_per_ms=799999
1788555841.195655 [HB] up_ms=180901 frames=8160 inf=8160 hazard=1065 canary_err=0 q=0 qovr=0
1788555841.206772 [I2C] init=0 gate=0 whoami=0x140e0 wr=0 wrseen=0x27 addr=0x5a ok=51970 err=0 tmo=0 recov=1 pclk1=200000000 sysclk=400000000
1788555841.208203 [NAK] nacks=0
1788555841.212776 [CLK] cpu=800000000 sysb=400000000 pclk1=200000000
1788555841.217286 [TOF] res=0 step=0 id=0xeacc blk=0xeacc10 ctl=0x0
1788555841.223170 [RNG] init=0 step=99 id=0xeacc boot=1 calls=93 xerr=0 dm=1 tb=15
1788555841.230136 [RNG] osc=41 imp=881 imprb=881 mstart=0x40 cfg=91 cfgfail=0x0 vhv=0 vpolls=0
1788555841.236309 [PRT] calls=32756 xerr=0 ler=1 lidx=0x0 perr=0 maxcnt=17 addr8=0x52
1788555841.240273 [RTY] wr=0 wmax=0 wref=0  rd=0 rmax=0 rref=0
1788555841.248001 [RNG] frames=8160 last=45 min=29 max=53 nrdy=2 dxfer=0 dstat=0 lst=0 nrdyerr=0 dclr=0
1788555841.254374 [DRV] init=0 id=7 mode=0x1 lib=0x2 seq=0x1 odc=0x8b sts=0xe0 armed=1
1788555841.259648 [TRG] pulses=80 suppressed=986 cyc=1600 rst=1 rstmode=0x40
1788555841.263006 [HLT] polls=163 faults=0x0 cfglost=0
1788555841.268780 [EFF] n=5 last=58539 min=58421 max=58540 late=0 stuck=0 rderr=0
1788555841.279165 [IMU] init=0 addr=0x68 who=0x68 rst=1 pmrb0=0x40 pmrb=0x1 sr=19 cfg=4 gcfg=0x0 acfg=0x8 icfg=0x30 ien=0x1 armed=1
1788555841.284265 [ACC] reads=8164 stale=8153 rderr=0 ax=46 ay=-75 az=1125
1788555841.286885 [PWR] pm=0x1 drift=0 rderr=0
1788555841.290879 [DWT] ok=1 cyc=2912476946 cyc_per_ms=800000
1788555842.306477 [HB] up_ms=182003 frames=8210 inf=8210 hazard=1066 canary_err=0 q=0 qovr=0
1788555842.317657 [I2C] init=0 gate=0 whoami=0x140e0 wr=0 wrseen=0x27 addr=0x5a ok=52272 err=0 tmo=0 recov=1 pclk1=200000000 sysclk=400000000
1788555842.318988 [NAK] nacks=0
1788555842.323718 [CLK] cpu=800000000 sysb=400000000 pclk1=200000000
1788555842.328212 [TOF] res=0 step=0 id=0xeacc blk=0xeacc10 ctl=0x0
1788555842.334111 [RNG] init=0 step=99 id=0xeacc boot=1 calls=93 xerr=0 dm=1 tb=15
1788555842.340965 [RNG] osc=41 imp=881 imprb=881 mstart=0x40 cfg=91 cfgfail=0x0 vhv=0 vpolls=0
1788555842.347210 [PRT] calls=32953 xerr=0 ler=1 lidx=0x0 perr=0 maxcnt=17 addr8=0x52
1788555842.351216 [RTY] wr=0 wmax=0 wref=0  rd=0 rmax=0 rref=0
1788555842.358966 [RNG] frames=8210 last=46 min=29 max=53 nrdy=2 dxfer=0 dstat=0 lst=0 nrdyerr=0 dclr=0
1788555842.365355 [DRV] init=0 id=7 mode=0x1 lib=0x2 seq=0x1 odc=0x8b sts=0xe0 armed=1
1788555842.370593 [TRG] pulses=80 suppressed=986 cyc=1600 rst=1 rstmode=0x40
1788555842.373971 [HLT] polls=164 faults=0x0 cfglost=0
1788555842.379733 [EFF] n=5 last=58539 min=58421 max=58540 late=0 stuck=0 rderr=0
1788555842.390120 [IMU] init=0 addr=0x68 who=0x68 rst=1 pmrb0=0x40 pmrb=0x1 sr=19 cfg=4 gcfg=0x0 acfg=0x8 icfg=0x30 ien=0x1 armed=1
1788555842.395322 [ACC] reads=8214 stale=8203 rderr=0 ax=44 ay=-76 az=1124
1788555842.397867 [PWR] pm=0x1 drift=0 rderr=0
1788555842.401936 [DWT] ok=1 cyc=3794076078 cyc_per_ms=799999
1788555843.417187 [HB] up_ms=183105 frames=8260 inf=8260 hazard=1066 canary_err=0 q=0 qovr=0
1788555843.428328 [I2C] init=0 gate=0 whoami=0x140e0 wr=0 wrseen=0x27 addr=0x5a ok=52574 err=0 tmo=0 recov=1 pclk1=200000000 sysclk=400000000
1788555843.429576 [NAK] nacks=0
1788555843.434362 [CLK] cpu=800000000 sysb=400000000 pclk1=200000000
1788555843.438962 [TOF] res=0 step=0 id=0xeacc blk=0xeacc10 ctl=0x0
1788555843.444700 [RNG] init=0 step=99 id=0xeacc boot=1 calls=93 xerr=0 dm=1 tb=15
1788555843.451583 [RNG] osc=41 imp=881 imprb=881 mstart=0x40 cfg=91 cfgfail=0x0 vhv=0 vpolls=0
1788555843.457831 [PRT] calls=33153 xerr=0 ler=1 lidx=0x0 perr=0 maxcnt=17 addr8=0x52
1788555843.461937 [RTY] wr=0 wmax=0 wref=0  rd=0 rmax=0 rref=0
1788555843.469705 [RNG] frames=8260 last=46 min=29 max=53 nrdy=2 dxfer=0 dstat=0 lst=0 nrdyerr=0 dclr=0
1788555843.475814 [DRV] init=0 id=7 mode=0x1 lib=0x2 seq=0x1 odc=0x8b sts=0xe0 armed=1
1788555843.481356 [TRG] pulses=80 suppressed=986 cyc=1600 rst=1 rstmode=0x40
1788555843.484709 [HLT] polls=165 faults=0x0 cfglost=0
1788555843.490569 [EFF] n=5 last=58539 min=58421 max=58540 late=0 stuck=0 rderr=0
1788555843.500638 [IMU] init=0 addr=0x68 who=0x68 rst=1 pmrb0=0x40 pmrb=0x1 sr=19 cfg=4 gcfg=0x0 acfg=0x8 icfg=0x30 ien=0x1 armed=1
1788555843.506047 [ACC] reads=8263 stale=8253 rderr=0 ax=45 ay=-79 az=1125
1788555843.508456 [PWR] pm=0x1 drift=0 rderr=0
1788555843.512465 [DWT] ok=1 cyc=380708850 cyc_per_ms=800000
1788555844.528274 [HB] up_ms=184207 frames=8309 inf=8309 hazard=1066 canary_err=0 q=0 qovr=0
1788555844.539397 [I2C] init=0 gate=0 whoami=0x140e0 wr=0 wrseen=0x27 addr=0x5a ok=52876 err=0 tmo=0 recov=1 pclk1=200000000 sysclk=400000000
1788555844.540645 [NAK] nacks=0
1788555844.545391 [CLK] cpu=800000000 sysb=400000000 pclk1=200000000
1788555844.550029 [TOF] res=0 step=0 id=0xeacc blk=0xeacc10 ctl=0x0
1788555844.555773 [RNG] init=0 step=99 id=0xeacc boot=1 calls=93 xerr=0 dm=1 tb=15
1788555844.562647 [RNG] osc=41 imp=881 imprb=881 mstart=0x40 cfg=91 cfgfail=0x0 vhv=0 vpolls=0
1788555844.568914 [PRT] calls=33353 xerr=0 ler=1 lidx=0x0 perr=0 maxcnt=17 addr8=0x52
1788555844.573020 [RTY] wr=0 wmax=0 wref=0  rd=0 rmax=0 rref=0
1788555844.580799 [RNG] frames=8310 last=36 min=29 max=53 nrdy=2 dxfer=0 dstat=0 lst=0 nrdyerr=0 dclr=0
1788555844.586902 [DRV] init=0 id=7 mode=0x1 lib=0x2 seq=0x1 odc=0x8b sts=0xe0 armed=1
1788555844.592398 [TRG] pulses=80 suppressed=986 cyc=1600 rst=1 rstmode=0x40
1788555844.595766 [HLT] polls=166 faults=0x0 cfglost=0
1788555844.601591 [EFF] n=5 last=58539 min=58421 max=58540 late=0 stuck=0 rderr=0
1788555844.611672 [IMU] init=0 addr=0x68 who=0x68 rst=1 pmrb0=0x40 pmrb=0x1 sr=19 cfg=4 gcfg=0x0 acfg=0x8 icfg=0x30 ien=0x1 armed=1
1788555844.617030 [ACC] reads=8313 stale=8302 rderr=0 ax=44 ay=-76 az=1124
1788555844.619661 [PWR] pm=0x1 drift=0 rderr=0
1788555844.623672 [DWT] ok=1 cyc=1262442166 cyc_per_ms=800120
1788555845.639383 [HB] up_ms=185309 frames=8359 inf=8359 hazard=1066 canary_err=0 q=0 qovr=0
1788555845.650392 [I2C] init=0 gate=0 whoami=0x140e0 wr=0 wrseen=0x27 addr=0x5a ok=53178 err=0 tmo=0 recov=1 pclk1=200000000 sysclk=400000000
1788555845.651754 [NAK] nacks=0
1788555845.656394 [CLK] cpu=800000000 sysb=400000000 pclk1=200000000
1788555845.661005 [TOF] res=0 step=0 id=0xeacc blk=0xeacc10 ctl=0x0
1788555845.666874 [RNG] init=0 step=99 id=0xeacc boot=1 calls=93 xerr=0 dm=1 tb=15
1788555845.673765 [RNG] osc=41 imp=881 imprb=881 mstart=0x40 cfg=91 cfgfail=0x0 vhv=0 vpolls=0
1788555845.679880 [PRT] calls=33553 xerr=0 ler=1 lidx=0x0 perr=0 maxcnt=17 addr8=0x52
1788555845.683995 [RTY] wr=0 wmax=0 wref=0  rd=0 rmax=0 rref=0
1788555845.691741 [RNG] frames=8359 last=42 min=29 max=53 nrdy=2 dxfer=0 dstat=0 lst=0 nrdyerr=0 dclr=0
1788555845.698254 [DRV] init=0 id=7 mode=0x1 lib=0x2 seq=0x1 odc=0x8b sts=0xe0 armed=1
1788555845.703263 [TRG] pulses=80 suppressed=986 cyc=1600 rst=1 rstmode=0x40
1788555845.706762 [HLT] polls=167 faults=0x0 cfglost=0
1788555845.712528 [EFF] n=5 last=58539 min=58421 max=58540 late=0 stuck=0 rderr=0
1788555845.722751 [IMU] init=0 addr=0x68 who=0x68 rst=1 pmrb0=0x40 pmrb=0x1 sr=19 cfg=4 gcfg=0x0 acfg=0x8 icfg=0x30 ien=0x1 armed=1
1788555845.727855 [ACC] reads=8363 stale=8352 rderr=0 ax=46 ay=-76 az=1124
1788555845.730608 [PWR] pm=0x1 drift=0 rderr=0
1788555845.734651 [DWT] ok=1 cyc=2144042964 cyc_per_ms=800000
1788555846.750006 [HB] up_ms=186411 frames=8409 inf=8409 hazard=1066 canary_err=0 q=0 qovr=0
1788555846.761150 [I2C] init=0 gate=0 whoami=0x140e0 wr=0 wrseen=0x27 addr=0x5a ok=53475 err=0 tmo=0 recov=1 pclk1=200000000 sysclk=400000000
1788555846.762337 [NAK] nacks=0
1788555846.766997 [CLK] cpu=800000000 sysb=400000000 pclk1=200000000
1788555846.771473 [TOF] res=0 step=0 id=0xeacc blk=0xeacc10 ctl=0x0
1788555846.777457 [RNG] init=0 step=99 id=0xeacc boot=1 calls=93 xerr=0 dm=1 tb=15
1788555846.784341 [RNG] osc=41 imp=881 imprb=881 mstart=0x40 cfg=91 cfgfail=0x0 vhv=0 vpolls=0
1788555846.790460 [PRT] calls=33753 xerr=0 ler=1 lidx=0x0 perr=0 maxcnt=17 addr8=0x52
1788555846.794458 [RTY] wr=0 wmax=0 wref=0  rd=0 rmax=0 rref=0
1788555846.802585 [RNG] frames=8409 last=41 min=29 max=53 nrdy=2 dxfer=0 dstat=0 lst=0 nrdyerr=0 dclr=0
1788555846.808582 [DRV] init=0 id=7 mode=0x1 lib=0x2 seq=0x1 odc=0x8b sts=0xe0 armed=1
1788555846.813839 [TRG] pulses=80 suppressed=986 cyc=1600 rst=1 rstmode=0x40
1788555846.817237 [HLT] polls=168 faults=0x0 cfglost=0
1788555846.823108 [EFF] n=5 last=58539 min=58421 max=58540 late=0 stuck=0 rderr=0
1788555846.833365 [IMU] init=0 addr=0x68 who=0x68 rst=1 pmrb0=0x40 pmrb=0x1 sr=19 cfg=4 gcfg=0x0 acfg=0x8 icfg=0x30 ien=0x1 armed=1
1788555846.839447 [ACC] reads=8413 stale=8402 rderr=0 ax=45 ay=-75 az=1124
1788555846.841157 [PWR] pm=0x1 drift=0 rderr=0
1788555846.845201 [DWT] ok=1 cyc=3025508818 cyc_per_ms=799878
1788555847.860582 [HB] up_ms=187513 frames=8459 inf=8459 hazard=1085 canary_err=0 q=0 qovr=0
1788555847.871701 [I2C] init=0 gate=0 whoami=0x140e0 wr=0 wrseen=0x27 addr=0x5a ok=53776 err=0 tmo=0 recov=1 pclk1=200000000 sysclk=400000000
1788555847.873062 [NAK] nacks=0
1788555847.877704 [CLK] cpu=800000000 sysb=400000000 pclk1=200000000
1788555847.882202 [TOF] res=0 step=0 id=0xeacc blk=0xeacc10 ctl=0x0
1788555847.888202 [RNG] init=0 step=99 id=0xeacc boot=1 calls=93 xerr=0 dm=1 tb=15
1788555847.895070 [RNG] osc=41 imp=881 imprb=881 mstart=0x40 cfg=91 cfgfail=0x0 vhv=0 vpolls=0
1788555847.901264 [PRT] calls=33953 xerr=0 ler=1 lidx=0x0 perr=0 maxcnt=17 addr8=0x52
1788555847.905201 [RTY] wr=0 wmax=0 wref=0  rd=0 rmax=0 rref=0
1788555847.913068 [RNG] frames=8459 last=44 min=29 max=53 nrdy=2 dxfer=0 dstat=0 lst=0 nrdyerr=0 dclr=0
1788555847.919302 [DRV] init=0 id=7 mode=0x1 lib=0x2 seq=0x1 odc=0x8b sts=0xe0 armed=1
1788555847.924712 [TRG] pulses=82 suppressed=1006 cyc=1600 rst=1 rstmode=0x40
1788555847.928156 [HLT] polls=169 faults=0x0 cfglost=0
1788555847.933943 [EFF] n=5 last=58539 min=58421 max=58540 late=0 stuck=0 rderr=0
1788555847.944205 [IMU] init=0 addr=0x68 who=0x68 rst=1 pmrb0=0x40 pmrb=0x1 sr=19 cfg=4 gcfg=0x0 acfg=0x8 icfg=0x30 ien=0x1 armed=1
1788555847.949765 [ACC] reads=8463 stale=8452 rderr=0 ax=47 ay=-75 az=1125
1788555847.951941 [PWR] pm=0x1 drift=0 rderr=0
1788555847.955937 [DWT] ok=1 cyc=3907182326 cyc_per_ms=800066
1788555848.971060 [HB] up_ms=188615 frames=8509 inf=8509 hazard=1107 canary_err=0 q=0 qovr=0
1788555848.982236 [I2C] init=0 gate=0 whoami=0x140e0 wr=0 wrseen=0x27 addr=0x5a ok=54078 err=0 tmo=0 recov=1 pclk1=200000000 sysclk=400000000
1788555848.983589 [NAK] nacks=0
1788555848.988204 [CLK] cpu=800000000 sysb=400000000 pclk1=200000000
1788555848.992683 [TOF] res=0 step=0 id=0xeacc blk=0xeacc10 ctl=0x0
1788555848.998414 [RNG] init=0 step=99 id=0xeacc boot=1 calls=93 xerr=0 dm=1 tb=15
1788555849.005560 [RNG] osc=41 imp=881 imprb=881 mstart=0x40 cfg=91 cfgfail=0x0 vhv=0 vpolls=0
1788555849.011534 [PRT] calls=34153 xerr=0 ler=1 lidx=0x0 perr=0 maxcnt=17 addr8=0x52
1788555849.015951 [RTY] wr=0 wmax=0 wref=0  rd=0 rmax=0 rref=0
1788555849.023535 [RNG] frames=8509 last=40 min=29 max=53 nrdy=2 dxfer=0 dstat=0 lst=0 nrdyerr=0 dclr=0
1788555849.029656 [DRV] init=0 id=7 mode=0x1 lib=0x2 seq=0x1 odc=0x8b sts=0xe0 armed=1
1788555849.035027 [TRG] pulses=83 suppressed=1024 cyc=1600 rst=1 rstmode=0x40
1788555849.038420 [HLT] polls=170 faults=0x0 cfglost=0
1788555849.044210 [EFF] n=5 last=58539 min=58421 max=58540 late=0 stuck=0 rderr=0
1788555849.054549 [IMU] init=0 addr=0x68 who=0x68 rst=1 pmrb0=0x40 pmrb=0x1 sr=19 cfg=4 gcfg=0x0 acfg=0x8 icfg=0x30 ien=0x1 armed=1
1788555849.059662 [ACC] reads=8513 stale=8502 rderr=0 ax=44 ay=-77 az=1125
1788555849.062268 [PWR] pm=0x1 drift=0 rderr=0
1788555849.066170 [DWT] ok=1 cyc=493811398 cyc_per_ms=799996
1788555850.082034 [HB] up_ms=189717 frames=8559 inf=8559 hazard=1107 canary_err=0 q=0 qovr=0
1788555850.093263 [I2C] init=0 gate=0 whoami=0x140e0 wr=0 wrseen=0x27 addr=0x5a ok=54380 err=0 tmo=0 recov=1 pclk1=200000000 sysclk=400000000
1788555850.094506 [NAK] nacks=0
1788555850.099616 [CLK] cpu=800000000 sysb=400000000 pclk1=200000000
1788555850.103637 [TOF] res=0 step=0 id=0xeacc blk=0xeacc10 ctl=0x0
1788555850.109520 [RNG] init=0 step=99 id=0xeacc boot=1 calls=93 xerr=0 dm=1 tb=15
1788555850.116512 [RNG] osc=41 imp=881 imprb=881 mstart=0x40 cfg=91 cfgfail=0x0 vhv=0 vpolls=0
1788555850.122647 [PRT] calls=34353 xerr=0 ler=1 lidx=0x0 perr=0 maxcnt=17 addr8=0x52
1788555850.126754 [RTY] wr=0 wmax=0 wref=0  rd=0 rmax=0 rref=0
1788555850.134401 [RNG] frames=8559 last=45 min=29 max=53 nrdy=2 dxfer=0 dstat=0 lst=0 nrdyerr=0 dclr=0
1788555850.140758 [DRV] init=0 id=7 mode=0x1 lib=0x2 seq=0x1 odc=0x8b sts=0xe0 armed=1
1788555850.146149 [TRG] pulses=83 suppressed=1024 cyc=1600 rst=1 rstmode=0x40
1788555850.150448 [HLT] polls=171 faults=0x0 cfglost=0
1788555850.155289 [EFF] n=5 last=58539 min=58421 max=58540 late=0 stuck=0 rderr=0
1788555850.166072 [IMU] init=0 addr=0x68 who=0x68 rst=1 pmrb0=0x40 pmrb=0x1 sr=19 cfg=4 gcfg=0x0 acfg=0x8 icfg=0x30 ien=0x1 armed=1
1788555850.170771 [ACC] reads=8563 stale=8552 rderr=0 ax=45 ay=-77 az=1124
1788555850.173368 [PWR] pm=0x1 drift=0 rderr=0
1788555850.177356 [DWT] ok=1 cyc=1375411530 cyc_per_ms=800000
1788555851.193137 [HB] up_ms=190819 frames=8609 inf=8609 hazard=1107 canary_err=0 q=0 qovr=0
1788555851.204348 [I2C] init=0 gate=0 whoami=0x140e0 wr=0 wrseen=0x27 addr=0x5a ok=54682 err=0 tmo=0 recov=1 pclk1=200000000 sysclk=400000000
1788555851.205593 [NAK] nacks=0
1788555851.210232 [CLK] cpu=800000000 sysb=400000000 pclk1=200000000
1788555851.214737 [TOF] res=0 step=0 id=0xeacc blk=0xeacc10 ctl=0x0
1788555851.220604 [RNG] init=0 step=99 id=0xeacc boot=1 calls=93 xerr=0 dm=1 tb=15
1788555851.227601 [RNG] osc=41 imp=881 imprb=881 mstart=0x40 cfg=91 cfgfail=0x0 vhv=0 vpolls=0
1788555851.233760 [PRT] calls=34553 xerr=0 ler=1 lidx=0x0 perr=0 maxcnt=17 addr8=0x52
1788555851.237866 [RTY] wr=0 wmax=0 wref=0  rd=0 rmax=0 rref=0
1788555851.245608 [RNG] frames=8609 last=45 min=29 max=53 nrdy=2 dxfer=0 dstat=0 lst=0 nrdyerr=0 dclr=0
1788555851.251871 [DRV] init=0 id=7 mode=0x1 lib=0x2 seq=0x1 odc=0x8b sts=0xe0 armed=1
1788555851.257338 [TRG] pulses=83 suppressed=1024 cyc=1600 rst=1 rstmode=0x40
1788555851.260583 [HLT] polls=172 faults=0x0 cfglost=0
1788555851.266339 [EFF] n=5 last=58539 min=58421 max=58540 late=0 stuck=0 rderr=0
1788555851.276725 [IMU] init=0 addr=0x68 who=0x68 rst=1 pmrb0=0x40 pmrb=0x1 sr=19 cfg=4 gcfg=0x0 acfg=0x8 icfg=0x30 ien=0x1 armed=1
1788555851.282392 [ACC] reads=8613 stale=8602 rderr=0 ax=46 ay=-74 az=1120
1788555851.284489 [PWR] pm=0x1 drift=0 rderr=0
1788555851.288460 [DWT] ok=1 cyc=2257011398 cyc_per_ms=799999
1788555852.303939 [HB] up_ms=191921 frames=8659 inf=8659 hazard=1107 canary_err=0 q=0 qovr=0
1788555852.315114 [I2C] init=0 gate=0 whoami=0x140e0 wr=0 wrseen=0x27 addr=0x5a ok=54984 err=0 tmo=0 recov=1 pclk1=200000000 sysclk=400000000
1788555852.316538 [NAK] nacks=0
1788555852.321102 [CLK] cpu=800000000 sysb=400000000 pclk1=200000000
1788555852.325543 [TOF] res=0 step=0 id=0xeacc blk=0xeacc10 ctl=0x0
1788555852.331463 [RNG] init=0 step=99 id=0xeacc boot=1 calls=93 xerr=0 dm=1 tb=15
1788555852.338302 [RNG] osc=41 imp=881 imprb=881 mstart=0x40 cfg=91 cfgfail=0x0 vhv=0 vpolls=0
1788555852.344555 [PRT] calls=34750 xerr=0 ler=1 lidx=0x0 perr=0 maxcnt=17 addr8=0x52
1788555852.348728 [RTY] wr=0 wmax=0 wref=0  rd=0 rmax=0 rref=0
1788555852.356319 [RNG] frames=8659 last=45 min=29 max=53 nrdy=2 dxfer=0 dstat=0 lst=0 nrdyerr=0 dclr=0
1788555852.362693 [DRV] init=0 id=7 mode=0x1 lib=0x2 seq=0x1 odc=0x8b sts=0xe0 armed=1
1788555852.368065 [TRG] pulses=83 suppressed=1024 cyc=1600 rst=1 rstmode=0x40
1788555852.371441 [HLT] polls=173 faults=0x0 cfglost=0
1788555852.377196 [EFF] n=5 last=58539 min=58421 max=58540 late=0 stuck=0 rderr=0
1788555852.387565 [IMU] init=0 addr=0x68 who=0x68 rst=1 pmrb0=0x40 pmrb=0x1 sr=19 cfg=4 gcfg=0x0 acfg=0x8 icfg=0x30 ien=0x1 armed=1
1788555852.392705 [ACC] reads=8663 stale=8652 rderr=0 ax=47 ay=-78 az=1124
1788555852.395312 [PWR] pm=0x1 drift=0 rderr=0
1788555852.399343 [DWT] ok=1 cyc=3138611498 cyc_per_ms=800000
1788555853.414520 [HB] up_ms=193023 frames=8709 inf=8709 hazard=1107 canary_err=0 q=0 qovr=0
1788555853.425650 [I2C] init=0 gate=0 whoami=0x140e0 wr=0 wrseen=0x27 addr=0x5a ok=55286 err=0 tmo=0 recov=1 pclk1=200000000 sysclk=400000000
1788555853.426996 [NAK] nacks=0
1788555853.431886 [CLK] cpu=800000000 sysb=400000000 pclk1=200000000
1788555853.436308 [TOF] res=0 step=0 id=0xeacc blk=0xeacc10 ctl=0x0
1788555853.442018 [RNG] init=0 step=99 id=0xeacc boot=1 calls=93 xerr=0 dm=1 tb=15
1788555853.449031 [RNG] osc=41 imp=881 imprb=881 mstart=0x40 cfg=91 cfgfail=0x0 vhv=0 vpolls=0
1788555853.455289 [PRT] calls=34949 xerr=0 ler=1 lidx=0x0 perr=0 maxcnt=17 addr8=0x52
1788555853.459270 [RTY] wr=0 wmax=0 wref=0  rd=0 rmax=0 rref=0
1788555853.467042 [RNG] frames=8709 last=36 min=29 max=53 nrdy=2 dxfer=0 dstat=0 lst=0 nrdyerr=0 dclr=0
1788555853.473150 [DRV] init=0 id=7 mode=0x1 lib=0x2 seq=0x1 odc=0x8b sts=0xe0 armed=1
1788555853.478771 [TRG] pulses=83 suppressed=1024 cyc=1600 rst=1 rstmode=0x40
1788555853.482617 [HLT] polls=174 faults=0x0 cfglost=0
1788555853.487910 [EFF] n=5 last=58539 min=58421 max=58540 late=0 stuck=0 rderr=0
1788555853.498290 [IMU] init=0 addr=0x68 who=0x68 rst=1 pmrb0=0x40 pmrb=0x1 sr=19 cfg=4 gcfg=0x0 acfg=0x8 icfg=0x30 ien=0x1 armed=1
1788555853.503279 [ACC] reads=8713 stale=8702 rderr=0 ax=47 ay=-76 az=1124
1788555853.505970 [PWR] pm=0x1 drift=0 rderr=0
1788555853.509889 [DWT] ok=1 cyc=4020211498 cyc_per_ms=800000
1788555854.525625 [HB] up_ms=194125 frames=8759 inf=8759 hazard=1107 canary_err=0 q=0 qovr=0
1788555854.536613 [I2C] init=0 gate=0 whoami=0x140e0 wr=0 wrseen=0x27 addr=0x5a ok=55588 err=0 tmo=0 recov=1 pclk1=200000000 sysclk=400000000
1788555854.538002 [NAK] nacks=0
1788555854.542738 [CLK] cpu=800000000 sysb=400000000 pclk1=200000000
1788555854.547227 [TOF] res=0 step=0 id=0xeacc blk=0xeacc10 ctl=0x0
1788555854.553201 [RNG] init=0 step=99 id=0xeacc boot=1 calls=93 xerr=0 dm=1 tb=15
1788555854.560001 [RNG] osc=41 imp=881 imprb=881 mstart=0x40 cfg=91 cfgfail=0x0 vhv=0 vpolls=0
1788555854.566286 [PRT] calls=35149 xerr=0 ler=1 lidx=0x0 perr=0 maxcnt=17 addr8=0x52
1788555854.570253 [RTY] wr=0 wmax=0 wref=0  rd=0 rmax=0 rref=0
1788555854.578016 [RNG] frames=8759 last=45 min=29 max=53 nrdy=2 dxfer=0 dstat=0 lst=0 nrdyerr=0 dclr=0
1788555854.584286 [DRV] init=0 id=7 mode=0x1 lib=0x2 seq=0x1 odc=0x8b sts=0xe0 armed=1
1788555854.589743 [TRG] pulses=84 suppressed=1024 cyc=1600 rst=1 rstmode=0x40
1788555854.593152 [HLT] polls=175 faults=0x0 cfglost=0
1788555854.598908 [EFF] n=5 last=58539 min=58421 max=58540 late=0 stuck=0 rderr=0
1788555854.608995 [IMU] init=0 addr=0x68 who=0x68 rst=1 pmrb0=0x40 pmrb=0x1 sr=19 cfg=4 gcfg=0x0 acfg=0x8 icfg=0x30 ien=0x1 armed=1
1788555854.614363 [ACC] reads=8762 stale=8751 rderr=0 ax=44 ay=-74 az=1127
1788555854.617010 [PWR] pm=0x1 drift=0 rderr=0
1788555854.620876 [DWT] ok=1 cyc=606877406 cyc_per_ms=800030
1788555855.636965 [HB] up_ms=195227 frames=8808 inf=8808 hazard=1148 canary_err=0 q=0 qovr=0
1788555855.648142 [I2C] init=0 gate=0 whoami=0x140e0 wr=0 wrseen=0x27 addr=0x5a ok=55890 err=0 tmo=0 recov=1 pclk1=200000000 sysclk=400000000
1788555855.649975 [NAK] nacks=0
1788555855.653955 [CLK] cpu=800000000 sysb=400000000 pclk1=200000000
1788555855.658581 [TOF] res=0 step=0 id=0xeacc blk=0xeacc10 ctl=0x0
1788555855.664555 [RNG] init=0 step=99 id=0xeacc boot=1 calls=93 xerr=0 dm=1 tb=15
1788555855.671368 [RNG] osc=41 imp=881 imprb=881 mstart=0x40 cfg=91 cfgfail=0x0 vhv=0 vpolls=0
1788555855.677474 [PRT] calls=35349 xerr=0 ler=1 lidx=0x0 perr=0 maxcnt=17 addr8=0x52
1788555855.681729 [RTY] wr=0 wmax=0 wref=0  rd=0 rmax=0 rref=0
1788555855.689325 [RNG] frames=8809 last=44 min=29 max=53 nrdy=2 dxfer=0 dstat=0 lst=0 nrdyerr=0 dclr=0
1788555855.695579 [DRV] init=0 id=7 mode=0x1 lib=0x2 seq=0x1 odc=0x8b sts=0xe0 armed=1
1788555855.702151 [TRG] pulses=86 suppressed=1062 cyc=1600 rst=1 rstmode=0x40
1788555855.704481 [HLT] polls=176 faults=0x0 cfglost=0
1788555855.710198 [EFF] n=5 last=58539 min=58421 max=58540 late=0 stuck=0 rderr=0
1788555855.720449 [IMU] init=0 addr=0x68 who=0x68 rst=1 pmrb0=0x40 pmrb=0x1 sr=19 cfg=4 gcfg=0x0 acfg=0x8 icfg=0x30 ien=0x1 armed=1
1788555855.725704 [ACC] reads=8812 stale=8801 rderr=0 ax=45 ay=-77 az=1122
1788555855.728323 [PWR] pm=0x1 drift=0 rderr=0
1788555855.732450 [DWT] ok=1 cyc=1488578446 cyc_per_ms=800091
1788555856.747929 [HB] up_ms=196329 frames=8858 inf=8858 hazard=1148 canary_err=0 q=0 qovr=0
1788555856.758940 [I2C] init=0 gate=0 whoami=0x140e0 wr=0 wrseen=0x27 addr=0x5a ok=56192 err=0 tmo=0 recov=1 pclk1=200000000 sysclk=400000000
1788555856.760293 [NAK] nacks=0
1788555856.764940 [CLK] cpu=800000000 sysb=400000000 pclk1=200000000
1788555856.769561 [TOF] res=0 step=0 id=0xeacc blk=0xeacc10 ctl=0x0
1788555856.775431 [RNG] init=0 step=99 id=0xeacc boot=1 calls=93 xerr=0 dm=1 tb=15
1788555856.782383 [RNG] osc=41 imp=881 imprb=881 mstart=0x40 cfg=91 cfgfail=0x0 vhv=0 vpolls=0
1788555856.788463 [PRT] calls=35549 xerr=0 ler=1 lidx=0x0 perr=0 maxcnt=17 addr8=0x52
1788555856.792569 [RTY] wr=0 wmax=0 wref=0  rd=0 rmax=0 rref=0
1788555856.800333 [RNG] frames=8858 last=41 min=29 max=53 nrdy=2 dxfer=0 dstat=0 lst=0 nrdyerr=0 dclr=0
1788555856.806571 [DRV] init=0 id=7 mode=0x1 lib=0x2 seq=0x1 odc=0x8b sts=0xe0 armed=1
1788555856.811911 [TRG] pulses=86 suppressed=1062 cyc=1600 rst=1 rstmode=0x40
1788555856.815312 [HLT] polls=177 faults=0x0 cfglost=0
1788555856.821213 [EFF] n=5 last=58539 min=58421 max=58540 late=0 stuck=0 rderr=0
1788555856.831474 [IMU] init=0 addr=0x68 who=0x68 rst=1 pmrb0=0x40 pmrb=0x1 sr=19 cfg=4 gcfg=0x0 acfg=0x8 icfg=0x30 ien=0x1 armed=1
1788555856.836545 [ACC] reads=8862 stale=8851 rderr=0 ax=48 ay=-75 az=1124
1788555856.839294 [PWR] pm=0x1 drift=0 rderr=0
1788555856.843289 [DWT] ok=1 cyc=2370132726 cyc_per_ms=799958
1788555857.858780 [HB] up_ms=197431 frames=8908 inf=8908 hazard=1148 canary_err=0 q=0 qovr=0
1788555857.869898 [I2C] init=0 gate=0 whoami=0x140e0 wr=0 wrseen=0x27 addr=0x5a ok=56488 err=0 tmo=0 recov=1 pclk1=200000000 sysclk=400000000
1788555857.871262 [NAK] nacks=0
1788555857.875890 [CLK] cpu=800000000 sysb=400000000 pclk1=200000000
1788555857.880390 [TOF] res=0 step=0 id=0xeacc blk=0xeacc10 ctl=0x0
1788555857.886449 [RNG] init=0 step=99 id=0xeacc boot=1 calls=93 xerr=0 dm=1 tb=15
1788555857.893297 [RNG] osc=41 imp=881 imprb=881 mstart=0x40 cfg=91 cfgfail=0x0 vhv=0 vpolls=0
1788555857.899395 [PRT] calls=35749 xerr=0 ler=1 lidx=0x0 perr=0 maxcnt=17 addr8=0x52
1788555857.903512 [RTY] wr=0 wmax=0 wref=0  rd=0 rmax=0 rref=0
1788555857.911384 [RNG] frames=8908 last=40 min=29 max=53 nrdy=2 dxfer=0 dstat=0 lst=0 nrdyerr=0 dclr=0
1788555857.917537 [DRV] init=0 id=7 mode=0x1 lib=0x2 seq=0x1 odc=0x8b sts=0xe0 armed=1
1788555857.922889 [TRG] pulses=86 suppressed=1062 cyc=1600 rst=1 rstmode=0x40
1788555857.926256 [HLT] polls=178 faults=0x0 cfglost=0
1788555857.932305 [EFF] n=5 last=58539 min=58421 max=58540 late=0 stuck=0 rderr=0
1788555857.942421 [IMU] init=0 addr=0x68 who=0x68 rst=1 pmrb0=0x40 pmrb=0x1 sr=19 cfg=4 gcfg=0x0 acfg=0x8 icfg=0x30 ien=0x1 armed=1
1788555857.947546 [ACC] reads=8912 stale=8901 rderr=0 ax=45 ay=-74 az=1125
1788555857.950182 [PWR] pm=0x1 drift=0 rderr=0
1788555857.954280 [DWT] ok=1 cyc=3251644254 cyc_per_ms=799919
1788555858.969635 [HB] up_ms=198533 frames=8958 inf=8958 hazard=1148 canary_err=0 q=0 qovr=0
1788555858.980873 [I2C] init=0 gate=0 whoami=0x140e0 wr=0 wrseen=0x27 addr=0x5a ok=56790 err=0 tmo=0 recov=1 pclk1=200000000 sysclk=400000000
1788555858.982268 [NAK] nacks=0
1788555858.986805 [CLK] cpu=800000000 sysb=400000000 pclk1=200000000
1788555858.991251 [TOF] res=0 step=0 id=0xeacc blk=0xeacc10 ctl=0x0
1788555858.997262 [RNG] init=0 step=99 id=0xeacc boot=1 calls=93 xerr=0 dm=1 tb=15
1788555859.004265 [RNG] osc=41 imp=881 imprb=881 mstart=0x40 cfg=91 cfgfail=0x0 vhv=0 vpolls=0
1788555859.010290 [PRT] calls=35949 xerr=0 ler=1 lidx=0x0 perr=0 maxcnt=17 addr8=0x52
1788555859.014372 [RTY] wr=0 wmax=0 wref=0  rd=0 rmax=0 rref=0
1788555859.022246 [RNG] frames=8958 last=47 min=29 max=53 nrdy=2 dxfer=0 dstat=0 lst=0 nrdyerr=0 dclr=0
1788555859.028366 [DRV] init=0 id=7 mode=0x1 lib=0x2 seq=0x1 odc=0x8b sts=0xe0 armed=1
1788555859.033758 [TRG] pulses=86 suppressed=1062 cyc=1600 rst=1 rstmode=0x40
1788555859.037194 [HLT] polls=179 faults=0x0 cfglost=0
1788555859.042904 [EFF] n=5 last=58539 min=58421 max=58540 late=0 stuck=0 rderr=0
1788555859.053290 [IMU] init=0 addr=0x68 who=0x68 rst=1 pmrb0=0x40 pmrb=0x1 sr=19 cfg=4 gcfg=0x0 acfg=0x8 icfg=0x30 ien=0x1 armed=1
1788555859.058409 [ACC] reads=8962 stale=8951 rderr=0 ax=46 ay=-76 az=1122
1788555859.061000 [PWR] pm=0x1 drift=0 rderr=0
1788555859.065007 [DWT] ok=1 cyc=4133244254 cyc_per_ms=800000
1788555860.079976 [HB] up_ms=199635 frames=9008 inf=9008 hazard=1148 canary_err=0 q=0 qovr=0
1788555860.091234 [I2C] init=0 gate=0 whoami=0x140e0 wr=0 wrseen=0x27 addr=0x5a ok=57092 err=0 tmo=0 recov=1 pclk1=200000000 sysclk=400000000
1788555860.092472 [NAK] nacks=0
1788555860.097128 [CLK] cpu=800000000 sysb=400000000 pclk1=200000000
1788555860.101614 [TOF] res=0 step=0 id=0xeacc blk=0xeacc10 ctl=0x0
1788555860.107478 [RNG] init=0 step=99 id=0xeacc boot=1 calls=93 xerr=0 dm=1 tb=15
1788555860.114463 [RNG] osc=41 imp=881 imprb=881 mstart=0x40 cfg=91 cfgfail=0x0 vhv=0 vpolls=0
1788555860.121181 [PRT] calls=36149 xerr=0 ler=1 lidx=0x0 perr=0 maxcnt=17 addr8=0x52
1788555860.124782 [RTY] wr=0 wmax=0 wref=0  rd=0 rmax=0 rref=0
1788555860.132480 [RNG] frames=9008 last=41 min=29 max=53 nrdy=2 dxfer=0 dstat=0 lst=0 nrdyerr=0 dclr=0
1788555860.138715 [DRV] init=0 id=7 mode=0x1 lib=0x2 seq=0x1 odc=0x8b sts=0xe0 armed=1
1788555860.144092 [TRG] pulses=86 suppressed=1062 cyc=1600 rst=1 rstmode=0x40
1788555860.147479 [HLT] polls=180 faults=0x0 cfglost=0
1788555860.153224 [EFF] n=5 last=58539 min=58421 max=58540 late=0 stuck=0 rderr=0
1788555860.163576 [IMU] init=0 addr=0x68 who=0x68 rst=1 pmrb0=0x40 pmrb=0x1 sr=19 cfg=4 gcfg=0x0 acfg=0x8 icfg=0x30 ien=0x1 armed=1
1788555860.168720 [ACC] reads=9012 stale=9001 rderr=0 ax=46 ay=-75 az=1125
1788555860.171321 [PWR] pm=0x1 drift=0 rderr=0
1788555860.175202 [DWT] ok=1 cyc=719876958 cyc_per_ms=800000
1788555861.190796 [HB] up_ms=200737 frames=9058 inf=9058 hazard=1148 canary_err=0 q=0 qovr=0
1788555861.201805 [I2C] init=0 gate=0 whoami=0x140e0 wr=0 wrseen=0x27 addr=0x5a ok=57394 err=0 tmo=0 recov=1 pclk1=200000000 sysclk=400000000
1788555861.203265 [NAK] nacks=0
1788555861.207815 [CLK] cpu=800000000 sysb=400000000 pclk1=200000000
1788555861.212305 [TOF] res=0 step=0 id=0xeacc blk=0xeacc10 ctl=0x0
1788555861.218175 [RNG] init=0 step=99 id=0xeacc boot=1 calls=93 xerr=0 dm=1 tb=15
1788555861.225226 [RNG] osc=41 imp=881 imprb=881 mstart=0x40 cfg=91 cfgfail=0x0 vhv=0 vpolls=0
1788555861.231326 [PRT] calls=36349 xerr=0 ler=1 lidx=0x0 perr=0 maxcnt=17 addr8=0x52
1788555861.235359 [RTY] wr=0 wmax=0 wref=0  rd=0 rmax=0 rref=0
1788555861.243058 [RNG] frames=9058 last=42 min=29 max=53 nrdy=2 dxfer=0 dstat=0 lst=0 nrdyerr=0 dclr=0
1788555861.249450 [DRV] init=0 id=7 mode=0x1 lib=0x2 seq=0x1 odc=0x8b sts=0xe0 armed=1
1788555861.254809 [TRG] pulses=86 suppressed=1062 cyc=1600 rst=1 rstmode=0x40
1788555861.258188 [HLT] polls=181 faults=0x0 cfglost=0
1788555861.263930 [EFF] n=5 last=58539 min=58421 max=58540 late=0 stuck=0 rderr=0
1788555861.274199 [IMU] init=0 addr=0x68 who=0x68 rst=1 pmrb0=0x40 pmrb=0x1 sr=19 cfg=4 gcfg=0x0 acfg=0x8 icfg=0x30 ien=0x1 armed=1
1788555861.279310 [ACC] reads=9062 stale=9051 rderr=0 ax=44 ay=-75 az=1124
1788555861.282132 [PWR] pm=0x1 drift=0 rderr=0
1788555861.285929 [DWT] ok=1 cyc=1601476762 cyc_per_ms=799999
1788555862.300787 [HB] up_ms=201839 frames=9108 inf=9108 hazard=1176 canary_err=0 q=0 qovr=0
1788555862.312024 [I2C] init=0 gate=0 whoami=0x140e0 wr=0 wrseen=0x27 addr=0x5a ok=57696 err=0 tmo=0 recov=1 pclk1=200000000 sysclk=400000000
1788555862.313397 [NAK] nacks=0
1788555862.317941 [CLK] cpu=800000000 sysb=400000000 pclk1=200000000
1788555862.322539 [TOF] res=0 step=0 id=0xeacc blk=0xeacc10 ctl=0x0
1788555862.328327 [RNG] init=0 step=99 id=0xeacc boot=1 calls=93 xerr=0 dm=1 tb=15
1788555862.335324 [RNG] osc=41 imp=881 imprb=881 mstart=0x40 cfg=91 cfgfail=0x0 vhv=0 vpolls=0
1788555862.341403 [PRT] calls=36548 xerr=0 ler=1 lidx=0x0 perr=0 maxcnt=17 addr8=0x52
1788555862.345536 [RTY] wr=0 wmax=0 wref=0  rd=0 rmax=0 rref=0
1788555862.353194 [RNG] frames=9108 last=44 min=29 max=53 nrdy=2 dxfer=0 dstat=0 lst=0 nrdyerr=0 dclr=0
1788555862.359550 [DRV] init=0 id=7 mode=0x1 lib=0x2 seq=0x1 odc=0x8b sts=0xe0 armed=1
1788555862.364906 [TRG] pulses=89 suppressed=1090 cyc=1600 rst=1 rstmode=0x40
1788555862.368275 [HLT] polls=182 faults=0x0 cfglost=0
1788555862.374026 [EFF] n=5 last=58539 min=58421 max=58540 late=0 stuck=0 rderr=0
1788555862.384413 [IMU] init=0 addr=0x68 who=0x68 rst=1 pmrb0=0x40 pmrb=0x1 sr=19 cfg=4 gcfg=0x0 acfg=0x8 icfg=0x30 ien=0x1 armed=1
1788555862.389519 [ACC] reads=9112 stale=9101 rderr=0 ax=44 ay=-81 az=1125
1788555862.392209 [PWR] pm=0x1 drift=0 rderr=0
1788555862.396190 [DWT] ok=1 cyc=2483082830 cyc_per_ms=800005
1788555863.411010 [HB] up_ms=202941 frames=9158 inf=9158 hazard=1189 canary_err=0 q=0 qovr=0
1788555863.421996 [I2C] init=0 gate=0 whoami=0x140e0 wr=0 wrseen=0x27 addr=0x5a ok=57998 err=0 tmo=0 recov=1 pclk1=200000000 sysclk=400000000
1788555863.423363 [NAK] nacks=0
1788555863.428136 [CLK] cpu=800000000 sysb=400000000 pclk1=200000000
1788555863.432666 [TOF] res=0 step=0 id=0xeacc blk=0xeacc10 ctl=0x0
1788555863.438370 [RNG] init=0 step=99 id=0xeacc boot=1 calls=93 xerr=0 dm=1 tb=15
1788555863.445372 [RNG] osc=41 imp=881 imprb=881 mstart=0x40 cfg=91 cfgfail=0x0 vhv=0 vpolls=0
1788555863.451621 [PRT] calls=36745 xerr=0 ler=1 lidx=0x0 perr=0 maxcnt=17 addr8=0x52
1788555863.455624 [RTY] wr=0 wmax=0 wref=0  rd=0 rmax=0 rref=0
1788555863.463371 [RNG] frames=9158 last=44 min=29 max=53 nrdy=2 dxfer=0 dstat=0 lst=0 nrdyerr=0 dclr=0
1788555863.469617 [DRV] init=0 id=7 mode=0x1 lib=0x2 seq=0x1 odc=0x8b sts=0xe0 armed=1
1788555863.475150 [TRG] pulses=89 suppressed=1100 cyc=1600 rst=1 rstmode=0x40
1788555863.478377 [HLT] polls=183 faults=0x0 cfglost=0
1788555863.484194 [EFF] n=5 last=58539 min=58421 max=58540 late=0 stuck=0 rderr=0
1788555863.494528 [IMU] init=0 addr=0x68 who=0x68 rst=1 pmrb0=0x40 pmrb=0x1 sr=19 cfg=4 gcfg=0x0 acfg=0x8 icfg=0x30 ien=0x1 armed=1
1788555863.499638 [ACC] reads=9162 stale=9151 rderr=0 ax=46 ay=-71 az=1125
1788555863.502248 [PWR] pm=0x1 drift=0 rderr=0
1788555863.506245 [DWT] ok=1 cyc=3364676854 cyc_per_ms=799994
1788555864.521007 [HB] up_ms=204043 frames=9208 inf=9208 hazard=1189 canary_err=0 q=0 qovr=0
1788555864.531994 [I2C] init=0 gate=0 whoami=0x140e0 wr=0 wrseen=0x27 addr=0x5a ok=58300 err=0 tmo=0 recov=1 pclk1=200000000 sysclk=400000000
1788555864.533340 [NAK] nacks=0
1788555864.538155 [CLK] cpu=800000000 sysb=400000000 pclk1=200000000
1788555864.542686 [TOF] res=0 step=0 id=0xeacc blk=0xeacc10 ctl=0x0
1788555864.548678 [RNG] init=0 step=99 id=0xeacc boot=1 calls=93 xerr=0 dm=1 tb=15
1788555864.555340 [RNG] osc=41 imp=881 imprb=881 mstart=0x40 cfg=91 cfgfail=0x0 vhv=0 vpolls=0
1788555864.561656 [PRT] calls=36945 xerr=0 ler=1 lidx=0x0 perr=0 maxcnt=17 addr8=0x52
1788555864.566115 [RTY] wr=0 wmax=0 wref=0  rd=0 rmax=0 rref=0
1788555864.573335 [RNG] frames=9208 last=40 min=29 max=53 nrdy=2 dxfer=0 dstat=0 lst=0 nrdyerr=0 dclr=0
1788555864.579585 [DRV] init=0 id=7 mode=0x1 lib=0x2 seq=0x1 odc=0x8b sts=0xe0 armed=1
1788555864.585118 [TRG] pulses=89 suppressed=1100 cyc=1600 rst=1 rstmode=0x40
1788555864.588459 [HLT] polls=184 faults=0x0 cfglost=0
1788555864.594233 [EFF] n=5 last=58539 min=58421 max=58540 late=0 stuck=0 rderr=0
1788555864.604487 [IMU] init=0 addr=0x68 who=0x68 rst=1 pmrb0=0x40 pmrb=0x1 sr=19 cfg=4 gcfg=0x0 acfg=0x8 icfg=0x30 ien=0x1 armed=1
1788555864.609711 [ACC] reads=9211 stale=9201 rderr=0 ax=45 ay=-74 az=1124
1788555864.612344 [PWR] pm=0x1 drift=0 rderr=0
1788555864.616365 [DWT] ok=1 cyc=4246276990 cyc_per_ms=800000
1788555865.631599 [HB] up_ms=205145 frames=9257 inf=9257 hazard=1189 canary_err=0 q=0 qovr=0
1788555865.642697 [I2C] init=0 gate=0 whoami=0x140e0 wr=0 wrseen=0x27 addr=0x5a ok=58602 err=0 tmo=0 recov=1 pclk1=200000000 sysclk=400000000
1788555865.643939 [NAK] nacks=0
1788555865.648573 [CLK] cpu=800000000 sysb=400000000 pclk1=200000000
1788555865.653256 [TOF] res=0 step=0 id=0xeacc blk=0xeacc10 ctl=0x0
1788555865.659061 [RNG] init=0 step=99 id=0xeacc boot=1 calls=93 xerr=0 dm=1 tb=15
1788555865.665957 [RNG] osc=41 imp=881 imprb=881 mstart=0x40 cfg=91 cfgfail=0x0 vhv=0 vpolls=0
1788555865.672196 [PRT] calls=37145 xerr=0 ler=1 lidx=0x0 perr=0 maxcnt=17 addr8=0x52
1788555865.676322 [RTY] wr=0 wmax=0 wref=0  rd=0 rmax=0 rref=0
1788555865.684122 [RNG] frames=9258 last=42 min=29 max=53 nrdy=2 dxfer=0 dstat=0 lst=0 nrdyerr=0 dclr=0
1788555865.690219 [DRV] init=0 id=7 mode=0x1 lib=0x2 seq=0x1 odc=0x8b sts=0xe0 armed=1
1788555865.695700 [TRG] pulses=89 suppressed=1100 cyc=1600 rst=1 rstmode=0x40
1788555865.699133 [HLT] polls=185 faults=0x0 cfglost=0
1788555865.704841 [EFF] n=5 last=58539 min=58421 max=58540 late=0 stuck=0 rderr=0
1788555865.715179 [IMU] init=0 addr=0x68 who=0x68 rst=1 pmrb0=0x40 pmrb=0x1 sr=19 cfg=4 gcfg=0x0 acfg=0x8 icfg=0x30 ien=0x1 armed=1
1788555865.720350 [ACC] reads=9261 stale=9249 rderr=0 ax=47 ay=-76 az=1121
1788555865.722928 [PWR] pm=0x1 drift=0 rderr=0
1788555865.726804 [DWT] ok=1 cyc=833042774 cyc_per_ms=800120
1788555866.742294 [HB] up_ms=206247 frames=9307 inf=9307 hazard=1189 canary_err=0 q=0 qovr=0
1788555866.753429 [I2C] init=0 gate=0 whoami=0x140e0 wr=0 wrseen=0x27 addr=0x5a ok=58904 err=0 tmo=0 recov=1 pclk1=200000000 sysclk=400000000
1788555866.754668 [NAK] nacks=0
1788555866.759284 [CLK] cpu=800000000 sysb=400000000 pclk1=200000000
1788555866.763900 [TOF] res=0 step=0 id=0xeacc blk=0xeacc10 ctl=0x0
1788555866.769774 [RNG] init=0 step=99 id=0xeacc boot=1 calls=93 xerr=0 dm=1 tb=15
1788555866.776647 [RNG] osc=41 imp=881 imprb=881 mstart=0x40 cfg=91 cfgfail=0x0 vhv=0 vpolls=0
1788555866.782799 [PRT] calls=37345 xerr=0 ler=1 lidx=0x0 perr=0 maxcnt=17 addr8=0x52
1788555866.787043 [RTY] wr=0 wmax=0 wref=0  rd=0 rmax=0 rref=0
1788555866.794664 [RNG] frames=9307 last=42 min=29 max=53 nrdy=2 dxfer=0 dstat=0 lst=0 nrdyerr=0 dclr=0
1788555866.800952 [DRV] init=0 id=7 mode=0x1 lib=0x2 seq=0x1 odc=0x8b sts=0xe0 armed=1
1788555866.806303 [TRG] pulses=89 suppressed=1100 cyc=1600 rst=1 rstmode=0x40
1788555866.809792 [HLT] polls=186 faults=0x0 cfglost=0
1788555866.815566 [EFF] n=5 last=58539 min=58421 max=58540 late=0 stuck=0 rderr=0
1788555866.825672 [IMU] init=0 addr=0x68 who=0x68 rst=1 pmrb0=0x40 pmrb=0x1 sr=19 cfg=4 gcfg=0x0 acfg=0x8 icfg=0x30 ien=0x1 armed=1
1788555866.830790 [ACC] reads=9311 stale=9299 rderr=0 ax=45 ay=-79 az=1127
1788555866.833675 [PWR] pm=0x1 drift=0 rderr=0
1788555866.837666 [DWT] ok=1 cyc=1714643570 cyc_per_ms=800000
1788555867.852829 [HB] up_ms=207349 frames=9357 inf=9357 hazard=1189 canary_err=0 q=0 qovr=0
1788555867.864001 [I2C] init=0 gate=0 whoami=0x140e0 wr=0 wrseen=0x27 addr=0x5a ok=59201 err=0 tmo=0 recov=1 pclk1=200000000 sysclk=400000000
1788555867.865279 [NAK] nacks=0
1788555867.869879 [CLK] cpu=800000000 sysb=400000000 pclk1=200000000
1788555867.874462 [TOF] res=0 step=0 id=0xeacc blk=0xeacc10 ctl=0x0
1788555867.880411 [RNG] init=0 step=99 id=0xeacc boot=1 calls=93 xerr=0 dm=1 tb=15
1788555867.887406 [RNG] osc=41 imp=881 imprb=881 mstart=0x40 cfg=91 cfgfail=0x0 vhv=0 vpolls=0
1788555867.893409 [PRT] calls=37545 xerr=0 ler=1 lidx=0x0 perr=0 maxcnt=17 addr8=0x52
1788555867.897505 [RTY] wr=0 wmax=0 wref=0  rd=0 rmax=0 rref=0
1788555867.905387 [RNG] frames=9357 last=39 min=29 max=53 nrdy=2 dxfer=0 dstat=0 lst=0 nrdyerr=0 dclr=0
1788555867.911636 [DRV] init=0 id=7 mode=0x1 lib=0x2 seq=0x1 odc=0x8b sts=0xe0 armed=1
1788555867.917440 [TRG] pulses=89 suppressed=1100 cyc=1600 rst=1 rstmode=0x40
1788555867.920379 [HLT] polls=187 faults=0x0 cfglost=0
1788555867.926252 [EFF] n=5 last=58539 min=58421 max=58540 late=0 stuck=0 rderr=0
1788555867.936702 [IMU] init=0 addr=0x68 who=0x68 rst=1 pmrb0=0x40 pmrb=0x1 sr=19 cfg=4 gcfg=0x0 acfg=0x8 icfg=0x30 ien=0x1 armed=1
1788555867.941536 [ACC] reads=9361 stale=9349 rderr=0 ax=53 ay=-74 az=1129
1788555867.944243 [PWR] pm=0x1 drift=0 rderr=0
1788555867.948479 [DWT] ok=1 cyc=2596109558 cyc_per_ms=799878
1788555868.963470 [HB] up_ms=208451 frames=9407 inf=9407 hazard=1196 canary_err=0 q=0 qovr=0
1788555868.974717 [I2C] init=0 gate=0 whoami=0x140e0 wr=0 wrseen=0x27 addr=0x5a ok=59502 err=0 tmo=0 recov=1 pclk1=200000000 sysclk=400000000
1788555868.976100 [NAK] nacks=0
1788555868.980580 [CLK] cpu=800000000 sysb=400000000 pclk1=200000000
1788555868.985320 [TOF] res=0 step=0 id=0xeacc blk=0xeacc10 ctl=0x0
1788555868.991130 [RNG] init=0 step=99 id=0xeacc boot=1 calls=93 xerr=0 dm=1 tb=15
1788555868.998123 [RNG] osc=41 imp=881 imprb=881 mstart=0x40 cfg=91 cfgfail=0x0 vhv=0 vpolls=0
1788555869.004235 [PRT] calls=37745 xerr=0 ler=1 lidx=0x0 perr=0 maxcnt=17 addr8=0x52
1788555869.008242 [RTY] wr=0 wmax=0 wref=0  rd=0 rmax=0 rref=0
1788555869.016170 [RNG] frames=9407 last=44 min=29 max=53 nrdy=2 dxfer=0 dstat=0 lst=0 nrdyerr=0 dclr=0
1788555869.022359 [DRV] init=0 id=7 mode=0x1 lib=0x2 seq=0x1 odc=0x8b sts=0xe0 armed=1
1788555869.027729 [TRG] pulses=90 suppressed=1109 cyc=1600 rst=1 rstmode=0x40
1788555869.031143 [HLT] polls=188 faults=0x0 cfglost=0
1788555869.036861 [EFF] n=5 last=58539 min=58421 max=58540 late=0 stuck=0 rderr=0
1788555869.047137 [IMU] init=0 addr=0x68 who=0x68 rst=1 pmrb0=0x40 pmrb=0x1 sr=19 cfg=4 gcfg=0x0 acfg=0x8 icfg=0x30 ien=0x1 armed=1
1788555869.052241 [ACC] reads=9411 stale=9399 rderr=0 ax=44 ay=-76 az=1123
1788555869.054838 [PWR] pm=0x1 drift=0 rderr=0
1788555869.058832 [DWT] ok=1 cyc=3477713142 cyc_per_ms=800003
1788555870.074341 [HB] up_ms=209553 frames=9457 inf=9457 hazard=1230 canary_err=0 q=0 qovr=0
1788555870.085579 [I2C] init=0 gate=0 whoami=0x140e0 wr=0 wrseen=0x27 addr=0x5a ok=59804 err=0 tmo=0 recov=1 pclk1=200000000 sysclk=400000000
1788555870.086814 [NAK] nacks=0
1788555870.091453 [CLK] cpu=800000000 sysb=400000000 pclk1=200000000
1788555870.095956 [TOF] res=0 step=0 id=0xeacc blk=0xeacc10 ctl=0x0
1788555870.101836 [RNG] init=0 step=99 id=0xeacc boot=1 calls=93 xerr=0 dm=1 tb=15
1788555870.108831 [RNG] osc=41 imp=881 imprb=881 mstart=0x40 cfg=91 cfgfail=0x0 vhv=0 vpolls=0
1788555870.114932 [PRT] calls=37945 xerr=0 ler=1 lidx=0x0 perr=0 maxcnt=17 addr8=0x52
1788555870.119110 [RTY] wr=0 wmax=0 wref=0  rd=0 rmax=0 rref=0
1788555870.126811 [RNG] frames=9457 last=42 min=29 max=53 nrdy=2 dxfer=0 dstat=0 lst=0 nrdyerr=0 dclr=0
1788555870.133257 [DRV] init=0 id=7 mode=0x1 lib=0x2 seq=0x1 odc=0x8b sts=0xe0 armed=1
1788555870.138431 [TRG] pulses=92 suppressed=1138 cyc=1600 rst=1 rstmode=0x40
1788555870.141818 [HLT] polls=189 faults=0x0 cfglost=0
1788555870.147554 [EFF] n=5 last=58539 min=58421 max=58540 late=0 stuck=0 rderr=0
1788555870.157939 [IMU] init=0 addr=0x68 who=0x68 rst=1 pmrb0=0x40 pmrb=0x1 sr=19 cfg=4 gcfg=0x0 acfg=0x8 icfg=0x30 ien=0x1 armed=1
1788555870.163050 [ACC] reads=9461 stale=9449 rderr=0 ax=44 ay=-74 az=1126
1788555870.165690 [PWR] pm=0x1 drift=0 rderr=0
1788555870.169445 [DWT] ok=1 cyc=64342214 cyc_per_ms=799996
1788555871.185320 [HB] up_ms=210655 frames=9507 inf=9507 hazard=1230 canary_err=0 q=0 qovr=0
1788555871.196415 [I2C] init=0 gate=0 whoami=0x140e0 wr=0 wrseen=0x27 addr=0x5a ok=60106 err=0 tmo=0 recov=1 pclk1=200000000 sysclk=400000000
1788555871.197780 [NAK] nacks=0
1788555871.202320 [CLK] cpu=800000000 sysb=400000000 pclk1=200000000
1788555871.206779 [TOF] res=0 step=0 id=0xeacc blk=0xeacc10 ctl=0x0
1788555871.212666 [RNG] init=0 step=99 id=0xeacc boot=1 calls=93 xerr=0 dm=1 tb=15
1788555871.219800 [RNG] osc=41 imp=881 imprb=881 mstart=0x40 cfg=91 cfgfail=0x0 vhv=0 vpolls=0
1788555871.225772 [PRT] calls=38145 xerr=0 ler=1 lidx=0x0 perr=0 maxcnt=17 addr8=0x52
1788555871.229894 [RTY] wr=0 wmax=0 wref=0  rd=0 rmax=0 rref=0
1788555871.237541 [RNG] frames=9507 last=41 min=29 max=53 nrdy=2 dxfer=0 dstat=0 lst=0 nrdyerr=0 dclr=0
1788555871.243894 [DRV] init=0 id=7 mode=0x1 lib=0x2 seq=0x1 odc=0x8b sts=0xe0 armed=1
1788555871.249304 [TRG] pulses=92 suppressed=1138 cyc=1600 rst=1 rstmode=0x40
1788555871.252683 [HLT] polls=190 faults=0x0 cfglost=0
1788555871.258404 [EFF] n=5 last=58539 min=58421 max=58540 late=0 stuck=0 rderr=0
1788555871.268812 [IMU] init=0 addr=0x68 who=0x68 rst=1 pmrb0=0x40 pmrb=0x1 sr=19 cfg=4 gcfg=0x0 acfg=0x8 icfg=0x30 ien=0x1 armed=1
1788555871.273927 [ACC] reads=9511 stale=9499 rderr=0 ax=45 ay=-75 az=1123
1788555871.276551 [PWR] pm=0x1 drift=0 rderr=0
1788555871.280403 [DWT] ok=1 cyc=945942366 cyc_per_ms=800000
1788555872.296247 [HB] up_ms=211757 frames=9557 inf=9557 hazard=1230 canary_err=0 q=0 qovr=0
1788555872.307395 [I2C] init=0 gate=0 whoami=0x140e0 wr=0 wrseen=0x27 addr=0x5a ok=60408 err=0 tmo=0 recov=1 pclk1=200000000 sysclk=400000000
1788555872.308757 [NAK] nacks=0
1788555872.313370 [CLK] cpu=800000000 sysb=400000000 pclk1=200000000
1788555872.318010 [TOF] res=0 step=0 id=0xeacc blk=0xeacc10 ctl=0x0
1788555872.323643 [RNG] init=0 step=99 id=0xeacc boot=1 calls=93 xerr=0 dm=1 tb=15
1788555872.330762 [RNG] osc=41 imp=881 imprb=881 mstart=0x40 cfg=91 cfgfail=0x0 vhv=0 vpolls=0
1788555872.336901 [PRT] calls=38345 xerr=0 ler=1 lidx=0x0 perr=0 maxcnt=17 addr8=0x52
1788555872.340894 [RTY] wr=0 wmax=0 wref=0  rd=0 rmax=0 rref=0
1788555872.348698 [RNG] frames=9557 last=35 min=29 max=53 nrdy=2 dxfer=0 dstat=0 lst=0 nrdyerr=0 dclr=0
1788555872.355006 [DRV] init=0 id=7 mode=0x1 lib=0x2 seq=0x1 odc=0x8b sts=0xe0 armed=1
1788555872.360369 [TRG] pulses=92 suppressed=1138 cyc=1600 rst=1 rstmode=0x40
1788555872.363738 [HLT] polls=191 faults=0x0 cfglost=0
1788555872.369514 [EFF] n=5 last=58539 min=58421 max=58540 late=0 stuck=0 rderr=0
1788555872.379759 [IMU] init=0 addr=0x68 who=0x68 rst=1 pmrb0=0x40 pmrb=0x1 sr=19 cfg=4 gcfg=0x0 acfg=0x8 icfg=0x30 ien=0x1 armed=1
1788555872.384908 [ACC] reads=9561 stale=9549 rderr=0 ax=44 ay=-75 az=1122
1788555872.387512 [PWR] pm=0x1 drift=0 rderr=0
1788555872.391506 [DWT] ok=1 cyc=1827542214 cyc_per_ms=799999
1788555873.406988 [HB] up_ms=212859 frames=9607 inf=9607 hazard=1230 canary_err=0 q=0 qovr=0
1788555873.418218 [I2C] init=0 gate=0 whoami=0x140e0 wr=0 wrseen=0x27 addr=0x5a ok=60710 err=0 tmo=0 recov=1 pclk1=200000000 sysclk=400000000
1788555873.419485 [NAK] nacks=0
1788555873.424151 [CLK] cpu=800000000 sysb=400000000 pclk1=200000000
1788555873.428606 [TOF] res=0 step=0 id=0xeacc blk=0xeacc10 ctl=0x0
1788555873.434529 [RNG] init=0 step=99 id=0xeacc boot=1 calls=93 xerr=0 dm=1 tb=15
1788555873.441470 [RNG] osc=41 imp=881 imprb=881 mstart=0x40 cfg=91 cfgfail=0x0 vhv=0 vpolls=0
1788555873.447607 [PRT] calls=38542 xerr=0 ler=1 lidx=0x0 perr=0 maxcnt=17 addr8=0x52
1788555873.451764 [RTY] wr=0 wmax=0 wref=0  rd=0 rmax=0 rref=0
1788555873.459339 [RNG] frames=9607 last=40 min=29 max=53 nrdy=2 dxfer=0 dstat=0 lst=0 nrdyerr=0 dclr=0
1788555873.465749 [DRV] init=0 id=7 mode=0x1 lib=0x2 seq=0x1 odc=0x8b sts=0xe0 armed=1
1788555873.471113 [TRG] pulses=92 suppressed=1138 cyc=1600 rst=1 rstmode=0x40
1788555873.474498 [HLT] polls=192 faults=0x0 cfglost=0
1788555873.480238 [EFF] n=5 last=58539 min=58421 max=58540 late=0 stuck=0 rderr=0
1788555873.490632 [IMU] init=0 addr=0x68 who=0x68 rst=1 pmrb0=0x40 pmrb=0x1 sr=19 cfg=4 gcfg=0x0 acfg=0x8 icfg=0x30 ien=0x1 armed=1
1788555873.495714 [ACC] reads=9611 stale=9599 rderr=0 ax=45 ay=-75 az=1122
1788555873.498352 [PWR] pm=0x1 drift=0 rderr=0
1788555873.502340 [DWT] ok=1 cyc=2709142314 cyc_per_ms=800000
1788555874.518341 [HB] up_ms=213961 frames=9657 inf=9657 hazard=1230 canary_err=0 q=0 qovr=0
1788555874.529316 [I2C] init=0 gate=0 whoami=0x140e0 wr=0 wrseen=0x27 addr=0x5a ok=61012 err=0 tmo=0 recov=1 pclk1=200000000 sysclk=400000000
1788555874.530762 [NAK] nacks=0
1788555874.535466 [CLK] cpu=800000000 sysb=400000000 pclk1=200000000
1788555874.539934 [TOF] res=0 step=0 id=0xeacc blk=0xeacc10 ctl=0x0
1788555874.545802 [RNG] init=0 step=99 id=0xeacc boot=1 calls=93 xerr=0 dm=1 tb=15
1788555874.552679 [RNG] osc=41 imp=881 imprb=881 mstart=0x40 cfg=91 cfgfail=0x0 vhv=0 vpolls=0
1788555874.558945 [PRT] calls=38741 xerr=0 ler=1 lidx=0x0 perr=0 maxcnt=17 addr8=0x52
1788555874.563096 [RTY] wr=0 wmax=0 wref=0  rd=0 rmax=0 rref=0
1788555874.570711 [RNG] frames=9657 last=42 min=29 max=53 nrdy=2 dxfer=0 dstat=0 lst=0 nrdyerr=0 dclr=0
1788555874.576957 [DRV] init=0 id=7 mode=0x1 lib=0x2 seq=0x1 odc=0x8b sts=0xe0 armed=1
1788555874.582992 [TRG] pulses=92 suppressed=1138 cyc=1600 rst=1 rstmode=0x40
1788555874.585841 [HLT] polls=193 faults=0x0 cfglost=0
1788555874.591565 [EFF] n=5 last=58539 min=58421 max=58540 late=0 stuck=0 rderr=0
1788555874.601962 [IMU] init=0 addr=0x68 who=0x68 rst=1 pmrb0=0x40 pmrb=0x1 sr=19 cfg=4 gcfg=0x0 acfg=0x8 icfg=0x30 ien=0x1 armed=1
1788555874.607091 [ACC] reads=9661 stale=9649 rderr=0 ax=43 ay=-76 az=1124
1788555874.609694 [PWR] pm=0x1 drift=0 rderr=0
1788555874.613688 [DWT] ok=1 cyc=3590742314 cyc_per_ms=800000
1788555875.629703 [HB] up_ms=215063 frames=9707 inf=9707 hazard=1230 canary_err=0 q=0 qovr=0
1788555875.640789 [I2C] init=0 gate=0 whoami=0x140e0 wr=0 wrseen=0x27 addr=0x5a ok=61314 err=0 tmo=0 recov=1 pclk1=200000000 sysclk=400000000
1788555875.642032 [NAK] nacks=0
1788555875.646903 [CLK] cpu=800000000 sysb=400000000 pclk1=200000000
1788555875.651749 [TOF] res=0 step=0 id=0xeacc blk=0xeacc10 ctl=0x0
1788555875.657184 [RNG] init=0 step=99 id=0xeacc boot=1 calls=93 xerr=0 dm=1 tb=15
1788555875.664035 [RNG] osc=41 imp=881 imprb=881 mstart=0x40 cfg=91 cfgfail=0x0 vhv=0 vpolls=0
1788555875.670405 [PRT] calls=38941 xerr=0 ler=1 lidx=0x0 perr=0 maxcnt=17 addr8=0x52
1788555875.674420 [RTY] wr=0 wmax=0 wref=0  rd=0 rmax=0 rref=0
1788555875.682337 [RNG] frames=9707 last=41 min=29 max=53 nrdy=2 dxfer=0 dstat=0 lst=0 nrdyerr=0 dclr=0
1788555875.688325 [DRV] init=0 id=7 mode=0x1 lib=0x2 seq=0x1 odc=0x8b sts=0xe0 armed=1
1788555875.693957 [TRG] pulses=92 suppressed=1138 cyc=1600 rst=1 rstmode=0x40
1788555875.697299 [HLT] polls=194 faults=0x0 cfglost=0
1788555875.703054 [EFF] n=5 last=58539 min=58421 max=58540 late=0 stuck=0 rderr=0
1788555875.713159 [IMU] init=0 addr=0x68 who=0x68 rst=1 pmrb0=0x40 pmrb=0x1 sr=19 cfg=4 gcfg=0x0 acfg=0x8 icfg=0x30 ien=0x1 armed=1
1788555875.718528 [ACC] reads=9710 stale=9698 rderr=0 ax=43 ay=-76 az=1125
1788555875.721203 [PWR] pm=0x1 drift=0 rderr=0
1788555875.725030 [DWT] ok=1 cyc=177403174 cyc_per_ms=800025
1788555876.741213 [HB] up_ms=216165 frames=9756 inf=9756 hazard=1266 canary_err=0 q=0 qovr=0
1788555876.752180 [I2C] init=0 gate=0 whoami=0x140e0 wr=0 wrseen=0x27 addr=0x5a ok=61616 err=0 tmo=0 recov=1 pclk1=200000000 sysclk=400000000
1788555876.753393 [NAK] nacks=0
1788555876.757999 [CLK] cpu=800000000 sysb=400000000 pclk1=200000000
1788555876.762756 [TOF] res=0 step=0 id=0xeacc blk=0xeacc10 ctl=0x0
1788555876.768535 [RNG] init=0 step=99 id=0xeacc boot=1 calls=93 xerr=0 dm=1 tb=15
1788555876.775501 [RNG] osc=41 imp=881 imprb=881 mstart=0x40 cfg=91 cfgfail=0x0 vhv=0 vpolls=0
1788555876.781497 [PRT] calls=39141 xerr=0 ler=1 lidx=0x0 perr=0 maxcnt=17 addr8=0x52
1788555876.785805 [RTY] wr=0 wmax=0 wref=0  rd=0 rmax=0 rref=0
1788555876.793518 [RNG] frames=9757 last=41 min=29 max=53 nrdy=2 dxfer=0 dstat=0 lst=0 nrdyerr=0 dclr=0
1788555876.799657 [DRV] init=0 id=7 mode=0x1 lib=0x2 seq=0x1 odc=0x8b sts=0xe0 armed=1
1788555876.805198 [TRG] pulses=95 suppressed=1174 cyc=1600 rst=1 rstmode=0x40
1788555876.808641 [HLT] polls=195 faults=0x0 cfglost=0
1788555876.814379 [EFF] n=5 last=58539 min=58421 max=58540 late=0 stuck=0 rderr=0
1788555876.824522 [IMU] init=0 addr=0x68 who=0x68 rst=1 pmrb0=0x40 pmrb=0x1 sr=19 cfg=4 gcfg=0x0 acfg=0x8 icfg=0x30 ien=0x1 armed=1
1788555876.829777 [ACC] reads=9760 stale=9748 rderr=0 ax=44 ay=-75 az=1122
1788555876.832596 [PWR] pm=0x1 drift=0 rderr=0
1788555876.836411 [DWT] ok=1 cyc=1059113410 cyc_per_ms=800100
1788555877.852251 [HB] up_ms=217267 frames=9806 inf=9806 hazard=1271 canary_err=0 q=0 qovr=0
1788555877.863367 [I2C] init=0 gate=0 whoami=0x140e0 wr=0 wrseen=0x27 addr=0x5a ok=61918 err=0 tmo=0 recov=1 pclk1=200000000 sysclk=400000000
1788555877.864607 [NAK] nacks=0
1788555877.869404 [CLK] cpu=800000000 sysb=400000000 pclk1=200000000
1788555877.873855 [TOF] res=0 step=0 id=0xeacc blk=0xeacc10 ctl=0x0
1788555877.879860 [RNG] init=0 step=99 id=0xeacc boot=1 calls=93 xerr=0 dm=1 tb=15
1788555877.886619 [RNG] osc=41 imp=881 imprb=881 mstart=0x40 cfg=91 cfgfail=0x0 vhv=0 vpolls=0
1788555877.892770 [PRT] calls=39341 xerr=0 ler=1 lidx=0x0 perr=0 maxcnt=17 addr8=0x52
1788555877.896984 [RTY] wr=0 wmax=0 wref=0  rd=0 rmax=0 rref=0
1788555877.904752 [RNG] frames=9806 last=42 min=29 max=53 nrdy=2 dxfer=0 dstat=0 lst=0 nrdyerr=0 dclr=0
1788555877.910863 [DRV] init=0 id=7 mode=0x1 lib=0x2 seq=0x1 odc=0x8b sts=0xe0 armed=1
1788555877.916664 [TRG] pulses=95 suppressed=1176 cyc=1600 rst=1 rstmode=0x40
1788555877.919729 [HLT] polls=196 faults=0x0 cfglost=0
1788555877.925603 [EFF] n=5 last=58539 min=58421 max=58540 late=0 stuck=0 rderr=0
1788555877.935896 [IMU] init=0 addr=0x68 who=0x68 rst=1 pmrb0=0x40 pmrb=0x1 sr=19 cfg=4 gcfg=0x0 acfg=0x8 icfg=0x30 ien=0x1 armed=1
1788555877.940847 [ACC] reads=9810 stale=9798 rderr=0 ax=45 ay=-77 az=1123
1788555877.943625 [PWR] pm=0x1 drift=0 rderr=0
1788555877.947732 [DWT] ok=1 cyc=1940663562 cyc_per_ms=799954
1788555878.962963 [HB] up_ms=218369 frames=9856 inf=9856 hazard=1271 canary_err=0 q=0 qovr=0
1788555878.974119 [I2C] init=0 gate=0 whoami=0x140e0 wr=0 wrseen=0x27 addr=0x5a ok=62214 err=0 tmo=0 recov=1 pclk1=200000000 sysclk=400000000
1788555878.975483 [NAK] nacks=0
1788555878.980111 [CLK] cpu=800000000 sysb=400000000 pclk1=200000000
1788555878.984600 [TOF] res=0 step=0 id=0xeacc blk=0xeacc10 ctl=0x0
1788555878.990575 [RNG] init=0 step=99 id=0xeacc boot=1 calls=93 xerr=0 dm=1 tb=15
1788555878.997464 [RNG] osc=41 imp=881 imprb=881 mstart=0x40 cfg=91 cfgfail=0x0 vhv=0 vpolls=0
1788555879.003590 [PRT] calls=39541 xerr=0 ler=1 lidx=0x0 perr=0 maxcnt=17 addr8=0x52
1788555879.007567 [RTY] wr=0 wmax=0 wref=0  rd=0 rmax=0 rref=0
1788555879.015469 [RNG] frames=9856 last=40 min=29 max=53 nrdy=2 dxfer=0 dstat=0 lst=0 nrdyerr=0 dclr=0
1788555879.021720 [DRV] init=0 id=7 mode=0x1 lib=0x2 seq=0x1 odc=0x8b sts=0xe0 armed=1
1788555879.027107 [TRG] pulses=95 suppressed=1176 cyc=1600 rst=1 rstmode=0x40
1788555879.030485 [HLT] polls=197 faults=0x0 cfglost=0
1788555879.036331 [EFF] n=5 last=58539 min=58421 max=58540 late=0 stuck=0 rderr=0
1788555879.046448 [IMU] init=0 addr=0x68 who=0x68 rst=1 pmrb0=0x40 pmrb=0x1 sr=19 cfg=4 gcfg=0x0 acfg=0x8 icfg=0x30 ien=0x1 armed=1
1788555879.051605 [ACC] reads=9860 stale=9848 rderr=0 ax=45 ay=-75 az=1125
1788555879.054367 [PWR] pm=0x1 drift=0 rderr=0
1788555879.058456 [DWT] ok=1 cyc=2822175070 cyc_per_ms=799919
1788555880.073456 [HB] up_ms=219471 frames=9906 inf=9906 hazard=1271 canary_err=0 q=0 qovr=0
1788555880.084587 [I2C] init=0 gate=0 whoami=0x140e0 wr=0 wrseen=0x27 addr=0x5a ok=62516 err=0 tmo=0 recov=1 pclk1=200000000 sysclk=400000000
1788555880.085946 [NAK] nacks=0
1788555880.090542 [CLK] cpu=800000000 sysb=400000000 pclk1=200000000
1788555880.095060 [TOF] res=0 step=0 id=0xeacc blk=0xeacc10 ctl=0x0
1788555880.100929 [RNG] init=0 step=99 id=0xeacc boot=1 calls=93 xerr=0 dm=1 tb=15
1788555880.107948 [RNG] osc=41 imp=881 imprb=881 mstart=0x40 cfg=91 cfgfail=0x0 vhv=0 vpolls=0
1788555880.114069 [PRT] calls=39741 xerr=0 ler=1 lidx=0x0 perr=0 maxcnt=17 addr8=0x52
1788555880.118061 [RTY] wr=0 wmax=0 wref=0  rd=0 rmax=0 rref=0
1788555880.125940 [RNG] frames=9906 last=41 min=29 max=53 nrdy=2 dxfer=0 dstat=0 lst=0 nrdyerr=0 dclr=0
1788555880.132069 [DRV] init=0 id=7 mode=0x1 lib=0x2 seq=0x1 odc=0x8b sts=0xe0 armed=1
1788555880.137426 [TRG] pulses=95 suppressed=1176 cyc=1600 rst=1 rstmode=0x40
1788555880.140788 [HLT] polls=198 faults=0x0 cfglost=0
1788555880.146535 [EFF] n=5 last=58539 min=58421 max=58540 late=0 stuck=0 rderr=0
1788555880.156926 [IMU] init=0 addr=0x68 who=0x68 rst=1 pmrb0=0x40 pmrb=0x1 sr=19 cfg=4 gcfg=0x0 acfg=0x8 icfg=0x30 ien=0x1 armed=1
1788555880.162044 [ACC] reads=9910 stale=9898 rderr=0 ax=43 ay=-75 az=1122
1788555880.164685 [PWR] pm=0x1 drift=0 rderr=0
1788555880.168707 [DWT] ok=1 cyc=3703775050 cyc_per_ms=799999
1788555881.183678 [HB] up_ms=220573 frames=9956 inf=9956 hazard=1271 canary_err=0 q=0 qovr=0
1788555881.194781 [I2C] init=0 gate=0 whoami=0x140e0 wr=0 wrseen=0x27 addr=0x5a ok=62818 err=0 tmo=0 recov=1 pclk1=200000000 sysclk=400000000
1788555881.196011 [NAK] nacks=0
1788555881.200730 [CLK] cpu=800000000 sysb=400000000 pclk1=200000000
1788555881.205179 [TOF] res=0 step=0 id=0xeacc blk=0xeacc10 ctl=0x0
1788555881.211004 [RNG] init=0 step=99 id=0xeacc boot=1 calls=93 xerr=0 dm=1 tb=15
1788555881.218003 [RNG] osc=41 imp=881 imprb=881 mstart=0x40 cfg=91 cfgfail=0x0 vhv=0 vpolls=0
1788555881.224170 [PRT] calls=39941 xerr=0 ler=1 lidx=0x0 perr=0 maxcnt=17 addr8=0x52
1788555881.228265 [RTY] wr=0 wmax=0 wref=0  rd=0 rmax=0 rref=0
1788555881.235934 [RNG] frames=9956 last=44 min=29 max=53 nrdy=2 dxfer=0 dstat=0 lst=0 nrdyerr=0 dclr=0
1788555881.242282 [DRV] init=0 id=7 mode=0x1 lib=0x2 seq=0x1 odc=0x8b sts=0xe0 armed=1
1788555881.247650 [TRG] pulses=95 suppressed=1176 cyc=1600 rst=1 rstmode=0x40
1788555881.251041 [HLT] polls=199 faults=0x0 cfglost=0
1788555881.256766 [EFF] n=5 last=58539 min=58421 max=58540 late=0 stuck=0 rderr=0
1788555881.267025 [IMU] init=0 addr=0x68 who=0x68 rst=1 pmrb0=0x40 pmrb=0x1 sr=19 cfg=4 gcfg=0x0 acfg=0x8 icfg=0x30 ien=0x1 armed=1
1788555881.272206 [ACC] reads=9960 stale=9948 rderr=0 ax=45 ay=-76 az=1124
1788555881.274897 [PWR] pm=0x1 drift=0 rderr=0
1788555881.278750 [DWT] ok=1 cyc=290407774 cyc_per_ms=800000
1788555882.294005 [HB] up_ms=221675 frames=10006 inf=10006 hazard=1271 canary_err=0 q=0 qovr=0
1788555882.305128 [I2C] init=0 gate=0 whoami=0x140e0 wr=0 wrseen=0x27 addr=0x5a ok=63120 err=0 tmo=0 recov=1 pclk1=200000000 sysclk=400000000
1788555882.306482 [NAK] nacks=0
1788555882.311133 [CLK] cpu=800000000 sysb=400000000 pclk1=200000000
1788555882.315630 [TOF] res=0 step=0 id=0xeacc blk=0xeacc10 ctl=0x0
1788555882.321368 [RNG] init=0 step=99 id=0xeacc boot=1 calls=93 xerr=0 dm=1 tb=15
1788555882.328488 [RNG] osc=41 imp=881 imprb=881 mstart=0x40 cfg=91 cfgfail=0x0 vhv=0 vpolls=0
1788555882.334651 [PRT] calls=40141 xerr=0 ler=1 lidx=0x0 perr=0 maxcnt=17 addr8=0x52
1788555882.338624 [RTY] wr=0 wmax=0 wref=0  rd=0 rmax=0 rref=0
1788555882.346378 [RNG] frames=10006 last=34 min=29 max=53 nrdy=2 dxfer=0 dstat=0 lst=0 nrdyerr=0 dclr=0
1788555882.352750 [DRV] init=0 id=7 mode=0x1 lib=0x2 seq=0x1 odc=0x8b sts=0xe0 armed=1
1788555882.358139 [TRG] pulses=95 suppressed=1176 cyc=1600 rst=1 rstmode=0x40
1788555882.361485 [HLT] polls=200 faults=0x0 cfglost=0
1788555882.367276 [EFF] n=5 last=58539 min=58421 max=58540 late=0 stuck=0 rderr=0
1788555882.377627 [IMU] init=0 addr=0x68 who=0x68 rst=1 pmrb0=0x40 pmrb=0x1 sr=19 cfg=4 gcfg=0x0 acfg=0x8 icfg=0x30 ien=0x1 armed=1
1788555882.382752 [ACC] reads=10010 stale=9998 rderr=0 ax=44 ay=-74 az=1126
1788555882.385503 [PWR] pm=0x1 drift=0 rderr=0
1788555882.389371 [DWT] ok=1 cyc=1172287422 cyc_per_ms=800253
1788555883.404349 [HB] up_ms=222777 frames=10056 inf=10056 hazard=1287 canary_err=0 q=0 qovr=0
1788555883.415499 [I2C] init=0 gate=0 whoami=0x140e0 wr=0 wrseen=0x27 addr=0x5a ok=63422 err=0 tmo=0 recov=1 pclk1=200000000 sysclk=400000000
1788555883.417465 [NAK] nacks=0
1788555883.421475 [CLK] cpu=800000000 sysb=400000000 pclk1=200000000
1788555883.425976 [TOF] res=0 step=0 id=0xeacc blk=0xeacc10 ctl=0x0
1788555883.431733 [RNG] init=0 step=99 id=0xeacc boot=1 calls=93 xerr=0 dm=1 tb=15
1788555883.438734 [RNG] osc=41 imp=881 imprb=881 mstart=0x40 cfg=91 cfgfail=0x0 vhv=0 vpolls=0
1788555883.444947 [PRT] calls=40341 xerr=0 ler=1 lidx=0x0 perr=0 maxcnt=17 addr8=0x52
1788555883.448964 [RTY] wr=0 wmax=0 wref=0  rd=0 rmax=0 rref=0
1788555883.456709 [RNG] frames=10056 last=37 min=29 max=53 nrdy=2 dxfer=0 dstat=0 lst=0 nrdyerr=0 dclr=0
1788555883.463129 [DRV] init=0 id=7 mode=0x1 lib=0x2 seq=0x1 odc=0x8b sts=0xe0 armed=1
1788555883.468491 [TRG] pulses=97 suppressed=1193 cyc=1600 rst=1 rstmode=0x40
1788555883.471824 [HLT] polls=201 faults=0x0 cfglost=0
1788555883.477582 [EFF] n=5 last=58539 min=58421 max=58540 late=0 stuck=0 rderr=0
1788555883.487981 [IMU] init=0 addr=0x68 who=0x68 rst=1 pmrb0=0x40 pmrb=0x1 sr=19 cfg=4 gcfg=0x0 acfg=0x8 icfg=0x30 ien=0x1 armed=1
1788555883.493214 [ACC] reads=10060 stale=10048 rderr=0 ax=44 ay=-76 az=1124
1788555883.495970 [PWR] pm=0x1 drift=0 rderr=0
1788555883.499914 [DWT] ok=1 cyc=2053961034 cyc_per_ms=800066
1788555884.514865 [HB] up_ms=223879 frames=10106 inf=10106 hazard=1312 canary_err=0 q=0 qovr=0
1788555884.525790 [I2C] init=0 gate=0 whoami=0x140e0 wr=0 wrseen=0x27 addr=0x5a ok=63724 err=0 tmo=0 recov=1 pclk1=200000000 sysclk=400000000
1788555884.527287 [NAK] nacks=0
1788555884.532003 [CLK] cpu=800000000 sysb=400000000 pclk1=200000000
1788555884.536940 [TOF] res=0 step=0 id=0xeacc blk=0xeacc10 ctl=0x0
1788555884.542303 [RNG] init=0 step=99 id=0xeacc boot=1 calls=93 xerr=0 dm=1 tb=15
1788555884.549236 [RNG] osc=41 imp=881 imprb=881 mstart=0x40 cfg=91 cfgfail=0x0 vhv=0 vpolls=0
1788555884.555443 [PRT] calls=40537 xerr=0 ler=1 lidx=0x0 perr=0 maxcnt=17 addr8=0x52
1788555884.559432 [RTY] wr=0 wmax=0 wref=0  rd=0 rmax=0 rref=0
1788555884.567211 [RNG] frames=10106 last=43 min=29 max=53 nrdy=2 dxfer=0 dstat=0 lst=0 nrdyerr=0 dclr=0
1788555884.573573 [DRV] init=0 id=7 mode=0x1 lib=0x2 seq=0x1 odc=0x8b sts=0xe0 armed=1
1788555884.578922 [TRG] pulses=98 suppressed=1214 cyc=1600 rst=1 rstmode=0x40
1788555884.582311 [HLT] polls=202 faults=0x0 cfglost=0
1788555884.588112 [EFF] n=5 last=58539 min=58421 max=58540 late=0 stuck=0 rderr=0
1788555884.598446 [IMU] init=0 addr=0x68 who=0x68 rst=1 pmrb0=0x40 pmrb=0x1 sr=19 cfg=4 gcfg=0x0 acfg=0x8 icfg=0x30 ien=0x1 armed=1
1788555884.603733 [ACC] reads=10110 stale=10098 rderr=0 ax=43 ay=-74 az=1126
1788555884.606309 [PWR] pm=0x1 drift=0 rderr=0
1788555884.610303 [DWT] ok=1 cyc=2935557538 cyc_per_ms=799996
1788555885.624559 [HB] up_ms=224981 frames=10156 inf=10156 hazard=1312 canary_err=0 q=0 qovr=0
1788555885.635572 [I2C] init=0 gate=0 whoami=0x140e0 wr=0 wrseen=0x27 addr=0x5a ok=64026 err=0 tmo=0 recov=1 pclk1=200000000 sysclk=400000000
1788555885.636918 [NAK] nacks=0
1788555885.641725 [CLK] cpu=800000000 sysb=400000000 pclk1=200000000
1788555885.646158 [TOF] res=0 step=0 id=0xeacc blk=0xeacc10 ctl=0x0
1788555885.652031 [RNG] init=0 step=99 id=0xeacc boot=1 calls=93 xerr=0 dm=1 tb=15
1788555885.658894 [RNG] osc=41 imp=881 imprb=881 mstart=0x40 cfg=91 cfgfail=0x0 vhv=0 vpolls=0
1788555885.665170 [PRT] calls=40737 xerr=0 ler=1 lidx=0x0 perr=0 maxcnt=17 addr8=0x52
1788555885.669311 [RTY] wr=0 wmax=0 wref=0  rd=0 rmax=0 rref=0
1788555885.677045 [RNG] frames=10156 last=45 min=29 max=53 nrdy=2 dxfer=0 dstat=0 lst=0 nrdyerr=0 dclr=0
1788555885.683222 [DRV] init=0 id=7 mode=0x1 lib=0x2 seq=0x1 odc=0x8b sts=0xe0 armed=1
1788555885.688768 [TRG] pulses=98 suppressed=1214 cyc=1600 rst=1 rstmode=0x40
1788555885.692152 [HLT] polls=203 faults=0x0 cfglost=0
1788555885.697914 [EFF] n=5 last=58539 min=58421 max=58540 late=0 stuck=0 rderr=0
1788555885.708033 [IMU] init=0 addr=0x68 who=0x68 rst=1 pmrb0=0x40 pmrb=0x1 sr=19 cfg=4 gcfg=0x0 acfg=0x8 icfg=0x30 ien=0x1 armed=1
1788555885.713539 [ACC] reads=10159 stale=10147 rderr=0 ax=41 ay=-77 az=1123
1788555885.716198 [PWR] pm=0x1 drift=0 rderr=0
1788555885.720034 [DWT] ok=1 cyc=3817157518 cyc_per_ms=799999
1788555886.735425 [HB] up_ms=226083 frames=10205 inf=10205 hazard=1312 canary_err=0 q=0 qovr=0
1788555886.745760 [I2C] init=0 gate=0 whoami=0x140e0 wr=0 wrseen=0x27 addr=0x5a ok=64328 err=0 tmo=0 recov=1 pclk1=200000000 sysclk=400000000
1788555886.747201 [NAK] nacks=0
1788555886.751764 [CLK] cpu=800000000 sysb=400000000 pclk1=200000000
1788555886.756362 [TOF] res=0 step=0 id=0xeacc blk=0xeacc10 ctl=0x0
1788555886.762250 [RNG] init=0 step=99 id=0xeacc boot=1 calls=93 xerr=0 dm=1 tb=15
1788555886.769167 [RNG] osc=41 imp=881 imprb=881 mstart=0x40 cfg=91 cfgfail=0x0 vhv=0 vpolls=0
1788555886.775250 [PRT] calls=40937 xerr=0 ler=1 lidx=0x0 perr=0 maxcnt=17 addr8=0x52
1788555886.779358 [RTY] wr=0 wmax=0 wref=0  rd=0 rmax=0 rref=0
1788555886.787159 [RNG] frames=10206 last=44 min=29 max=53 nrdy=2 dxfer=0 dstat=0 lst=0 nrdyerr=0 dclr=0
1788555886.793403 [DRV] init=0 id=7 mode=0x1 lib=0x2 seq=0x1 odc=0x8b sts=0xe0 armed=1
1788555886.798886 [TRG] pulses=98 suppressed=1214 cyc=1600 rst=1 rstmode=0x40
1788555886.802247 [HLT] polls=204 faults=0x0 cfglost=0
1788555886.808010 [EFF] n=5 last=58539 min=58421 max=58540 late=0 stuck=0 rderr=0
1788555886.818164 [IMU] init=0 addr=0x68 who=0x68 rst=1 pmrb0=0x40 pmrb=0x1 sr=19 cfg=4 gcfg=0x0 acfg=0x8 icfg=0x30 ien=0x1 armed=1
1788555886.823621 [ACC] reads=10209 stale=10196 rderr=0 ax=44 ay=-76 az=1125
1788555886.826239 [PWR] pm=0x1 drift=0 rderr=0
1788555886.830154 [DWT] ok=1 cyc=403923618 cyc_per_ms=800121
1788555887.844429 [HB] up_ms=227185 frames=10255 inf=10255 hazard=1312 canary_err=0 q=0 qovr=0
1788555887.855415 [I2C] init=0 gate=0 whoami=0x140e0 wr=0 wrseen=0x27 addr=0x5a ok=64630 err=0 tmo=0 recov=1 pclk1=200000000 sysclk=400000000
1788555887.856741 [NAK] nacks=0
1788555887.861238 [CLK] cpu=800000000 sysb=400000000 pclk1=200000000
1788555887.866031 [TOF] res=0 step=0 id=0xeacc blk=0xeacc10 ctl=0x0
1788555887.871836 [RNG] init=0 step=99 id=0xeacc boot=1 calls=93 xerr=0 dm=1 tb=15
1788555887.878607 [RNG] osc=41 imp=881 imprb=881 mstart=0x40 cfg=91 cfgfail=0x0 vhv=0 vpolls=0
1788555887.884725 [PRT] calls=41137 xerr=0 ler=1 lidx=0x0 perr=0 maxcnt=17 addr8=0x52
1788555887.888965 [RTY] wr=0 wmax=0 wref=0  rd=0 rmax=0 rref=0
1788555887.896720 [RNG] frames=10256 last=43 min=29 max=53 nrdy=2 dxfer=0 dstat=0 lst=0 nrdyerr=0 dclr=0
1788555887.903054 [DRV] init=0 id=7 mode=0x1 lib=0x2 seq=0x1 odc=0x8b sts=0xe0 armed=1
1788555887.908354 [TRG] pulses=98 suppressed=1214 cyc=1600 rst=1 rstmode=0x40
1788555887.911837 [HLT] polls=205 faults=0x0 cfglost=0
1788555887.917617 [EFF] n=5 last=58539 min=58421 max=58540 late=0 stuck=0 rderr=0
1788555887.927751 [IMU] init=0 addr=0x68 who=0x68 rst=1 pmrb0=0x40 pmrb=0x1 sr=19 cfg=4 gcfg=0x0 acfg=0x8 icfg=0x30 ien=0x1 armed=1
1788555887.933218 [ACC] reads=10259 stale=10246 rderr=0 ax=45 ay=-75 az=1124
1788555887.935875 [PWR] pm=0x1 drift=0 rderr=0
1788555887.939871 [DWT] ok=1 cyc=1285524342 cyc_per_ms=800000
1788555888.954313 [HB] up_ms=228287 frames=10305 inf=10305 hazard=1312 canary_err=0 q=0 qovr=0
1788555888.965473 [I2C] init=0 gate=0 whoami=0x140e0 wr=0 wrseen=0x27 addr=0x5a ok=64928 err=0 tmo=0 recov=1 pclk1=200000000 sysclk=400000000
1788555888.966858 [NAK] nacks=0
1788555888.971451 [CLK] cpu=800000000 sysb=400000000 pclk1=200000000
1788555888.975965 [TOF] res=0 step=0 id=0xeacc blk=0xeacc10 ctl=0x0
1788555888.981954 [RNG] init=0 step=99 id=0xeacc boot=1 calls=93 xerr=0 dm=1 tb=15
1788555888.988836 [RNG] osc=41 imp=881 imprb=881 mstart=0x40 cfg=91 cfgfail=0x0 vhv=0 vpolls=0
1788555888.994954 [PRT] calls=41337 xerr=0 ler=1 lidx=0x0 perr=0 maxcnt=17 addr8=0x52
1788555888.998922 [RTY] wr=0 wmax=0 wref=0  rd=0 rmax=0 rref=0
1788555889.006941 [RNG] frames=10305 last=39 min=29 max=53 nrdy=2 dxfer=0 dstat=0 lst=0 nrdyerr=0 dclr=0
1788555889.013055 [DRV] init=0 id=7 mode=0x1 lib=0x2 seq=0x1 odc=0x8b sts=0xe0 armed=1
1788555889.018493 [TRG] pulses=98 suppressed=1214 cyc=1600 rst=1 rstmode=0x40
1788555889.021803 [HLT] polls=206 faults=0x0 cfglost=0
1788555889.027683 [EFF] n=5 last=58539 min=58421 max=58540 late=0 stuck=0 rderr=0
1788555889.037815 [IMU] init=0 addr=0x68 who=0x68 rst=1 pmrb0=0x40 pmrb=0x1 sr=19 cfg=4 gcfg=0x0 acfg=0x8 icfg=0x30 ien=0x1 armed=1
1788555889.043188 [ACC] reads=10309 stale=10296 rderr=0 ax=43 ay=-75 az=1122
1788555889.045803 [PWR] pm=0x1 drift=0 rderr=0
1788555889.049979 [DWT] ok=1 cyc=2166990350 cyc_per_ms=799878
1788555890.063914 [HB] up_ms=229389 frames=10355 inf=10355 hazard=1312 canary_err=0 q=0 qovr=0
1788555890.075197 [I2C] init=0 gate=0 whoami=0x140e0 wr=0 wrseen=0x27 addr=0x5a ok=65228 err=0 tmo=0 recov=1 pclk1=200000000 sysclk=400000000
1788555890.076424 [NAK] nacks=0
1788555890.081039 [CLK] cpu=800000000 sysb=400000000 pclk1=200000000
1788555890.085604 [TOF] res=0 step=0 id=0xeacc blk=0xeacc10 ctl=0x0
1788555890.091538 [RNG] init=0 step=99 id=0xeacc boot=1 calls=93 xerr=0 dm=1 tb=15
1788555890.098451 [RNG] osc=41 imp=881 imprb=881 mstart=0x40 cfg=91 cfgfail=0x0 vhv=0 vpolls=0
1788555890.104556 [PRT] calls=41537 xerr=0 ler=1 lidx=0x0 perr=0 maxcnt=17 addr8=0x52
1788555890.108546 [RTY] wr=0 wmax=0 wref=0  rd=0 rmax=0 rref=0
1788555890.116528 [RNG] frames=10355 last=51 min=29 max=53 nrdy=2 dxfer=0 dstat=0 lst=0 nrdyerr=0 dclr=0
1788555890.122687 [DRV] init=0 id=7 mode=0x1 lib=0x2 seq=0x1 odc=0x8b sts=0xe0 armed=1
1788555890.128027 [TRG] pulses=98 suppressed=1214 cyc=1600 rst=1 rstmode=0x40
1788555890.131442 [HLT] polls=207 faults=0x0 cfglost=0
1788555890.137363 [EFF] n=5 last=58539 min=58421 max=58540 late=0 stuck=0 rderr=0
1788555890.147544 [IMU] init=0 addr=0x68 who=0x68 rst=1 pmrb0=0x40 pmrb=0x1 sr=19 cfg=4 gcfg=0x0 acfg=0x8 icfg=0x30 ien=0x1 armed=1
1788555890.152798 [ACC] reads=10359 stale=10346 rderr=0 ax=43 ay=-75 az=1127
1788555890.155416 [PWR] pm=0x1 drift=0 rderr=0
1788555890.159403 [DWT] ok=1 cyc=3048590102 cyc_per_ms=799999
1788555891.173893 [HB] up_ms=230491 frames=10405 inf=10405 hazard=1353 canary_err=0 q=0 qovr=0
1788555891.185023 [I2C] init=0 gate=0 whoami=0x140e0 wr=0 wrseen=0x27 addr=0x5a ok=65530 err=0 tmo=0 recov=1 pclk1=200000000 sysclk=400000000
1788555891.186402 [NAK] nacks=0
1788555891.191003 [CLK] cpu=800000000 sysb=400000000 pclk1=200000000
1788555891.195505 [TOF] res=0 step=0 id=0xeacc blk=0xeacc10 ctl=0x0
1788555891.201254 [RNG] init=0 step=99 id=0xeacc boot=1 calls=93 xerr=0 dm=1 tb=15
1788555891.208579 [RNG] osc=41 imp=881 imprb=881 mstart=0x40 cfg=91 cfgfail=0x0 vhv=0 vpolls=0
1788555891.214502 [PRT] calls=41737 xerr=0 ler=1 lidx=0x0 perr=0 maxcnt=17 addr8=0x52
1788555891.218515 [RTY] wr=0 wmax=0 wref=0  rd=0 rmax=0 rref=0
1788555891.226371 [RNG] frames=10405 last=40 min=29 max=53 nrdy=2 dxfer=0 dstat=0 lst=0 nrdyerr=0 dclr=0
1788555891.232786 [DRV] init=0 id=7 mode=0x1 lib=0x2 seq=0x1 odc=0x8b sts=0xe0 armed=1
1788555891.238128 [TRG] pulses=101 suppressed=1252 cyc=1600 rst=1 rstmode=0x40
1788555891.241488 [HLT] polls=208 faults=0x0 cfglost=0
1788555891.247239 [EFF] n=5 last=58539 min=58421 max=58540 late=0 stuck=0 rderr=0
1788555891.257559 [IMU] init=0 addr=0x68 who=0x68 rst=1 pmrb0=0x40 pmrb=0x1 sr=19 cfg=4 gcfg=0x0 acfg=0x8 icfg=0x30 ien=0x1 armed=1
1788555891.262890 [ACC] reads=10409 stale=10396 rderr=0 ax=42 ay=-75 az=1126
1788555891.265543 [PWR] pm=0x1 drift=0 rderr=0
1788555891.269524 [DWT] ok=1 cyc=3930260074 cyc_per_ms=800063
1788555892.283808 [HB] up_ms=231593 frames=10455 inf=10455 hazard=1353 canary_err=0 q=0 qovr=0
1788555892.294729 [I2C] init=0 gate=0 whoami=0x140e0 wr=0 wrseen=0x27 addr=0x5a ok=65832 err=0 tmo=0 recov=1 pclk1=200000000 sysclk=400000000
1788555892.296130 [NAK] nacks=0
1788555892.300752 [CLK] cpu=800000000 sysb=400000000 pclk1=200000000
1788555892.305245 [TOF] res=0 step=0 id=0xeacc blk=0xeacc10 ctl=0x0
1788555892.310982 [RNG] init=0 step=99 id=0xeacc boot=1 calls=93 xerr=0 dm=1 tb=15
1788555892.318152 [RNG] osc=41 imp=881 imprb=881 mstart=0x40 cfg=91 cfgfail=0x0 vhv=0 vpolls=0
1788555892.324120 [PRT] calls=41937 xerr=0 ler=1 lidx=0x0 perr=0 maxcnt=17 addr8=0x52
1788555892.328232 [RTY] wr=0 wmax=0 wref=0  rd=0 rmax=0 rref=0
1788555892.336037 [RNG] frames=10455 last=42 min=29 max=53 nrdy=2 dxfer=0 dstat=0 lst=0 nrdyerr=0 dclr=0
1788555892.342355 [DRV] init=0 id=7 mode=0x1 lib=0x2 seq=0x1 odc=0x8b sts=0xe0 armed=1
1788555892.347851 [TRG] pulses=101 suppressed=1252 cyc=1600 rst=1 rstmode=0x40
1788555892.351184 [HLT] polls=209 faults=0x0 cfglost=0
1788555892.356866 [EFF] n=5 last=58539 min=58421 max=58540 late=0 stuck=0 rderr=0
1788555892.367259 [IMU] init=0 addr=0x68 who=0x68 rst=1 pmrb0=0x40 pmrb=0x1 sr=19 cfg=4 gcfg=0x0 acfg=0x8 icfg=0x30 ien=0x1 armed=1
1788555892.372503 [ACC] reads=10459 stale=10446 rderr=0 ax=44 ay=-75 az=1124
1788555892.375232 [PWR] pm=0x1 drift=0 rderr=0
1788555892.379129 [DWT] ok=1 cyc=516892866 cyc_per_ms=800000
1788555893.393483 [HB] up_ms=232695 frames=10505 inf=10505 hazard=1353 canary_err=0 q=0 qovr=0
1788555893.404718 [I2C] init=0 gate=0 whoami=0x140e0 wr=0 wrseen=0x27 addr=0x5a ok=66134 err=0 tmo=0 recov=1 pclk1=200000000 sysclk=400000000
1788555893.405953 [NAK] nacks=0
1788555893.410599 [CLK] cpu=800000000 sysb=400000000 pclk1=200000000
1788555893.415107 [TOF] res=0 step=0 id=0xeacc blk=0xeacc10 ctl=0x0
1788555893.421003 [RNG] init=0 step=99 id=0xeacc boot=1 calls=93 xerr=0 dm=1 tb=15
1788555893.427953 [RNG] osc=41 imp=881 imprb=881 mstart=0x40 cfg=91 cfgfail=0x0 vhv=0 vpolls=0
1788555893.434102 [PRT] calls=42137 xerr=0 ler=1 lidx=0x0 perr=0 maxcnt=17 addr8=0x52
1788555893.438089 [RTY] wr=0 wmax=0 wref=0  rd=0 rmax=0 rref=0
1788555893.445822 [RNG] frames=10505 last=38 min=29 max=53 nrdy=2 dxfer=0 dstat=0 lst=0 nrdyerr=0 dclr=0
1788555893.452213 [DRV] init=0 id=7 mode=0x1 lib=0x2 seq=0x1 odc=0x8b sts=0xe0 armed=1
1788555893.457712 [TRG] pulses=101 suppressed=1252 cyc=1600 rst=1 rstmode=0x40
1788555893.461094 [HLT] polls=210 faults=0x0 cfglost=0
1788555893.467016 [EFF] n=5 last=58539 min=58421 max=58540 late=0 stuck=0 rderr=0
1788555893.477072 [IMU] init=0 addr=0x68 who=0x68 rst=1 pmrb0=0x40 pmrb=0x1 sr=19 cfg=4 gcfg=0x0 acfg=0x8 icfg=0x30 ien=0x1 armed=1
1788555893.482450 [ACC] reads=10509 stale=10496 rderr=0 ax=44 ay=-77 az=1124
1788555893.485320 [PWR] pm=0x1 drift=0 rderr=0
1788555893.489099 [DWT] ok=1 cyc=1398492778 cyc_per_ms=799999
1788555894.503694 [HB] up_ms=233797 frames=10555 inf=10555 hazard=1353 canary_err=0 q=0 qovr=0
1788555894.514794 [I2C] init=0 gate=0 whoami=0x140e0 wr=0 wrseen=0x27 addr=0x5a ok=66436 err=0 tmo=0 recov=1 pclk1=200000000 sysclk=400000000
1788555894.516197 [NAK] nacks=0
1788555894.520812 [CLK] cpu=800000000 sysb=400000000 pclk1=200000000
1788555894.525291 [TOF] res=0 step=0 id=0xeacc blk=0xeacc10 ctl=0x0
1788555894.531178 [RNG] init=0 step=99 id=0xeacc boot=1 calls=93 xerr=0 dm=1 tb=15
1788555894.538063 [RNG] osc=41 imp=881 imprb=881 mstart=0x40 cfg=91 cfgfail=0x0 vhv=0 vpolls=0
1788555894.544291 [PRT] calls=42334 xerr=0 ler=1 lidx=0x0 perr=0 maxcnt=17 addr8=0x52
1788555894.548309 [RTY] wr=0 wmax=0 wref=0  rd=0 rmax=0 rref=0
1788555894.556203 [RNG] frames=10555 last=48 min=29 max=53 nrdy=2 dxfer=0 dstat=0 lst=0 nrdyerr=0 dclr=0
1788555894.562548 [DRV] init=0 id=7 mode=0x1 lib=0x2 seq=0x1 odc=0x8b sts=0xe0 armed=1
1788555894.567932 [TRG] pulses=101 suppressed=1252 cyc=1600 rst=1 rstmode=0x40
1788555894.571330 [HLT] polls=211 faults=0x0 cfglost=0
1788555894.577048 [EFF] n=5 last=58539 min=58421 max=58540 late=0 stuck=0 rderr=0
1788555894.587466 [IMU] init=0 addr=0x68 who=0x68 rst=1 pmrb0=0x40 pmrb=0x1 sr=19 cfg=4 gcfg=0x0 acfg=0x8 icfg=0x30 ien=0x1 armed=1
1788555894.592701 [ACC] reads=10559 stale=10546 rderr=0 ax=44 ay=-77 az=1122
1788555894.595298 [PWR] pm=0x1 drift=0 rderr=0
1788555894.599443 [DWT] ok=1 cyc=2280093234 cyc_per_ms=800000
1788555895.613915 [HB] up_ms=234899 frames=10605 inf=10605 hazard=1353 canary_err=0 q=0 qovr=0
1788555895.624912 [I2C] init=0 gate=0 whoami=0x140e0 wr=0 wrseen=0x27 addr=0x5a ok=66738 err=0 tmo=0 recov=1 pclk1=200000000 sysclk=400000000
1788555895.626268 [NAK] nacks=0
1788555895.631014 [CLK] cpu=800000000 sysb=400000000 pclk1=200000000
1788555895.635538 [TOF] res=0 step=0 id=0xeacc blk=0xeacc10 ctl=0x0
1788555895.641407 [RNG] init=0 step=99 id=0xeacc boot=1 calls=93 xerr=0 dm=1 tb=15
1788555895.648276 [RNG] osc=41 imp=881 imprb=881 mstart=0x40 cfg=91 cfgfail=0x0 vhv=0 vpolls=0
1788555895.654535 [PRT] calls=42533 xerr=0 ler=1 lidx=0x0 perr=0 maxcnt=17 addr8=0x52
1788555895.658528 [RTY] wr=0 wmax=0 wref=0  rd=0 rmax=0 rref=0
1788555895.666428 [RNG] frames=10605 last=39 min=29 max=53 nrdy=2 dxfer=0 dstat=0 lst=0 nrdyerr=0 dclr=0
1788555895.672522 [DRV] init=0 id=7 mode=0x1 lib=0x2 seq=0x1 odc=0x8b sts=0xe0 armed=1
1788555895.678159 [TRG] pulses=101 suppressed=1252 cyc=1600 rst=1 rstmode=0x40
1788555895.681508 [HLT] polls=212 faults=0x0 cfglost=0
1788555895.687277 [EFF] n=5 last=58539 min=58421 max=58540 late=0 stuck=0 rderr=0
1788555895.697515 [IMU] init=0 addr=0x68 who=0x68 rst=1 pmrb0=0x40 pmrb=0x1 sr=19 cfg=4 gcfg=0x0 acfg=0x8 icfg=0x30 ien=0x1 armed=1
1788555895.703052 [ACC] reads=10609 stale=10596 rderr=0 ax=44 ay=-76 az=1125
1788555895.705549 [PWR] pm=0x1 drift=0 rderr=0
1788555895.709533 [DWT] ok=1 cyc=3161693042 cyc_per_ms=799999
1788555896.724260 [HB] up_ms=236001 frames=10655 inf=10655 hazard=1353 canary_err=0 q=0 qovr=0
1788555896.735254 [I2C] init=0 gate=0 whoami=0x140e0 wr=0 wrseen=0x27 addr=0x5a ok=67040 err=0 tmo=0 recov=1 pclk1=200000000 sysclk=400000000
1788555896.736626 [NAK] nacks=0
1788555896.741354 [CLK] cpu=800000000 sysb=400000000 pclk1=200000000
1788555896.745868 [TOF] res=0 step=0 id=0xeacc blk=0xeacc10 ctl=0x0
1788555896.751847 [RNG] init=0 step=99 id=0xeacc boot=1 calls=93 xerr=0 dm=1 tb=15
1788555896.758612 [RNG] osc=41 imp=881 imprb=881 mstart=0x40 cfg=91 cfgfail=0x0 vhv=0 vpolls=0
1788555896.764872 [PRT] calls=42733 xerr=0 ler=1 lidx=0x0 perr=0 maxcnt=17 addr8=0x52
1788555896.769036 [RTY] wr=0 wmax=0 wref=0  rd=0 rmax=0 rref=0
1788555896.776738 [RNG] frames=10655 last=40 min=29 max=53 nrdy=2 dxfer=0 dstat=0 lst=0 nrdyerr=0 dclr=0
1788555896.782882 [DRV] init=0 id=7 mode=0x1 lib=0x2 seq=0x1 odc=0x8b sts=0xe0 armed=1
1788555896.788616 [TRG] pulses=101 suppressed=1252 cyc=1600 rst=1 rstmode=0x40
1788555896.791858 [HLT] polls=213 faults=0x0 cfglost=0
1788555896.797615 [EFF] n=5 last=58539 min=58421 max=58540 late=0 stuck=0 rderr=0
1788555896.807870 [IMU] init=0 addr=0x68 who=0x68 rst=1 pmrb0=0x40 pmrb=0x1 sr=19 cfg=4 gcfg=0x0 acfg=0x8 icfg=0x30 ien=0x1 armed=1
1788555896.813231 [ACC] reads=10658 stale=10645 rderr=0 ax=45 ay=-74 az=1123
1788555896.815983 [PWR] pm=0x1 drift=0 rderr=0
1788555896.819855 [DWT] ok=1 cyc=4043321138 cyc_per_ms=800025
1788555897.835293 [HB] up_ms=237103 frames=10704 inf=10704 hazard=1377 canary_err=0 q=0 qovr=0
1788555897.846233 [I2C] init=0 gate=0 whoami=0x140e0 wr=0 wrseen=0x27 addr=0x5a ok=67342 err=0 tmo=0 recov=1 pclk1=200000000 sysclk=400000000
1788555897.847591 [NAK] nacks=0
1788555897.852097 [CLK] cpu=800000000 sysb=400000000 pclk1=200000000
1788555897.856838 [TOF] res=0 step=0 id=0xeacc blk=0xeacc10 ctl=0x0
1788555897.862570 [RNG] init=0 step=99 id=0xeacc boot=1 calls=93 xerr=0 dm=1 tb=15
1788555897.869665 [RNG] osc=41 imp=881 imprb=881 mstart=0x40 cfg=91 cfgfail=0x0 vhv=0 vpolls=0
1788555897.875592 [PRT] calls=42933 xerr=0 ler=1 lidx=0x0 perr=0 maxcnt=17 addr8=0x52
1788555897.879840 [RTY] wr=0 wmax=0 wref=0  rd=0 rmax=0 rref=0
1788555897.888004 [RNG] frames=10705 last=45 min=29 max=53 nrdy=2 dxfer=0 dstat=0 lst=0 nrdyerr=0 dclr=0
1788555897.893860 [DRV] init=0 id=7 mode=0x1 lib=0x2 seq=0x1 odc=0x8b sts=0xe0 armed=1
1788555897.899361 [TRG] pulses=103 suppressed=1277 cyc=1600 rst=1 rstmode=0x40
1788555897.902859 [HLT] polls=214 faults=0x0 cfglost=0
1788555897.908605 [EFF] n=5 last=58539 min=58421 max=58540 late=0 stuck=0 rderr=0
1788555897.918759 [IMU] init=0 addr=0x68 who=0x68 rst=1 pmrb0=0x40 pmrb=0x1 sr=19 cfg=4 gcfg=0x0 acfg=0x8 icfg=0x30 ien=0x1 armed=1
1788555897.924211 [ACC] reads=10708 stale=10695 rderr=0 ax=45 ay=-74 az=1125
1788555897.926834 [PWR] pm=0x1 drift=0 rderr=0
1788555897.930719 [DWT] ok=1 cyc=630067508 cyc_per_ms=800103
1788555898.945824 [HB] up_ms=238205 frames=10754 inf=10754 hazard=1394 canary_err=0 q=0 qovr=0
1788555898.956934 [I2C] init=0 gate=0 whoami=0x140e0 wr=0 wrseen=0x27 addr=0x5a ok=67644 err=0 tmo=0 recov=1 pclk1=200000000 sysclk=400000000
1788555898.958187 [NAK] nacks=0
1788555898.962800 [CLK] cpu=800000000 sysb=400000000 pclk1=200000000
1788555898.967422 [TOF] res=0 step=0 id=0xeacc blk=0xeacc10 ctl=0x0
1788555898.973318 [RNG] init=0 step=99 id=0xeacc boot=1 calls=93 xerr=0 dm=1 tb=15
1788555898.980188 [RNG] osc=41 imp=881 imprb=881 mstart=0x40 cfg=91 cfgfail=0x0 vhv=0 vpolls=0
1788555898.986358 [PRT] calls=43133 xerr=0 ler=1 lidx=0x0 perr=0 maxcnt=17 addr8=0x52
1788555898.990452 [RTY] wr=0 wmax=0 wref=0  rd=0 rmax=0 rref=0
1788555898.998314 [RNG] frames=10754 last=49 min=29 max=53 nrdy=2 dxfer=0 dstat=0 lst=0 nrdyerr=0 dclr=0
1788555899.004569 [DRV] init=0 id=7 mode=0x1 lib=0x2 seq=0x1 odc=0x8b sts=0xe0 armed=1
1788555899.010068 [TRG] pulses=104 suppressed=1290 cyc=1600 rst=1 rstmode=0x40
1788555899.013441 [HLT] polls=215 faults=0x0 cfglost=0
1788555899.019322 [EFF] n=5 last=58539 min=58421 max=58540 late=0 stuck=0 rderr=0
1788555899.029441 [IMU] init=0 addr=0x68 who=0x68 rst=1 pmrb0=0x40 pmrb=0x1 sr=19 cfg=4 gcfg=0x0 acfg=0x8 icfg=0x30 ien=0x1 armed=1
1788555899.034833 [ACC] reads=10758 stale=10745 rderr=0 ax=44 ay=-73 az=1124
1788555899.037583 [PWR] pm=0x1 drift=0 rderr=0
1788555899.041543 [DWT] ok=1 cyc=1511631716 cyc_per_ms=799967
1788555900.055935 [HB] up_ms=239307 frames=10804 inf=10804 hazard=1394 canary_err=0 q=0 qovr=0
1788555900.067205 [I2C] init=0 gate=0 whoami=0x140e0 wr=0 wrseen=0x27 addr=0x5a ok=67940 err=0 tmo=0 recov=1 pclk1=200000000 sysclk=400000000
1788555900.068528 [NAK] nacks=0
1788555900.073019 [CLK] cpu=800000000 sysb=400000000 pclk1=200000000
1788555900.077657 [TOF] res=0 step=0 id=0xeacc blk=0xeacc10 ctl=0x0
1788555900.083738 [RNG] init=0 step=99 id=0xeacc boot=1 calls=93 xerr=0 dm=1 tb=15
1788555900.090539 [RNG] osc=41 imp=881 imprb=881 mstart=0x40 cfg=91 cfgfail=0x0 vhv=0 vpolls=0
1788555900.096530 [PRT] calls=43333 xerr=0 ler=1 lidx=0x0 perr=0 maxcnt=17 addr8=0x52
1788555900.100659 [RTY] wr=0 wmax=0 wref=0  rd=0 rmax=0 rref=0
1788555900.108591 [RNG] frames=10804 last=41 min=29 max=53 nrdy=2 dxfer=0 dstat=0 lst=0 nrdyerr=0 dclr=0
1788555900.114783 [DRV] init=0 id=7 mode=0x1 lib=0x2 seq=0x1 odc=0x8b sts=0xe0 armed=1
1788555900.120304 [TRG] pulses=104 suppressed=1290 cyc=1600 rst=1 rstmode=0x40
1788555900.123656 [HLT] polls=216 faults=0x0 cfglost=0
1788555900.129532 [EFF] n=5 last=58539 min=58421 max=58540 late=0 stuck=0 rderr=0
1788555900.139664 [IMU] init=0 addr=0x68 who=0x68 rst=1 pmrb0=0x40 pmrb=0x1 sr=19 cfg=4 gcfg=0x0 acfg=0x8 icfg=0x30 ien=0x1 armed=1
1788555900.144915 [ACC] reads=10808 stale=10795 rderr=0 ax=44 ay=-76 az=1123
1788555900.147658 [PWR] pm=0x1 drift=0 rderr=0
1788555900.151899 [DWT] ok=1 cyc=2393125790 cyc_per_ms=799903
1788555901.165937 [HB] up_ms=240409 frames=10854 inf=10854 hazard=1394 canary_err=0 q=0 qovr=0
1788555901.177016 [I2C] init=0 gate=0 whoami=0x140e0 wr=0 wrseen=0x27 addr=0x5a ok=68242 err=0 tmo=0 recov=1 pclk1=200000000 sysclk=400000000
1788555901.178366 [NAK] nacks=0
1788555901.183293 [CLK] cpu=800000000 sysb=400000000 pclk1=200000000
1788555901.187501 [TOF] res=0 step=0 id=0xeacc blk=0xeacc10 ctl=0x0
1788555901.193384 [RNG] init=0 step=99 id=0xeacc boot=1 calls=93 xerr=0 dm=1 tb=15
1788555901.200538 [RNG] osc=41 imp=881 imprb=881 mstart=0x40 cfg=91 cfgfail=0x0 vhv=0 vpolls=0
1788555901.206514 [PRT] calls=43533 xerr=0 ler=1 lidx=0x0 perr=0 maxcnt=17 addr8=0x52
1788555901.210510 [RTY] wr=0 wmax=0 wref=0  rd=0 rmax=0 rref=0
1788555901.218590 [RNG] frames=10854 last=40 min=29 max=53 nrdy=2 dxfer=0 dstat=0 lst=0 nrdyerr=0 dclr=0
1788555901.224653 [DRV] init=0 id=7 mode=0x1 lib=0x2 seq=0x1 odc=0x8b sts=0xe0 armed=1
1788555901.230144 [TRG] pulses=104 suppressed=1290 cyc=1600 rst=1 rstmode=0x40
1788555901.233533 [HLT] polls=217 faults=0x0 cfglost=0
1788555901.239305 [EFF] n=5 last=58539 min=58421 max=58540 late=0 stuck=0 rderr=0
1788555901.249655 [IMU] init=0 addr=0x68 who=0x68 rst=1 pmrb0=0x40 pmrb=0x1 sr=19 cfg=4 gcfg=0x0 acfg=0x8 icfg=0x30 ien=0x1 armed=1
1788555901.254916 [ACC] reads=10858 stale=10845 rderr=0 ax=46 ay=-74 az=1125
1788555901.257547 [PWR] pm=0x1 drift=0 rderr=0
1788555901.261521 [DWT] ok=1 cyc=3274725710 cyc_per_ms=799999
1788555902.276378 [HB] up_ms=241511 frames=10904 inf=10904 hazard=1394 canary_err=0 q=0 qovr=0
1788555902.287489 [I2C] init=0 gate=0 whoami=0x140e0 wr=0 wrseen=0x27 addr=0x5a ok=68544 err=0 tmo=0 recov=2 pclk1=200000000 sysclk=400000000
1788555902.288841 [NAK] nacks=0
1788555902.293460 [CLK] cpu=800000000 sysb=400000000 pclk1=200000000
1788555902.297958 [TOF] res=0 step=0 id=0xeacc blk=0xeacc10 ctl=0x0
1788555902.303867 [RNG] init=0 step=99 id=0xeacc boot=1 calls=93 xerr=0 dm=1 tb=15
1788555902.310728 [RNG] osc=41 imp=881 imprb=881 mstart=0x40 cfg=91 cfgfail=0x0 vhv=0 vpolls=0
1788555902.316982 [PRT] calls=43729 xerr=0 ler=1 lidx=0x0 perr=0 maxcnt=17 addr8=0x52
1788555902.321143 [RTY] wr=0 wmax=0 wref=0  rd=0 rmax=0 rref=0
1788555902.328842 [RNG] frames=10904 last=46 min=29 max=53 nrdy=2 dxfer=0 dstat=0 lst=0 nrdyerr=0 dclr=0
1788555902.335125 [DRV] init=0 id=7 mode=0x1 lib=0x2 seq=0x1 odc=0x8b sts=0xe0 armed=1
1788555902.340736 [TRG] pulses=104 suppressed=1290 cyc=1600 rst=1 rstmode=0x40
1788555902.344124 [HLT] polls=218 faults=0x0 cfglost=0
1788555902.350014 [EFF] n=5 last=58539 min=58421 max=58540 late=0 stuck=0 rderr=0
1788555902.360134 [IMU] init=0 addr=0x68 who=0x68 rst=1 pmrb0=0x40 pmrb=0x1 sr=19 cfg=4 gcfg=0x0 acfg=0x8 icfg=0x30 ien=0x1 armed=1
1788555902.365463 [ACC] reads=10908 stale=10895 rderr=0 ax=45 ay=-76 az=1124
1788555902.368149 [PWR] pm=0x1 drift=0 rderr=0
1788555902.372163 [DWT] ok=1 cyc=4156325702 cyc_per_ms=799999
1788555903.387208 [HB] up_ms=242613 frames=10954 inf=10954 hazard=1394 canary_err=0 q=0 qovr=0
1788555903.398214 [I2C] init=0 gate=0 whoami=0x140e0 wr=0 wrseen=0x27 addr=0x5a ok=68846 err=0 tmo=0 recov=2 pclk1=200000000 sysclk=400000000
1788555903.399605 [NAK] nacks=0
1788555903.404334 [CLK] cpu=800000000 sysb=400000000 pclk1=200000000
1788555903.408831 [TOF] res=0 step=0 id=0xeacc blk=0xeacc10 ctl=0x0
1788555903.414738 [RNG] init=0 step=99 id=0xeacc boot=1 calls=93 xerr=0 dm=1 tb=15
1788555903.421656 [RNG] osc=41 imp=881 imprb=881 mstart=0x40 cfg=91 cfgfail=0x0 vhv=0 vpolls=0
1788555903.427827 [PRT] calls=43929 xerr=0 ler=1 lidx=0x0 perr=0 maxcnt=17 addr8=0x52
1788555903.431843 [RTY] wr=0 wmax=0 wref=0  rd=0 rmax=0 rref=0
1788555903.439739 [RNG] frames=10954 last=45 min=29 max=53 nrdy=2 dxfer=0 dstat=0 lst=0 nrdyerr=0 dclr=0
1788555903.445831 [DRV] init=0 id=7 mode=0x1 lib=0x2 seq=0x1 odc=0x8b sts=0xe0 armed=1
1788555903.451492 [TRG] pulses=104 suppressed=1290 cyc=1600 rst=1 rstmode=0x40
1788555903.454812 [HLT] polls=219 faults=0x0 cfglost=0
1788555903.460562 [EFF] n=5 last=58539 min=58421 max=58540 late=0 stuck=0 rderr=0
1788555903.470833 [IMU] init=0 addr=0x68 who=0x68 rst=1 pmrb0=0x40 pmrb=0x1 sr=19 cfg=4 gcfg=0x0 acfg=0x8 icfg=0x30 ien=0x1 armed=1
1788555903.476203 [ACC] reads=10958 stale=10945 rderr=0 ax=43 ay=-74 az=1125
1788555903.478935 [PWR] pm=0x1 drift=0 rderr=0
1788555903.482803 [DWT] ok=1 cyc=742958242 cyc_per_ms=799999
1788555904.498177 [HB] up_ms=243715 frames=11003 inf=11003 hazard=1397 canary_err=0 q=0 qovr=0
1788555904.509259 [I2C] init=0 gate=0 whoami=0x140e0 wr=0 wrseen=0x27 addr=0x5a ok=69148 err=0 tmo=0 recov=2 pclk1=200000000 sysclk=400000000
1788555904.510550 [NAK] nacks=0
1788555904.515199 [CLK] cpu=800000000 sysb=400000000 pclk1=200000000
1788555904.519834 [TOF] res=0 step=0 id=0xeacc blk=0xeacc10 ctl=0x0
1788555904.525786 [RNG] init=0 step=99 id=0xeacc boot=1 calls=93 xerr=0 dm=1 tb=15
1788555904.532549 [RNG] osc=41 imp=881 imprb=881 mstart=0x40 cfg=91 cfgfail=0x0 vhv=0 vpolls=0
1788555904.538790 [PRT] calls=44129 xerr=0 ler=1 lidx=0x0 perr=0 maxcnt=17 addr8=0x52
1788555904.542925 [RTY] wr=0 wmax=0 wref=0  rd=0 rmax=0 rref=0
1788555904.550823 [RNG] frames=11004 last=39 min=29 max=53 nrdy=2 dxfer=0 dstat=0 lst=0 nrdyerr=0 dclr=0
1788555904.557021 [DRV] init=0 id=7 mode=0x1 lib=0x2 seq=0x1 odc=0x8b sts=0xe0 armed=1
1788555904.562418 [TRG] pulses=105 suppressed=1295 cyc=1600 rst=1 rstmode=0x40
1788555904.565860 [HLT] polls=220 faults=0x0 cfglost=0
1788555904.571528 [EFF] n=5 last=58539 min=58421 max=58540 late=0 stuck=0 rderr=0
1788555904.581788 [IMU] init=0 addr=0x68 who=0x68 rst=1 pmrb0=0x40 pmrb=0x1 sr=19 cfg=4 gcfg=0x0 acfg=0x8 icfg=0x30 ien=0x1 armed=1
1788555904.587191 [ACC] reads=11007 stale=10994 rderr=0 ax=47 ay=-76 az=1126
1788555904.589922 [PWR] pm=0x1 drift=0 rderr=0
1788555904.593800 [DWT] ok=1 cyc=1624696884 cyc_per_ms=800125
1788555905.608907 [HB] up_ms=244817 frames=11053 inf=11053 hazard=1435 canary_err=0 q=0 qovr=0
1788555905.619884 [I2C] init=0 gate=0 whoami=0x140e0 wr=0 wrseen=0x27 addr=0x5a ok=69450 err=0 tmo=0 recov=2 pclk1=200000000 sysclk=400000000
1788555905.621247 [NAK] nacks=0
1788555905.625883 [CLK] cpu=800000000 sysb=400000000 pclk1=200000000
1788555905.630524 [TOF] res=0 step=0 id=0xeacc blk=0xeacc10 ctl=0x0
1788555905.636511 [RNG] init=0 step=99 id=0xeacc boot=1 calls=93 xerr=0 dm=1 tb=15
1788555905.643261 [RNG] osc=41 imp=881 imprb=881 mstart=0x40 cfg=91 cfgfail=0x0 vhv=0 vpolls=0
1788555905.649405 [PRT] calls=44329 xerr=0 ler=1 lidx=0x0 perr=0 maxcnt=17 addr8=0x52
1788555905.653643 [RTY] wr=0 wmax=0 wref=0  rd=0 rmax=0 rref=0
1788555905.661407 [RNG] frames=11054 last=43 min=29 max=53 nrdy=2 dxfer=0 dstat=0 lst=0 nrdyerr=0 dclr=0
1788555905.667568 [DRV] init=0 id=7 mode=0x1 lib=0x2 seq=0x1 odc=0x8b sts=0xe0 armed=1
1788555905.673042 [TRG] pulses=107 suppressed=1328 cyc=1600 rst=1 rstmode=0x40
1788555905.676509 [HLT] polls=221 faults=0x0 cfglost=0
1788555905.682267 [EFF] n=5 last=58539 min=58421 max=58540 late=0 stuck=0 rderr=0
1788555905.692530 [IMU] init=0 addr=0x68 who=0x68 rst=1 pmrb0=0x40 pmrb=0x1 sr=19 cfg=4 gcfg=0x0 acfg=0x8 icfg=0x30 ien=0x1 armed=1
