1788574775.735684 µ¡'âj7—Ö'—¬ôùô•±◊Ç¬≤Ÿ≤Ω±±7
1788574775.735835 [PRT] calls=112 xerr=0 ler=1 lidx=0x0 perr=0 maxcnt=4 addr8=0x52
1788574775.735864 [RTY] wr=0 wmax=0 wref=0  rd=0 rmax=0 rref=0
1788574775.735887 [DRV] init=0 id=7 mode=0x1 lib=0x2 seq=0x1 odc=0x8b sts=0xe0 armed=1
1788574775.735911 [TRG] pulses=0 suppressed=0 cyc=1600 rst=1 rstmode=0x40
1788574775.737078 [HLT] polls=0 faults=0x0 cfglost=0
1788574775.745074 [IMU] init=1 addr=0x68 who=0x68 rst=1 pmrb0=0x40 pmrb=0x0 sr=0 cfg=0 gcfg=0x0 acfg=0x0 icfg=0x0 ien=0x0 armed=0
1788574775.749199 [ACC] reads=0 stale=0 rderr=0 ax=0 ay=0 az=0
1788574775.751841 [PWR] pm=0x0 drift=0 rderr=0
1788574775.755207 [DWT] ok=1 cyc=155714743 cyc_per_ms=0
1788574775.761959 [TASKS] phase4 architecture up: hazard=1 inference=2 sensor=3 heartbeat=10
1788574775.765710 [3355770250] [INFO] [INIT] [APP_EXIT] {}
1788574776.770656 [HB] up_ms=1389 frames=45 inf=45 hazard=0 canary_err=0 q=0 qovr=0
1788574776.781652 [I2C] init=0 gate=0 whoami=0x201e0 wr=0 wrseen=0x27 addr=0x5a ok=432 err=0 tmo=0 recov=0 pclk1=200000000 sysclk=400000000
1788574776.782906 [NAK] nacks=0
1788574776.787528 [CLK] cpu=800000000 sysb=400000000 pclk1=200000000
1788574776.792148 [TOF] res=0 step=0 id=0xeacc blk=0xeacc10 ctl=0x0
1788574776.798027 [RNG] init=0 step=99 id=0xeacc boot=1 calls=93 xerr=0 dm=1 tb=15
1788574776.804914 [RNG] osc=41 imp=881 imprb=881 mstart=0x40 cfg=91 cfgfail=0x0 vhv=0 vpolls=0
1788574776.810910 [PRT] calls=299 xerr=0 ler=1 lidx=0x0 perr=0 maxcnt=17 addr8=0x52
1788574776.815153 [RTY] wr=0 wmax=0 wref=0  rd=0 rmax=0 rref=0
1788574776.822666 [RNG] frames=47 last=56 min=55 max=70 nrdy=1 dxfer=0 dstat=0 lst=0 nrdyerr=0 dclr=0
1788574776.828782 [DRV] init=0 id=7 mode=0x1 lib=0x2 seq=0x1 odc=0x8b sts=0xe0 armed=1
1788574776.833903 [TRG] pulses=0 suppressed=0 cyc=1600 rst=1 rstmode=0x40
1788574776.837282 [HLT] polls=0 faults=0x0 cfglost=0
1788574776.847443 [IMU] init=0 addr=0x68 who=0x68 rst=1 pmrb0=0x40 pmrb=0x1 sr=19 cfg=4 gcfg=0x0 acfg=0x8 icfg=0x30 ien=0x1 armed=1
1788574776.852157 [ACC] reads=49 stale=49 rderr=0 ax=59 ay=-61 az=1125
1788574776.854780 [PWR] pm=0x1 drift=0 rderr=0
1788574776.858427 [DWT] ok=1 cyc=1030554387 cyc_per_ms=0
1788574777.874303 [HB] up_ms=2483 frames=95 inf=95 hazard=0 canary_err=0 q=0 qovr=0
1788574777.885302 [I2C] init=0 gate=0 whoami=0x201e0 wr=0 wrseen=0x27 addr=0x5a ok=728 err=0 tmo=0 recov=0 pclk1=200000000 sysclk=400000000
1788574777.886695 [NAK] nacks=0
1788574777.891344 [CLK] cpu=800000000 sysb=400000000 pclk1=200000000
1788574777.895792 [TOF] res=0 step=0 id=0xeacc blk=0xeacc10 ctl=0x0
1788574777.901668 [RNG] init=0 step=99 id=0xeacc boot=1 calls=93 xerr=0 dm=1 tb=15
1788574777.908693 [RNG] osc=41 imp=881 imprb=881 mstart=0x40 cfg=91 cfgfail=0x0 vhv=0 vpolls=0
1788574777.915337 [PRT] calls=499 xerr=0 ler=1 lidx=0x0 perr=0 maxcnt=17 addr8=0x52
1788574777.919482 [RTY] wr=0 wmax=0 wref=0  rd=0 rmax=0 rref=0
1788574777.926174 [RNG] frames=96 last=54 min=51 max=70 nrdy=1 dxfer=0 dstat=0 lst=0 nrdyerr=0 dclr=0
1788574777.932557 [DRV] init=0 id=7 mode=0x1 lib=0x2 seq=0x1 odc=0x8b sts=0xe0 armed=1
1788574777.937561 [TRG] pulses=0 suppressed=0 cyc=1600 rst=1 rstmode=0x40
1788574777.940796 [HLT] polls=1 faults=0x0 cfglost=0
1788574777.951060 [IMU] init=0 addr=0x68 who=0x68 rst=1 pmrb0=0x40 pmrb=0x1 sr=19 cfg=4 gcfg=0x0 acfg=0x8 icfg=0x30 ien=0x1 armed=1
1788574777.955943 [ACC] reads=99 stale=99 rderr=0 ax=60 ay=-61 az=1122
1788574777.958564 [PWR] pm=0x1 drift=0 rderr=0
1788574777.962568 [DWT] ok=1 cyc=1905755287 cyc_per_ms=800000
1788574778.978005 [HB] up_ms=3577 frames=139 inf=139 hazard=19 canary_err=0 q=0 qovr=0
1788574778.989119 [I2C] init=0 gate=0 whoami=0x201e0 wr=0 wrseen=0x27 addr=0x5a ok=2008 err=0 tmo=0 recov=1 pclk1=200000000 sysclk=400000000
1788574778.990500 [NAK] nacks=0
1788574778.994987 [CLK] cpu=800000000 sysb=400000000 pclk1=200000000
1788574778.999610 [TOF] res=0 step=0 id=0xeacc blk=0xeacc10 ctl=0x0
1788574779.005386 [RNG] init=0 step=99 id=0xeacc boot=1 calls=93 xerr=0 dm=1 tb=15
1788574779.012486 [RNG] osc=41 imp=881 imprb=881 mstart=0x40 cfg=91 cfgfail=0x0 vhv=0 vpolls=0
1788574779.018471 [PRT] calls=675 xerr=0 ler=1 lidx=0x0 perr=0 maxcnt=17 addr8=0x52
1788574779.022487 [RTY] wr=0 wmax=0 wref=0  rd=0 rmax=0 rref=0
1788574779.030115 [RNG] frames=140 last=63 min=51 max=70 nrdy=1 dxfer=0 dstat=0 lst=0 nrdyerr=0 dclr=0
1788574779.036503 [DRV] init=0 id=7 mode=0x1 lib=0x2 seq=0x1 odc=0x8b sts=0xe0 armed=1
1788574779.041613 [TRG] pulses=2 suppressed=20 cyc=1600 rst=1 rstmode=0x40
1788574779.044748 [HLT] polls=2 faults=0x0 cfglost=0
1788574779.050498 [EFF] n=2 last=58526 min=58526 max=58533 late=0 stuck=0 rderr=0
1788574779.061491 [IMU] init=0 addr=0x68 who=0x68 rst=1 pmrb0=0x40 pmrb=0x1 sr=19 cfg=4 gcfg=0x0 acfg=0x8 icfg=0x30 ien=0x1 armed=1
1788574779.067002 [ACC] reads=143 stale=143 rderr=0 ax=59 ay=-59 az=1120
1788574779.069995 [PWR] pm=0x1 drift=0 rderr=0
1788574779.074403 [DWT] ok=1 cyc=2787282103 cyc_per_ms=805783
1788574780.089303 [HB] up_ms=4679 frames=184 inf=184 hazard=41 canary_err=0 q=0 qovr=0
1788574780.100284 [I2C] init=0 gate=0 whoami=0x201e0 wr=0 wrseen=0x27 addr=0x5a ok=3215 err=0 tmo=0 recov=1 pclk1=200000000 sysclk=400000000
1788574780.101541 [NAK] nacks=0
1788574780.106290 [CLK] cpu=800000000 sysb=400000000 pclk1=200000000
1788574780.110791 [TOF] res=0 step=0 id=0xeacc blk=0xeacc10 ctl=0x0
1788574780.116662 [RNG] init=0 step=99 id=0xeacc boot=1 calls=93 xerr=0 dm=1 tb=15
1788574780.123546 [RNG] osc=41 imp=881 imprb=881 mstart=0x40 cfg=91 cfgfail=0x0 vhv=0 vpolls=0
1788574780.129662 [PRT] calls=851 xerr=0 ler=1 lidx=0x0 perr=0 maxcnt=17 addr8=0x52
1788574780.133798 [RTY] wr=0 wmax=0 wref=0  rd=0 rmax=0 rref=0
1788574780.141428 [RNG] frames=185 last=68 min=51 max=70 nrdy=1 dxfer=0 dstat=0 lst=0 nrdyerr=0 dclr=0
1788574780.147552 [DRV] init=0 id=7 mode=0x1 lib=0x2 seq=0x1 odc=0x8b sts=0xe0 armed=1
1788574780.152914 [TRG] pulses=4 suppressed=37 cyc=1600 rst=1 rstmode=0x40
1788574780.156031 [HLT] polls=3 faults=0x0 cfglost=0
1788574780.161784 [EFF] n=4 last=58528 min=58448 max=58533 late=0 stuck=0 rderr=0
1788574780.172047 [IMU] init=0 addr=0x68 who=0x68 rst=1 pmrb0=0x40 pmrb=0x1 sr=19 cfg=4 gcfg=0x0 acfg=0x8 icfg=0x30 ien=0x1 armed=1
1788574780.177045 [ACC] reads=188 stale=188 rderr=0 ax=62 ay=-64 az=1122
1788574780.179802 [PWR] pm=0x1 drift=0 rderr=0
1788574780.183668 [DWT] ok=1 cyc=3667676011 cyc_per_ms=798905
1788574781.198714 [HB] up_ms=5779 frames=233 inf=233 hazard=41 canary_err=0 q=0 qovr=0
1788574781.209702 [I2C] init=0 gate=0 whoami=0x201e0 wr=0 wrseen=0x27 addr=0x5a ok=3517 err=0 tmo=0 recov=1 pclk1=200000000 sysclk=400000000
1788574781.211088 [NAK] nacks=0
1788574781.215579 [CLK] cpu=800000000 sysb=400000000 pclk1=200000000
1788574781.220382 [TOF] res=0 step=0 id=0xeacc blk=0xeacc10 ctl=0x0
1788574781.226217 [RNG] init=0 step=99 id=0xeacc boot=1 calls=93 xerr=0 dm=1 tb=15
1788574781.233083 [RNG] osc=41 imp=881 imprb=881 mstart=0x40 cfg=91 cfgfail=0x0 vhv=0 vpolls=0
1788574781.239082 [PRT] calls=1051 xerr=0 ler=1 lidx=0x0 perr=0 maxcnt=17 addr8=0x52
1788574781.243351 [RTY] wr=0 wmax=0 wref=0  rd=0 rmax=0 rref=0
1788574781.250960 [RNG] frames=235 last=60 min=51 max=71 nrdy=1 dxfer=0 dstat=0 lst=0 nrdyerr=0 dclr=0
1788574781.257083 [DRV] init=0 id=7 mode=0x1 lib=0x2 seq=0x1 odc=0x8b sts=0xe0 armed=1
1788574781.262356 [TRG] pulses=4 suppressed=37 cyc=1600 rst=1 rstmode=0x40
1788574781.265578 [HLT] polls=4 faults=0x0 cfglost=0
1788574781.271363 [EFF] n=4 last=58528 min=58448 max=58533 late=0 stuck=0 rderr=0
1788574781.281596 [IMU] init=0 addr=0x68 who=0x68 rst=1 pmrb0=0x40 pmrb=0x1 sr=19 cfg=4 gcfg=0x0 acfg=0x8 icfg=0x30 ien=0x1 armed=1
1788574781.286581 [ACC] reads=237 stale=236 rderr=0 ax=60 ay=-63 az=1121
1788574781.289350 [PWR] pm=0x1 drift=0 rderr=0
1788574781.293204 [DWT] ok=1 cyc=252912441 cyc_per_ms=800185
1788574782.307880 [HB] up_ms=6879 frames=283 inf=283 hazard=41 canary_err=0 q=0 qovr=0
1788574782.318920 [I2C] init=0 gate=0 whoami=0x201e0 wr=0 wrseen=0x27 addr=0x5a ok=3816 err=0 tmo=0 recov=1 pclk1=200000000 sysclk=400000000
1788574782.320123 [NAK] nacks=0
1788574782.324764 [CLK] cpu=800000000 sysb=400000000 pclk1=200000000
1788574782.329251 [TOF] res=0 step=0 id=0xeacc blk=0xeacc10 ctl=0x0
1788574782.335265 [RNG] init=0 step=99 id=0xeacc boot=1 calls=93 xerr=0 dm=1 tb=15
1788574782.342125 [RNG] osc=41 imp=881 imprb=881 mstart=0x40 cfg=91 cfgfail=0x0 vhv=0 vpolls=0
1788574782.348135 [PRT] calls=1251 xerr=0 ler=1 lidx=0x0 perr=0 maxcnt=17 addr8=0x52
1788574782.352248 [RTY] wr=0 wmax=0 wref=0  rd=0 rmax=0 rref=0
1788574782.360029 [RNG] frames=284 last=61 min=51 max=71 nrdy=1 dxfer=0 dstat=0 lst=0 nrdyerr=0 dclr=0
1788574782.366132 [DRV] init=0 id=7 mode=0x1 lib=0x2 seq=0x1 odc=0x8b sts=0xe0 armed=1
1788574782.371261 [TRG] pulses=4 suppressed=37 cyc=1600 rst=1 rstmode=0x40
1788574782.374505 [HLT] polls=5 faults=0x0 cfglost=0
1788574782.380394 [EFF] n=4 last=58528 min=58448 max=58533 late=0 stuck=0 rderr=0
1788574782.390513 [IMU] init=0 addr=0x68 who=0x68 rst=1 pmrb0=0x40 pmrb=0x1 sr=19 cfg=4 gcfg=0x0 acfg=0x8 icfg=0x30 ien=0x1 armed=1
1788574782.395497 [ACC] reads=287 stale=286 rderr=0 ax=60 ay=-61 az=1119
1788574782.398127 [PWR] pm=0x1 drift=0 rderr=0
1788574782.402253 [DWT] ok=1 cyc=1132778219 cyc_per_ms=799877
1788574783.417187 [HB] up_ms=7980 frames=333 inf=333 hazard=41 canary_err=0 q=0 qovr=0
1788574783.428317 [I2C] init=0 gate=0 whoami=0x201e0 wr=0 wrseen=0x27 addr=0x5a ok=4115 err=0 tmo=0 recov=1 pclk1=200000000 sysclk=400000000
1788574783.429666 [NAK] nacks=0
1788574783.434166 [CLK] cpu=800000000 sysb=400000000 pclk1=200000000
1788574783.438671 [TOF] res=0 step=0 id=0xeacc blk=0xeacc10 ctl=0x0
1788574783.444669 [RNG] init=0 step=99 id=0xeacc boot=1 calls=93 xerr=0 dm=1 tb=15
1788574783.451728 [RNG] osc=41 imp=881 imprb=881 mstart=0x40 cfg=91 cfgfail=0x0 vhv=0 vpolls=0
1788574783.457556 [PRT] calls=1451 xerr=0 ler=1 lidx=0x0 perr=0 maxcnt=17 addr8=0x52
1788574783.461684 [RTY] wr=0 wmax=0 wref=0  rd=0 rmax=0 rref=0
1788574783.469459 [RNG] frames=334 last=59 min=51 max=71 nrdy=1 dxfer=0 dstat=0 lst=0 nrdyerr=0 dclr=0
1788574783.475676 [DRV] init=0 id=7 mode=0x1 lib=0x2 seq=0x1 odc=0x8b sts=0xe0 armed=1
1788574783.480792 [TRG] pulses=4 suppressed=37 cyc=1600 rst=1 rstmode=0x40
1788574783.483922 [HLT] polls=6 faults=0x0 cfglost=0
1788574783.489684 [EFF] n=4 last=58528 min=58448 max=58533 late=0 stuck=0 rderr=0
1788574783.500047 [IMU] init=0 addr=0x68 who=0x68 rst=1 pmrb0=0x40 pmrb=0x1 sr=19 cfg=4 gcfg=0x0 acfg=0x8 icfg=0x30 ien=0x1 armed=1
1788574783.504935 [ACC] reads=337 stale=335 rderr=0 ax=59 ay=-62 az=1121
1788574783.507552 [PWR] pm=0x1 drift=0 rderr=0
1788574783.511550 [DWT] ok=1 cyc=2013578363 cyc_per_ms=800000
1788574784.525621 [HB] up_ms=9080 frames=383 inf=383 hazard=41 canary_err=0 q=0 qovr=0
1788574784.536725 [I2C] init=0 gate=0 whoami=0x201e0 wr=0 wrseen=0x27 addr=0x5a ok=4417 err=0 tmo=0 recov=1 pclk1=200000000 sysclk=400000000
1788574784.538099 [NAK] nacks=0
1788574784.542718 [CLK] cpu=800000000 sysb=400000000 pclk1=200000000
1788574784.547222 [TOF] res=0 step=0 id=0xeacc blk=0xeacc10 ctl=0x0
1788574784.552972 [RNG] init=0 step=99 id=0xeacc boot=1 calls=93 xerr=0 dm=1 tb=15
1788574784.560102 [RNG] osc=41 imp=881 imprb=881 mstart=0x40 cfg=91 cfgfail=0x0 vhv=0 vpolls=0
1788574784.566101 [PRT] calls=1651 xerr=0 ler=1 lidx=0x0 perr=0 maxcnt=17 addr8=0x52
1788574784.570220 [RTY] wr=0 wmax=0 wref=0  rd=0 rmax=0 rref=0
1788574784.577727 [RNG] frames=384 last=62 min=51 max=71 nrdy=1 dxfer=0 dstat=0 lst=0 nrdyerr=0 dclr=0
1788574784.584098 [DRV] init=0 id=7 mode=0x1 lib=0x2 seq=0x1 odc=0x8b sts=0xe0 armed=1
1788574784.589211 [TRG] pulses=4 suppressed=37 cyc=1600 rst=1 rstmode=0x40
1788574784.592475 [HLT] polls=7 faults=0x0 cfglost=0
1788574784.598220 [EFF] n=4 last=58528 min=58448 max=58533 late=0 stuck=0 rderr=0
1788574784.608481 [IMU] init=0 addr=0x68 who=0x68 rst=1 pmrb0=0x40 pmrb=0x1 sr=19 cfg=4 gcfg=0x0 acfg=0x8 icfg=0x30 ien=0x1 armed=1
1788574784.613471 [ACC] reads=387 stale=385 rderr=0 ax=59 ay=-61 az=1117
1788574784.616089 [PWR] pm=0x1 drift=0 rderr=0
1788574784.620092 [DWT] ok=1 cyc=2893578271 cyc_per_ms=799999
1788574785.634078 [HB] up_ms=10180 frames=433 inf=433 hazard=41 canary_err=0 q=0 qovr=0
1788574785.644904 [I2C] init=0 gate=0 whoami=0x201e0 wr=0 wrseen=0x27 addr=0x5a ok=4719 err=0 tmo=0 recov=1 pclk1=200000000 sysclk=400000000
1788574785.646416 [NAK] nacks=0
1788574785.651013 [CLK] cpu=800000000 sysb=400000000 pclk1=200000000
1788574785.655534 [TOF] res=0 step=0 id=0xeacc blk=0xeacc10 ctl=0x0
1788574785.661441 [RNG] init=0 step=99 id=0xeacc boot=1 calls=93 xerr=0 dm=1 tb=15
1788574785.668309 [RNG] osc=41 imp=881 imprb=881 mstart=0x40 cfg=91 cfgfail=0x0 vhv=0 vpolls=0
1788574785.674416 [PRT] calls=1847 xerr=0 ler=1 lidx=0x0 perr=0 maxcnt=17 addr8=0x52
1788574785.678521 [RTY] wr=0 wmax=0 wref=0  rd=0 rmax=0 rref=0
1788574785.686137 [RNG] frames=434 last=57 min=51 max=71 nrdy=1 dxfer=0 dstat=0 lst=0 nrdyerr=0 dclr=0
1788574785.692395 [DRV] init=0 id=7 mode=0x1 lib=0x2 seq=0x1 odc=0x8b sts=0xe0 armed=1
1788574785.697637 [TRG] pulses=4 suppressed=37 cyc=1600 rst=1 rstmode=0x40
1788574785.700762 [HLT] polls=8 faults=0x0 cfglost=0
1788574785.706520 [EFF] n=4 last=58528 min=58448 max=58533 late=0 stuck=0 rderr=0
1788574785.717153 [IMU] init=0 addr=0x68 who=0x68 rst=1 pmrb0=0x40 pmrb=0x1 sr=19 cfg=4 gcfg=0x0 acfg=0x8 icfg=0x30 ien=0x1 armed=1
1788574785.721766 [ACC] reads=437 stale=435 rderr=0 ax=61 ay=-60 az=1120
1788574785.724408 [PWR] pm=0x1 drift=0 rderr=0
1788574785.728416 [DWT] ok=1 cyc=3773649597 cyc_per_ms=800064
1788574786.742561 [HB] up_ms=11280 frames=480 inf=480 hazard=81 canary_err=0 q=0 qovr=0
1788574786.753690 [I2C] init=0 gate=0 whoami=0x201e0 wr=0 wrseen=0x27 addr=0x5a ok=5510 err=0 tmo=0 recov=1 pclk1=200000000 sysclk=400000000
1788574786.754929 [NAK] nacks=0
1788574786.759570 [CLK] cpu=800000000 sysb=400000000 pclk1=200000000
1788574786.764059 [TOF] res=0 step=0 id=0xeacc blk=0xeacc10 ctl=0x0
1788574786.769938 [RNG] init=0 step=99 id=0xeacc boot=1 calls=93 xerr=0 dm=1 tb=15
1788574786.776938 [RNG] osc=41 imp=881 imprb=881 mstart=0x40 cfg=91 cfgfail=0x0 vhv=0 vpolls=0
1788574786.782939 [PRT] calls=2039 xerr=0 ler=1 lidx=0x0 perr=0 maxcnt=17 addr8=0x52
1788574786.787059 [RTY] wr=0 wmax=0 wref=0  rd=0 rmax=0 rref=0
1788574786.794684 [RNG] frames=481 last=63 min=51 max=71 nrdy=1 dxfer=0 dstat=0 lst=0 nrdyerr=0 dclr=0
1788574786.801063 [DRV] init=0 id=7 mode=0x1 lib=0x2 seq=0x1 odc=0x8b sts=0xe0 armed=1
1788574786.806187 [TRG] pulses=8 suppressed=74 cyc=1600 rst=1 rstmode=0x40
1788574786.809304 [HLT] polls=9 faults=0x0 cfglost=0
1788574786.815057 [EFF] n=5 last=58533 min=58448 max=58533 late=0 stuck=0 rderr=0
1788574786.825456 [IMU] init=0 addr=0x68 who=0x68 rst=1 pmrb0=0x40 pmrb=0x1 sr=19 cfg=4 gcfg=0x0 acfg=0x8 icfg=0x30 ien=0x1 armed=1
1788574786.830306 [ACC] reads=484 stale=482 rderr=0 ax=56 ay=-59 az=1119
1788574786.832937 [PWR] pm=0x1 drift=0 rderr=0
1788574786.836927 [DWT] ok=1 cyc=358682625 cyc_per_ms=800000
1788574787.851856 [HB] up_ms=12380 frames=530 inf=530 hazard=82 canary_err=0 q=0 qovr=0
1788574787.862729 [I2C] init=0 gate=0 whoami=0x201e0 wr=0 wrseen=0x27 addr=0x5a ok=5812 err=0 tmo=0 recov=1 pclk1=200000000 sysclk=400000000
1788574787.864220 [NAK] nacks=0
1788574787.868878 [CLK] cpu=800000000 sysb=400000000 pclk1=200000000
1788574787.873368 [TOF] res=0 step=0 id=0xeacc blk=0xeacc10 ctl=0x0
1788574787.879222 [RNG] init=0 step=99 id=0xeacc boot=1 calls=93 xerr=0 dm=1 tb=15
1788574787.886119 [RNG] osc=41 imp=881 imprb=881 mstart=0x40 cfg=91 cfgfail=0x0 vhv=0 vpolls=0
1788574787.892224 [PRT] calls=2235 xerr=0 ler=1 lidx=0x0 perr=0 maxcnt=17 addr8=0x52
1788574787.896365 [RTY] wr=0 wmax=0 wref=0  rd=0 rmax=0 rref=0
1788574787.903978 [RNG] frames=531 last=56 min=50 max=71 nrdy=1 dxfer=0 dstat=0 lst=0 nrdyerr=0 dclr=0
1788574787.910224 [DRV] init=0 id=7 mode=0x1 lib=0x2 seq=0x1 odc=0x8b sts=0xe0 armed=1
1788574787.915477 [TRG] pulses=8 suppressed=74 cyc=1600 rst=1 rstmode=0x40
1788574787.919051 [HLT] polls=10 faults=0x0 cfglost=0
1788574787.924473 [EFF] n=5 last=58533 min=58448 max=58533 late=0 stuck=0 rderr=0
1788574787.934856 [IMU] init=0 addr=0x68 who=0x68 rst=1 pmrb0=0x40 pmrb=0x1 sr=19 cfg=4 gcfg=0x0 acfg=0x8 icfg=0x30 ien=0x1 armed=1
1788574787.939729 [ACC] reads=534 stale=532 rderr=0 ax=61 ay=-62 az=1122
1788574787.942379 [PWR] pm=0x1 drift=0 rderr=0
1788574787.946370 [DWT] ok=1 cyc=1238752237 cyc_per_ms=800063
1788574788.961905 [HB] up_ms=13481 frames=580 inf=580 hazard=82 canary_err=0 q=0 qovr=0
1788574788.972902 [I2C] init=0 gate=0 whoami=0x201e0 wr=0 wrseen=0x27 addr=0x5a ok=6114 err=0 tmo=0 recov=1 pclk1=200000000 sysclk=400000000
1788574788.985222 [NAK] nacks=0
1788574788.985309 [CLK] cpu=800000000 sysb=400000000 pclk1=200000000
1788574788.985416 [TOF] res=0 step=0 id=0xeacc blk=0xeacc10 ctl=0x0
1788574788.989462 [RNG] init=0 step=99 id=0xeacc boot=1 calls=93 xerr=0 dm=1 tb=15
1788574788.996268 [RNG] osc=41 imp=881 imprb=881 mstart=0x40 cfg=91 cfgfail=0x0 vhv=0 vpolls=0
1788574789.002473 [PRT] calls=2435 xerr=0 ler=1 lidx=0x0 perr=0 maxcnt=17 addr8=0x52
1788574789.006533 [RTY] wr=0 wmax=0 wref=0  rd=0 rmax=0 rref=0
1788574789.014157 [RNG] frames=581 last=62 min=50 max=71 nrdy=1 dxfer=0 dstat=0 lst=0 nrdyerr=0 dclr=0
1788574789.020285 [DRV] init=0 id=7 mode=0x1 lib=0x2 seq=0x1 odc=0x8b sts=0xe0 armed=1
1788574789.025670 [TRG] pulses=8 suppressed=74 cyc=1600 rst=1 rstmode=0x40
1788574789.028897 [HLT] polls=11 faults=0x0 cfglost=0
1788574789.034649 [EFF] n=5 last=58533 min=58448 max=58533 late=0 stuck=0 rderr=0
1788574789.044785 [IMU] init=0 addr=0x68 who=0x68 rst=1 pmrb0=0x40 pmrb=0x1 sr=19 cfg=4 gcfg=0x0 acfg=0x8 icfg=0x30 ien=0x1 armed=1
1788574789.049902 [ACC] reads=583 stale=581 rderr=0 ax=58 ay=-59 az=1118
1788574789.052560 [PWR] pm=0x1 drift=0 rderr=0
1788574789.056535 [DWT] ok=1 cyc=2119551705 cyc_per_ms=799999
1788574790.071950 [HB] up_ms=14582 frames=629 inf=629 hazard=82 canary_err=0 q=0 qovr=0
1788574790.082812 [I2C] init=0 gate=0 whoami=0x201e0 wr=0 wrseen=0x27 addr=0x5a ok=6416 err=0 tmo=0 recov=1 pclk1=200000000 sysclk=400000000
1788574790.084195 [NAK] nacks=0
1788574790.088828 [CLK] cpu=800000000 sysb=400000000 pclk1=200000000
1788574790.093442 [TOF] res=0 step=0 id=0xeacc blk=0xeacc10 ctl=0x0
1788574790.099336 [RNG] init=0 step=99 id=0xeacc boot=1 calls=93 xerr=0 dm=1 tb=15
1788574790.106197 [RNG] osc=41 imp=881 imprb=881 mstart=0x40 cfg=91 cfgfail=0x0 vhv=0 vpolls=0
1788574790.112194 [PRT] calls=2635 xerr=0 ler=1 lidx=0x0 perr=0 maxcnt=17 addr8=0x52
1788574790.116438 [RTY] wr=0 wmax=0 wref=0  rd=0 rmax=0 rref=0
1788574790.124153 [RNG] frames=631 last=57 min=50 max=71 nrdy=1 dxfer=0 dstat=0 lst=0 nrdyerr=0 dclr=0
1788574790.130202 [DRV] init=0 id=7 mode=0x1 lib=0x2 seq=0x1 odc=0x8b sts=0xe0 armed=1
1788574790.135356 [TRG] pulses=8 suppressed=74 cyc=1600 rst=1 rstmode=0x40
1788574790.138827 [HLT] polls=12 faults=0x0 cfglost=0
1788574790.144573 [EFF] n=5 last=58533 min=58448 max=58533 late=0 stuck=0 rderr=0
1788574790.154698 [IMU] init=0 addr=0x68 who=0x68 rst=1 pmrb0=0x40 pmrb=0x1 sr=19 cfg=4 gcfg=0x0 acfg=0x8 icfg=0x30 ien=0x1 armed=1
1788574790.159691 [ACC] reads=633 stale=631 rderr=0 ax=58 ay=-59 az=1122
1788574790.162435 [PWR] pm=0x1 drift=0 rderr=0
1788574790.166440 [DWT] ok=1 cyc=3000486587 cyc_per_ms=800122
1788574791.181749 [HB] up_ms=15683 frames=679 inf=679 hazard=82 canary_err=0 q=0 qovr=0
1788574791.192859 [I2C] init=0 gate=0 whoami=0x201e0 wr=0 wrseen=0x27 addr=0x5a ok=6715 err=0 tmo=0 recov=1 pclk1=200000000 sysclk=400000000
1788574791.194118 [NAK] nacks=0
1788574791.198728 [CLK] cpu=800000000 sysb=400000000 pclk1=200000000
1788574791.203236 [TOF] res=0 step=0 id=0xeacc blk=0xeacc10 ctl=0x0
1788574791.209233 [RNG] init=0 step=99 id=0xeacc boot=1 calls=93 xerr=0 dm=1 tb=15
1788574791.216106 [RNG] osc=41 imp=881 imprb=881 mstart=0x40 cfg=91 cfgfail=0x0 vhv=0 vpolls=0
1788574791.222108 [PRT] calls=2835 xerr=0 ler=1 lidx=0x0 perr=0 maxcnt=17 addr8=0x52
1788574791.226239 [RTY] wr=0 wmax=0 wref=0  rd=0 rmax=0 rref=0
1788574791.233995 [RNG] frames=680 last=61 min=50 max=71 nrdy=1 dxfer=0 dstat=0 lst=0 nrdyerr=0 dclr=0
1788574791.240245 [DRV] init=0 id=7 mode=0x1 lib=0x2 seq=0x1 odc=0x8b sts=0xe0 armed=1
1788574791.245404 [TRG] pulses=8 suppressed=74 cyc=1600 rst=1 rstmode=0x40
1788574791.248611 [HLT] polls=13 faults=0x0 cfglost=0
1788574791.254490 [EFF] n=5 last=58533 min=58448 max=58533 late=0 stuck=0 rderr=0
1788574791.264737 [IMU] init=0 addr=0x68 who=0x68 rst=1 pmrb0=0x40 pmrb=0x1 sr=19 cfg=4 gcfg=0x0 acfg=0x8 icfg=0x30 ien=0x1 armed=1
1788574791.269622 [ACC] reads=683 stale=681 rderr=0 ax=59 ay=-62 az=1123
1788574791.272236 [PWR] pm=0x1 drift=0 rderr=0
1788574791.276491 [DWT] ok=1 cyc=3881151629 cyc_per_ms=799877
1788574792.291301 [HB] up_ms=16784 frames=729 inf=729 hazard=82 canary_err=0 q=0 qovr=0
1788574792.302434 [I2C] init=0 gate=0 whoami=0x201e0 wr=0 wrseen=0x27 addr=0x5a ok=7014 err=0 tmo=0 recov=1 pclk1=200000000 sysclk=400000000
1788574792.303790 [NAK] nacks=0
1788574792.308439 [CLK] cpu=800000000 sysb=400000000 pclk1=200000000
1788574792.312919 [TOF] res=0 step=0 id=0xeacc blk=0xeacc10 ctl=0x0
1788574792.318818 [RNG] init=0 step=99 id=0xeacc boot=1 calls=93 xerr=0 dm=1 tb=15
1788574792.325784 [RNG] osc=41 imp=881 imprb=881 mstart=0x40 cfg=91 cfgfail=0x0 vhv=0 vpolls=0
1788574792.331783 [PRT] calls=3035 xerr=0 ler=1 lidx=0x0 perr=0 maxcnt=17 addr8=0x52
1788574792.335814 [RTY] wr=0 wmax=0 wref=0  rd=0 rmax=0 rref=0
1788574792.343674 [RNG] frames=730 last=61 min=50 max=71 nrdy=1 dxfer=0 dstat=0 lst=0 nrdyerr=0 dclr=0
1788574792.349782 [DRV] init=0 id=7 mode=0x1 lib=0x2 seq=0x1 odc=0x8b sts=0xe0 armed=1
1788574792.354915 [TRG] pulses=8 suppressed=74 cyc=1600 rst=1 rstmode=0x40
1788574792.358167 [HLT] polls=14 faults=0x0 cfglost=0
1788574792.363915 [EFF] n=5 last=58533 min=58448 max=58533 late=0 stuck=0 rderr=0
1788574792.374297 [IMU] init=0 addr=0x68 who=0x68 rst=1 pmrb0=0x40 pmrb=0x1 sr=19 cfg=4 gcfg=0x0 acfg=0x8 icfg=0x30 ien=0x1 armed=1
1788574792.379285 [ACC] reads=733 stale=731 rderr=0 ax=61 ay=-62 az=1119
1788574792.381909 [PWR] pm=0x1 drift=0 rderr=0
1788574792.385791 [DWT] ok=1 cyc=466984417 cyc_per_ms=800000
1788574793.399352 [HB] up_ms=17884 frames=779 inf=779 hazard=101 canary_err=0 q=0 qovr=0
1788574793.410463 [I2C] init=0 gate=0 whoami=0x201e0 wr=0 wrseen=0x27 addr=0x5a ok=7316 err=0 tmo=0 recov=1 pclk1=200000000 sysclk=400000000
1788574793.411835 [NAK] nacks=0
1788574793.416450 [CLK] cpu=800000000 sysb=400000000 pclk1=200000000
1788574793.420956 [TOF] res=0 step=0 id=0xeacc blk=0xeacc10 ctl=0x0
1788574793.426715 [RNG] init=0 step=99 id=0xeacc boot=1 calls=93 xerr=0 dm=1 tb=15
1788574793.433826 [RNG] osc=41 imp=881 imprb=881 mstart=0x40 cfg=91 cfgfail=0x0 vhv=0 vpolls=0
1788574793.439827 [PRT] calls=3235 xerr=0 ler=1 lidx=0x0 perr=0 maxcnt=17 addr8=0x52
1788574793.443825 [RTY] wr=0 wmax=0 wref=0  rd=0 rmax=0 rref=0
1788574793.451457 [RNG] frames=780 last=60 min=48 max=71 nrdy=1 dxfer=0 dstat=0 lst=0 nrdyerr=0 dclr=0
1788574793.457842 [DRV] init=0 id=7 mode=0x1 lib=0x2 seq=0x1 odc=0x8b sts=0xe0 armed=1
1788574793.463080 [TRG] pulses=10 suppressed=94 cyc=1600 rst=1 rstmode=0x40
1788574793.466349 [HLT] polls=15 faults=0x0 cfglost=0
1788574793.472087 [EFF] n=5 last=58533 min=58448 max=58533 late=0 stuck=0 rderr=0
1788574793.482345 [IMU] init=0 addr=0x68 who=0x68 rst=1 pmrb0=0x40 pmrb=0x1 sr=19 cfg=4 gcfg=0x0 acfg=0x8 icfg=0x30 ien=0x1 armed=1
1788574793.487346 [ACC] reads=783 stale=781 rderr=0 ax=62 ay=-59 az=1120
1788574793.489952 [PWR] pm=0x1 drift=0 rderr=0
1788574793.493952 [DWT] ok=1 cyc=1347127999 cyc_per_ms=800130
1788574794.508887 [HB] up_ms=18985 frames=829 inf=829 hazard=123 canary_err=0 q=0 qovr=0
1788574794.519895 [I2C] init=0 gate=0 whoami=0x201e0 wr=0 wrseen=0x27 addr=0x5a ok=7618 err=0 tmo=0 recov=1 pclk1=200000000 sysclk=400000000
1788574794.521392 [NAK] nacks=0
1788574794.525871 [CLK] cpu=800000000 sysb=400000000 pclk1=200000000
1788574794.530393 [TOF] res=0 step=0 id=0xeacc blk=0xeacc10 ctl=0x0
1788574794.536268 [RNG] init=0 step=99 id=0xeacc boot=1 calls=93 xerr=0 dm=1 tb=15
1788574794.543246 [RNG] osc=41 imp=881 imprb=881 mstart=0x40 cfg=91 cfgfail=0x0 vhv=0 vpolls=0
1788574794.549408 [PRT] calls=3434 xerr=0 ler=1 lidx=0x0 perr=0 maxcnt=17 addr8=0x52
1788574794.553401 [RTY] wr=0 wmax=0 wref=0  rd=0 rmax=0 rref=0
1788574794.561007 [RNG] frames=830 last=60 min=48 max=71 nrdy=1 dxfer=0 dstat=0 lst=0 nrdyerr=0 dclr=0
1788574794.567385 [DRV] init=0 id=7 mode=0x1 lib=0x2 seq=0x1 odc=0x8b sts=0xe0 armed=1
1788574794.572627 [TRG] pulses=11 suppressed=112 cyc=1600 rst=1 rstmode=0x40
1788574794.575876 [HLT] polls=16 faults=0x0 cfglost=0
1788574794.581632 [EFF] n=5 last=58533 min=58448 max=58533 late=0 stuck=0 rderr=0
1788574794.592006 [IMU] init=0 addr=0x68 who=0x68 rst=1 pmrb0=0x40 pmrb=0x1 sr=19 cfg=4 gcfg=0x0 acfg=0x8 icfg=0x30 ien=0x1 armed=1
1788574794.596998 [ACC] reads=833 stale=830 rderr=0 ax=59 ay=-61 az=1124
1788574794.599626 [PWR] pm=0x1 drift=0 rderr=0
1788574794.603635 [DWT] ok=1 cyc=2227994527 cyc_per_ms=800060
1788574795.618817 [HB] up_ms=20086 frames=879 inf=879 hazard=123 canary_err=0 q=0 qovr=0
1788574795.629668 [I2C] init=0 gate=0 whoami=0x201e0 wr=0 wrseen=0x27 addr=0x5a ok=7920 err=0 tmo=0 recov=1 pclk1=200000000 sysclk=400000000
1788574795.630917 [NAK] nacks=0
1788574795.635720 [CLK] cpu=800000000 sysb=400000000 pclk1=200000000
1788574795.640165 [TOF] res=0 step=0 id=0xeacc blk=0xeacc10 ctl=0x0
1788574795.646044 [RNG] init=0 step=99 id=0xeacc boot=1 calls=93 xerr=0 dm=1 tb=15
1788574795.652948 [RNG] osc=41 imp=881 imprb=881 mstart=0x40 cfg=91 cfgfail=0x0 vhv=0 vpolls=0
1788574795.659182 [PRT] calls=3631 xerr=0 ler=1 lidx=0x0 perr=0 maxcnt=17 addr8=0x52
1788574795.663174 [RTY] wr=0 wmax=0 wref=0  rd=0 rmax=0 rref=0
1788574795.670797 [RNG] frames=880 last=58 min=48 max=71 nrdy=1 dxfer=0 dstat=0 lst=0 nrdyerr=0 dclr=0
1788574795.677041 [DRV] init=0 id=7 mode=0x1 lib=0x2 seq=0x1 odc=0x8b sts=0xe0 armed=1
1788574795.682422 [TRG] pulses=11 suppressed=112 cyc=1600 rst=1 rstmode=0x40
1788574795.685796 [HLT] polls=17 faults=0x0 cfglost=0
1788574795.691547 [EFF] n=5 last=58533 min=58448 max=58533 late=0 stuck=0 rderr=0
1788574795.701700 [IMU] init=0 addr=0x68 who=0x68 rst=1 pmrb0=0x40 pmrb=0x1 sr=19 cfg=4 gcfg=0x0 acfg=0x8 icfg=0x30 ien=0x1 armed=1
1788574795.706807 [ACC] reads=882 stale=880 rderr=0 ax=60 ay=-58 az=1119
1788574795.709423 [PWR] pm=0x1 drift=0 rderr=0
1788574795.713422 [DWT] ok=1 cyc=3108794243 cyc_per_ms=799999
1788574796.728220 [HB] up_ms=21187 frames=928 inf=928 hazard=123 canary_err=0 q=0 qovr=0
1788574796.739207 [I2C] init=0 gate=0 whoami=0x201e0 wr=0 wrseen=0x27 addr=0x5a ok=8222 err=0 tmo=0 recov=1 pclk1=200000000 sysclk=400000000
1788574796.740453 [NAK] nacks=0
1788574796.745089 [CLK] cpu=800000000 sysb=400000000 pclk1=200000000
1788574796.749829 [TOF] res=0 step=0 id=0xeacc blk=0xeacc10 ctl=0x0
1788574796.755585 [RNG] init=0 step=99 id=0xeacc boot=1 calls=93 xerr=0 dm=1 tb=15
1788574796.762461 [RNG] osc=41 imp=881 imprb=881 mstart=0x40 cfg=91 cfgfail=0x0 vhv=0 vpolls=0
1788574796.768582 [PRT] calls=3831 xerr=0 ler=1 lidx=0x0 perr=0 maxcnt=17 addr8=0x52
1788574796.772708 [RTY] wr=0 wmax=0 wref=0  rd=0 rmax=0 rref=0
1788574796.780353 [RNG] frames=930 last=66 min=48 max=71 nrdy=1 dxfer=0 dstat=0 lst=0 nrdyerr=0 dclr=0
1788574796.786593 [DRV] init=0 id=7 mode=0x1 lib=0x2 seq=0x1 odc=0x8b sts=0xe0 armed=1
1788574796.791844 [TRG] pulses=11 suppressed=112 cyc=1600 rst=1 rstmode=0x40
1788574796.795346 [HLT] polls=18 faults=0x0 cfglost=0
1788574796.800964 [EFF] n=5 last=58533 min=58448 max=58533 late=0 stuck=0 rderr=0
1788574796.811216 [IMU] init=0 addr=0x68 who=0x68 rst=1 pmrb0=0x40 pmrb=0x1 sr=19 cfg=4 gcfg=0x0 acfg=0x8 icfg=0x30 ien=0x1 armed=1
1788574796.816210 [ACC] reads=932 stale=929 rderr=0 ax=59 ay=-60 az=1119
1788574796.818974 [PWR] pm=0x1 drift=0 rderr=0
1788574796.822958 [DWT] ok=1 cyc=3989727571 cyc_per_ms=800121
1788574797.837396 [HB] up_ms=22288 frames=978 inf=978 hazard=123 canary_err=0 q=0 qovr=0
1788574797.848248 [I2C] init=0 gate=0 whoami=0x201e0 wr=0 wrseen=0x27 addr=0x5a ok=8524 err=0 tmo=0 recov=1 pclk1=200000000 sysclk=400000000
1788574797.849618 [NAK] nacks=0
1788574797.854239 [CLK] cpu=800000000 sysb=400000000 pclk1=200000000
1788574797.858749 [TOF] res=0 step=0 id=0xeacc blk=0xeacc10 ctl=0x0
1788574797.864738 [RNG] init=0 step=99 id=0xeacc boot=1 calls=93 xerr=0 dm=1 tb=15
1788574797.871631 [RNG] osc=41 imp=881 imprb=881 mstart=0x40 cfg=91 cfgfail=0x0 vhv=0 vpolls=0
1788574797.877638 [PRT] calls=4031 xerr=0 ler=1 lidx=0x0 perr=0 maxcnt=17 addr8=0x52
1788574797.881733 [RTY] wr=0 wmax=0 wref=0  rd=0 rmax=0 rref=0
1788574797.889510 [RNG] frames=979 last=67 min=48 max=71 nrdy=1 dxfer=0 dstat=0 lst=0 nrdyerr=0 dclr=0
1788574797.895641 [DRV] init=0 id=7 mode=0x1 lib=0x2 seq=0x1 odc=0x8b sts=0xe0 armed=1
1788574797.900885 [TRG] pulses=11 suppressed=112 cyc=1600 rst=1 rstmode=0x40
1788574797.904254 [HLT] polls=19 faults=0x0 cfglost=0
1788574797.910143 [EFF] n=5 last=58533 min=58448 max=58533 late=0 stuck=0 rderr=0
1788574797.920263 [IMU] init=0 addr=0x68 who=0x68 rst=1 pmrb0=0x40 pmrb=0x1 sr=19 cfg=4 gcfg=0x0 acfg=0x8 icfg=0x30 ien=0x1 armed=1
1788574797.925289 [ACC] reads=982 stale=979 rderr=0 ax=58 ay=-60 az=1125
1788574797.927886 [PWR] pm=0x1 drift=0 rderr=0
1788574797.931887 [DWT] ok=1 cyc=575467123 cyc_per_ms=799915
1788574798.946571 [HB] up_ms=23389 frames=1028 inf=1028 hazard=123 canary_err=0 q=0 qovr=0
1788574798.957689 [I2C] init=0 gate=0 whoami=0x201e0 wr=0 wrseen=0x27 addr=0x5a ok=8820 err=0 tmo=0 recov=1 pclk1=200000000 sysclk=400000000
1788574798.958926 [NAK] nacks=0
1788574798.963560 [CLK] cpu=800000000 sysb=400000000 pclk1=200000000
1788574798.968050 [TOF] res=0 step=0 id=0xeacc blk=0xeacc10 ctl=0x0
1788574798.974081 [RNG] init=0 step=99 id=0xeacc boot=1 calls=93 xerr=0 dm=1 tb=15
1788574798.980929 [RNG] osc=41 imp=881 imprb=881 mstart=0x40 cfg=91 cfgfail=0x0 vhv=0 vpolls=0
1788574798.986923 [PRT] calls=4231 xerr=0 ler=1 lidx=0x0 perr=0 maxcnt=17 addr8=0x52
1788574798.991050 [RTY] wr=0 wmax=0 wref=0  rd=0 rmax=0 rref=0
1788574798.998927 [RNG] frames=1029 last=66 min=48 max=71 nrdy=1 dxfer=0 dstat=0 lst=0 nrdyerr=0 dclr=0
1788574799.005072 [DRV] init=0 id=7 mode=0x1 lib=0x2 seq=0x1 odc=0x8b sts=0xe0 armed=1
1788574799.010437 [TRG] pulses=11 suppressed=112 cyc=1600 rst=1 rstmode=0x40
1788574799.013680 [HLT] polls=20 faults=0x0 cfglost=0
1788574799.019560 [EFF] n=5 last=58533 min=58448 max=58533 late=0 stuck=0 rderr=0
1788574799.029686 [IMU] init=0 addr=0x68 who=0x68 rst=1 pmrb0=0x40 pmrb=0x1 sr=19 cfg=4 gcfg=0x0 acfg=0x8 icfg=0x30 ien=0x1 armed=1
1788574799.034816 [ACC] reads=1032 stale=1029 rderr=0 ax=59 ay=-61 az=1121
1788574799.037576 [PWR] pm=0x1 drift=0 rderr=0
1788574799.041565 [DWT] ok=1 cyc=1456577119 cyc_per_ms=800281
1788574800.056111 [HB] up_ms=24490 frames=1078 inf=1078 hazard=123 canary_err=0 q=0 qovr=0
1788574800.067219 [I2C] init=0 gate=0 whoami=0x201e0 wr=0 wrseen=0x27 addr=0x5a ok=9122 err=0 tmo=0 recov=1 pclk1=200000000 sysclk=400000000
1788574800.068597 [NAK] nacks=0
1788574800.073223 [CLK] cpu=800000000 sysb=400000000 pclk1=200000000
1788574800.077728 [TOF] res=0 step=0 id=0xeacc blk=0xeacc10 ctl=0x0
1788574800.083467 [RNG] init=0 step=99 id=0xeacc boot=1 calls=93 xerr=0 dm=1 tb=15
1788574800.090609 [RNG] osc=41 imp=881 imprb=881 mstart=0x40 cfg=91 cfgfail=0x0 vhv=0 vpolls=0
1788574800.096594 [PRT] calls=4431 xerr=0 ler=1 lidx=0x0 perr=0 maxcnt=17 addr8=0x52
1788574800.100601 [RTY] wr=0 wmax=0 wref=0  rd=0 rmax=0 rref=0
1788574800.108469 [RNG] frames=1079 last=66 min=48 max=71 nrdy=1 dxfer=0 dstat=0 lst=0 nrdyerr=0 dclr=0
1788574800.114725 [DRV] init=0 id=7 mode=0x1 lib=0x2 seq=0x1 odc=0x8b sts=0xe0 armed=1
1788574800.119978 [TRG] pulses=12 suppressed=112 cyc=1600 rst=1 rstmode=0x40
1788574800.123217 [HLT] polls=21 faults=0x0 cfglost=0
1788574800.128972 [EFF] n=5 last=58533 min=58448 max=58533 late=0 stuck=0 rderr=0
1788574800.139370 [IMU] init=0 addr=0x68 who=0x68 rst=1 pmrb0=0x40 pmrb=0x1 sr=19 cfg=4 gcfg=0x0 acfg=0x8 icfg=0x30 ien=0x1 armed=1
1788574800.144469 [ACC] reads=1082 stale=1079 rderr=0 ax=61 ay=-60 az=1119
1788574800.147100 [PWR] pm=0x1 drift=0 rderr=0
1788574800.151100 [DWT] ok=1 cyc=2337381627 cyc_per_ms=800004
1788574801.165024 [HB] up_ms=25591 frames=1128 inf=1128 hazard=164 canary_err=0 q=0 qovr=0
1788574801.176145 [I2C] init=0 gate=0 whoami=0x201e0 wr=0 wrseen=0x27 addr=0x5a ok=9424 err=0 tmo=0 recov=1 pclk1=200000000 sysclk=400000000
1788574801.177515 [NAK] nacks=0
1788574801.182017 [CLK] cpu=800000000 sysb=400000000 pclk1=200000000
1788574801.186555 [TOF] res=0 step=0 id=0xeacc blk=0xeacc10 ctl=0x0
1788574801.192422 [RNG] init=0 step=99 id=0xeacc boot=1 calls=93 xerr=0 dm=1 tb=15
1788574801.199417 [RNG] osc=41 imp=881 imprb=881 mstart=0x40 cfg=91 cfgfail=0x0 vhv=0 vpolls=0
1788574801.205411 [PRT] calls=4631 xerr=0 ler=1 lidx=0x0 perr=0 maxcnt=17 addr8=0x52
1788574801.209506 [RTY] wr=0 wmax=0 wref=0  rd=0 rmax=0 rref=0
1788574801.217149 [RNG] frames=1129 last=59 min=48 max=71 nrdy=1 dxfer=0 dstat=0 lst=0 nrdyerr=0 dclr=0
1788574801.223529 [DRV] init=0 id=7 mode=0x1 lib=0x2 seq=0x1 odc=0x8b sts=0xe0 armed=1
1788574801.228769 [TRG] pulses=14 suppressed=150 cyc=1600 rst=1 rstmode=0x40
1788574801.232150 [HLT] polls=22 faults=0x0 cfglost=0
1788574801.237767 [EFF] n=5 last=58533 min=58448 max=58533 late=0 stuck=0 rderr=0
1788574801.248146 [IMU] init=0 addr=0x68 who=0x68 rst=1 pmrb0=0x40 pmrb=0x1 sr=19 cfg=4 gcfg=0x0 acfg=0x8 icfg=0x30 ien=0x1 armed=1
1788574801.253269 [ACC] reads=1132 stale=1129 rderr=0 ax=60 ay=-61 az=1123
1788574801.255942 [PWR] pm=0x1 drift=0 rderr=0
1788574801.259899 [DWT] ok=1 cyc=3218176847 cyc_per_ms=799995
1788574802.273335 [HB] up_ms=26692 frames=1178 inf=1178 hazard=164 canary_err=0 q=0 qovr=0
1788574802.284310 [I2C] init=0 gate=0 whoami=0x201e0 wr=0 wrseen=0x27 addr=0x5a ok=9726 err=0 tmo=0 recov=1 pclk1=200000000 sysclk=400000000
1788574802.285682 [NAK] nacks=0
1788574802.290319 [CLK] cpu=800000000 sysb=400000000 pclk1=200000000
1788574802.294818 [TOF] res=0 step=0 id=0xeacc blk=0xeacc10 ctl=0x0
1788574802.300691 [RNG] init=0 step=99 id=0xeacc boot=1 calls=93 xerr=0 dm=1 tb=15
1788574802.307586 [RNG] osc=41 imp=881 imprb=881 mstart=0x40 cfg=91 cfgfail=0x0 vhv=0 vpolls=0
1788574802.313689 [PRT] calls=4827 xerr=0 ler=1 lidx=0x0 perr=0 maxcnt=17 addr8=0x52
1788574802.317820 [RTY] wr=0 wmax=0 wref=0  rd=0 rmax=0 rref=0
1788574802.325448 [RNG] frames=1179 last=58 min=48 max=71 nrdy=1 dxfer=0 dstat=0 lst=0 nrdyerr=0 dclr=0
1788574802.331812 [DRV] init=0 id=7 mode=0x1 lib=0x2 seq=0x1 odc=0x8b sts=0xe0 armed=1
1788574802.337074 [TRG] pulses=14 suppressed=150 cyc=1600 rst=1 rstmode=0x40
1788574802.340357 [HLT] polls=23 faults=0x0 cfglost=0
1788574802.346080 [EFF] n=5 last=58533 min=58448 max=58533 late=0 stuck=0 rderr=0
1788574802.356453 [IMU] init=0 addr=0x68 who=0x68 rst=1 pmrb0=0x40 pmrb=0x1 sr=19 cfg=4 gcfg=0x0 acfg=0x8 icfg=0x30 ien=0x1 armed=1
1788574802.361560 [ACC] reads=1182 stale=1179 rderr=0 ax=62 ay=-62 az=1121
1788574802.364184 [PWR] pm=0x1 drift=0 rderr=0
1788574802.368184 [DWT] ok=1 cyc=4098977155 cyc_per_ms=800000
1788574803.381737 [HB] up_ms=27793 frames=1228 inf=1228 hazard=164 canary_err=0 q=0 qovr=0
1788574803.392739 [I2C] init=0 gate=0 whoami=0x201e0 wr=0 wrseen=0x27 addr=0x5a ok=10028 err=0 tmo=0 recov=1 pclk1=200000000 sysclk=400000000
1788574803.394108 [NAK] nacks=0
1788574803.398868 [CLK] cpu=800000000 sysb=400000000 pclk1=200000000
1788574803.403394 [TOF] res=0 step=0 id=0xeacc blk=0xeacc10 ctl=0x0
1788574803.409126 [RNG] init=0 step=99 id=0xeacc boot=1 calls=93 xerr=0 dm=1 tb=15
1788574803.415979 [RNG] osc=41 imp=881 imprb=881 mstart=0x40 cfg=91 cfgfail=0x0 vhv=0 vpolls=0
1788574803.422239 [PRT] calls=5027 xerr=0 ler=1 lidx=0x0 perr=0 maxcnt=17 addr8=0x52
1788574803.426229 [RTY] wr=0 wmax=0 wref=0  rd=0 rmax=0 rref=0
1788574803.433980 [RNG] frames=1229 last=61 min=48 max=71 nrdy=1 dxfer=0 dstat=0 lst=0 nrdyerr=0 dclr=0
1788574803.440110 [DRV] init=0 id=7 mode=0x1 lib=0x2 seq=0x1 odc=0x8b sts=0xe0 armed=1
1788574803.445613 [TRG] pulses=14 suppressed=150 cyc=1600 rst=1 rstmode=0x40
1788574803.448849 [HLT] polls=24 faults=0x0 cfglost=0
1788574803.454634 [EFF] n=5 last=58533 min=58448 max=58533 late=0 stuck=0 rderr=0
1788574803.464732 [IMU] init=0 addr=0x68 who=0x68 rst=1 pmrb0=0x40 pmrb=0x1 sr=19 cfg=4 gcfg=0x0 acfg=0x8 icfg=0x30 ien=0x1 armed=1
1788574803.470127 [ACC] reads=1231 stale=1228 rderr=0 ax=58 ay=-62 az=1124
1788574803.472732 [PWR] pm=0x1 drift=0 rderr=0
1788574803.476609 [DWT] ok=1 cyc=684879535 cyc_per_ms=800063
1788574804.490672 [HB] up_ms=28894 frames=1277 inf=1277 hazard=164 canary_err=0 q=0 qovr=0
1788574804.501655 [I2C] init=0 gate=0 whoami=0x201e0 wr=0 wrseen=0x27 addr=0x5a ok=10330 err=0 tmo=0 recov=1 pclk1=200000000 sysclk=400000000
1788574804.503018 [NAK] nacks=0
1788574804.507643 [CLK] cpu=800000000 sysb=400000000 pclk1=200000000
1788574804.512273 [TOF] res=0 step=0 id=0xeacc blk=0xeacc10 ctl=0x0
1788574804.518047 [RNG] init=0 step=99 id=0xeacc boot=1 calls=93 xerr=0 dm=1 tb=15
1788574804.525058 [RNG] osc=41 imp=881 imprb=881 mstart=0x40 cfg=91 cfgfail=0x0 vhv=0 vpolls=0
1788574804.531035 [PRT] calls=5227 xerr=0 ler=1 lidx=0x0 perr=0 maxcnt=17 addr8=0x52
1788574804.535157 [RTY] wr=0 wmax=0 wref=0  rd=0 rmax=0 rref=0
1788574804.542911 [RNG] frames=1279 last=57 min=48 max=71 nrdy=1 dxfer=0 dstat=0 lst=0 nrdyerr=0 dclr=0
1788574804.549022 [DRV] init=0 id=7 mode=0x1 lib=0x2 seq=0x1 odc=0x8b sts=0xe0 armed=1
1788574804.554445 [TRG] pulses=14 suppressed=150 cyc=1600 rst=1 rstmode=0x40
1788574804.557784 [HLT] polls=25 faults=0x0 cfglost=0
1788574804.563517 [EFF] n=5 last=58533 min=58448 max=58533 late=0 stuck=0 rderr=0
1788574804.573663 [IMU] init=0 addr=0x68 who=0x68 rst=1 pmrb0=0x40 pmrb=0x1 sr=19 cfg=4 gcfg=0x0 acfg=0x8 icfg=0x30 ien=0x1 armed=1
1788574804.578896 [ACC] reads=1281 stale=1278 rderr=0 ax=61 ay=-60 az=1121
1788574804.581646 [PWR] pm=0x1 drift=0 rderr=0
1788574804.585527 [DWT] ok=1 cyc=1565814521 cyc_per_ms=800122
1788574805.598829 [HB] up_ms=29995 frames=1327 inf=1327 hazard=164 canary_err=0 q=0 qovr=0
1788574805.609948 [I2C] init=0 gate=0 whoami=0x201e0 wr=0 wrseen=0x27 addr=0x5a ok=10630 err=0 tmo=0 recov=1 pclk1=200000000 sysclk=400000000
1788574805.611217 [NAK] nacks=0
1788574805.615811 [CLK] cpu=800000000 sysb=400000000 pclk1=200000000
1788574805.620360 [TOF] res=0 step=0 id=0xeacc blk=0xeacc10 ctl=0x0
1788574805.626357 [RNG] init=0 step=99 id=0xeacc boot=1 calls=93 xerr=0 dm=1 tb=15
1788574805.633187 [RNG] osc=41 imp=881 imprb=881 mstart=0x40 cfg=91 cfgfail=0x0 vhv=0 vpolls=0
1788574805.639197 [PRT] calls=5427 xerr=0 ler=1 lidx=0x0 perr=0 maxcnt=17 addr8=0x52
1788574805.643318 [RTY] wr=0 wmax=0 wref=0  rd=0 rmax=0 rref=0
1788574805.651076 [RNG] frames=1328 last=59 min=48 max=71 nrdy=1 dxfer=0 dstat=0 lst=0 nrdyerr=0 dclr=0
1788574805.657351 [DRV] init=0 id=7 mode=0x1 lib=0x2 seq=0x1 odc=0x8b sts=0xe0 armed=1
1788574805.662656 [TRG] pulses=14 suppressed=150 cyc=1600 rst=1 rstmode=0x40
1788574805.665825 [HLT] polls=26 faults=0x0 cfglost=0
1788574805.671824 [EFF] n=5 last=58533 min=58448 max=58533 late=0 stuck=0 rderr=0
1788574805.681949 [IMU] init=0 addr=0x68 who=0x68 rst=1 pmrb0=0x40 pmrb=0x1 sr=19 cfg=4 gcfg=0x0 acfg=0x8 icfg=0x30 ien=0x1 armed=1
1788574805.687086 [ACC] reads=1331 stale=1328 rderr=0 ax=61 ay=-63 az=1120
1788574805.689705 [PWR] pm=0x1 drift=0 rderr=0
1788574805.693829 [DWT] ok=1 cyc=2446479595 cyc_per_ms=799877
1788574806.706752 [HB] up_ms=31096 frames=1377 inf=1377 hazard=164 canary_err=0 q=0 qovr=0
1788574806.717863 [I2C] init=0 gate=0 whoami=0x201e0 wr=0 wrseen=0x27 addr=0x5a ok=10928 err=0 tmo=0 recov=1 pclk1=200000000 sysclk=400000000
1788574806.719249 [NAK] nacks=0
1788574806.723861 [CLK] cpu=800000000 sysb=400000000 pclk1=200000000
1788574806.728430 [TOF] res=0 step=0 id=0xeacc blk=0xeacc10 ctl=0x0
1788574806.734244 [RNG] init=0 step=99 id=0xeacc boot=1 calls=93 xerr=0 dm=1 tb=15
1788574806.741273 [RNG] osc=41 imp=881 imprb=881 mstart=0x40 cfg=91 cfgfail=0x0 vhv=0 vpolls=0
1788574806.747232 [PRT] calls=5627 xerr=0 ler=1 lidx=0x0 perr=0 maxcnt=17 addr8=0x52
1788574806.751229 [RTY] wr=0 wmax=0 wref=0  rd=0 rmax=0 rref=0
1788574806.759129 [RNG] frames=1378 last=59 min=48 max=71 nrdy=1 dxfer=0 dstat=0 lst=0 nrdyerr=0 dclr=0
1788574806.765235 [DRV] init=0 id=7 mode=0x1 lib=0x2 seq=0x1 odc=0x8b sts=0xe0 armed=1
1788574806.770653 [TRG] pulses=14 suppressed=150 cyc=1600 rst=1 rstmode=0x40
1788574806.773863 [HLT] polls=27 faults=0x0 cfglost=0
1788574806.779621 [EFF] n=5 last=58533 min=58448 max=58533 late=0 stuck=0 rderr=0
1788574806.789866 [IMU] init=0 addr=0x68 who=0x68 rst=1 pmrb0=0x40 pmrb=0x1 sr=19 cfg=4 gcfg=0x0 acfg=0x8 icfg=0x30 ien=0x1 armed=1
1788574806.794989 [ACC] reads=1381 stale=1378 rderr=0 ax=61 ay=-62 az=1123
1788574806.797620 [PWR] pm=0x1 drift=0 rderr=0
1788574806.801609 [DWT] ok=1 cyc=3327279595 cyc_per_ms=800000
1788574807.814451 [HB] up_ms=32197 frames=1427 inf=1427 hazard=191 canary_err=0 q=0 qovr=0
1788574807.825667 [I2C] init=0 gate=0 whoami=0x201e0 wr=0 wrseen=0x27 addr=0x5a ok=11230 err=0 tmo=0 recov=1 pclk1=200000000 sysclk=400000000
1788574807.826905 [NAK] nacks=0
1788574807.831530 [CLK] cpu=800000000 sysb=400000000 pclk1=200000000
1788574807.836034 [TOF] res=0 step=0 id=0xeacc blk=0xeacc10 ctl=0x0
1788574807.841966 [RNG] init=0 step=99 id=0xeacc boot=1 calls=93 xerr=0 dm=1 tb=15
1788574807.848928 [RNG] osc=41 imp=881 imprb=881 mstart=0x40 cfg=91 cfgfail=0x0 vhv=0 vpolls=0
1788574807.854902 [PRT] calls=5827 xerr=0 ler=1 lidx=0x0 perr=0 maxcnt=17 addr8=0x52
1788574807.859035 [RTY] wr=0 wmax=0 wref=0  rd=0 rmax=0 rref=0
1788574807.866662 [RNG] frames=1428 last=63 min=48 max=72 nrdy=1 dxfer=0 dstat=0 lst=0 nrdyerr=0 dclr=0
1788574807.873085 [DRV] init=0 id=7 mode=0x1 lib=0x2 seq=0x1 odc=0x8b sts=0xe0 armed=1
1788574807.878351 [TRG] pulses=17 suppressed=177 cyc=1600 rst=1 rstmode=0x40
1788574807.881601 [HLT] polls=28 faults=0x0 cfglost=0
1788574807.887279 [EFF] n=5 last=58533 min=58448 max=58533 late=0 stuck=0 rderr=0
1788574807.899499 [IMU] init=0 addr=0x68 who=0x68 rst=1 pmrb0=0x40 pmrb=0x1 sr=19 cfg=4 gcfg=0x0 acfg=0x8 icfg=0x30 ien=0x1 armed=1
1788574807.902758 [ACC] reads=1431 stale=1428 rderr=0 ax=60 ay=-63 az=1119
1788574807.906389 [PWR] pm=0x1 drift=0 rderr=0
1788574807.910379 [DWT] ok=1 cyc=4208085927 cyc_per_ms=800005
1788574808.922356 [HB] up_ms=33298 frames=1477 inf=1477 hazard=205 canary_err=0 q=0 qovr=0
1788574808.933582 [I2C] init=0 gate=0 whoami=0x201e0 wr=0 wrseen=0x27 addr=0x5a ok=11532 err=0 tmo=0 recov=1 pclk1=200000000 sysclk=400000000
1788574808.934946 [NAK] nacks=0
1788574808.939451 [CLK] cpu=800000000 sysb=400000000 pclk1=200000000
1788574808.943945 [TOF] res=0 step=0 id=0xeacc blk=0xeacc10 ctl=0x0
1788574808.949821 [RNG] init=0 step=99 id=0xeacc boot=1 calls=93 xerr=0 dm=1 tb=15
1788574808.956829 [RNG] osc=41 imp=881 imprb=881 mstart=0x40 cfg=91 cfgfail=0x0 vhv=0 vpolls=0
1788574808.962823 [PRT] calls=6027 xerr=0 ler=1 lidx=0x0 perr=0 maxcnt=17 addr8=0x52
1788574808.966954 [RTY] wr=0 wmax=0 wref=0  rd=0 rmax=0 rref=0
1788574808.974585 [RNG] frames=1478 last=65 min=48 max=72 nrdy=1 dxfer=0 dstat=0 lst=0 nrdyerr=0 dclr=0
1788574808.980960 [DRV] init=0 id=7 mode=0x1 lib=0x2 seq=0x1 odc=0x8b sts=0xe0 armed=1
1788574808.986198 [TRG] pulses=17 suppressed=188 cyc=1600 rst=1 rstmode=0x40
1788574808.989452 [HLT] polls=29 faults=0x0 cfglost=0
1788574808.995203 [EFF] n=5 last=58533 min=58448 max=58533 late=0 stuck=0 rderr=0
1788574809.005590 [IMU] init=0 addr=0x68 who=0x68 rst=1 pmrb0=0x40 pmrb=0x1 sr=19 cfg=4 gcfg=0x0 acfg=0x8 icfg=0x30 ien=0x1 armed=1
1788574809.010708 [ACC] reads=1481 stale=1478 rderr=0 ax=60 ay=-59 az=1121
1788574809.013357 [PWR] pm=0x1 drift=0 rderr=0
1788574809.017205 [DWT] ok=1 cyc=793912291 cyc_per_ms=799994
1788574810.030636 [HB] up_ms=34399 frames=1527 inf=1527 hazard=205 canary_err=0 q=0 qovr=0
1788574810.041755 [I2C] init=0 gate=0 whoami=0x201e0 wr=0 wrseen=0x27 addr=0x5a ok=11834 err=0 tmo=0 recov=1 pclk1=200000000 sysclk=400000000
1788574810.053812 [NAK] nacks=0
1788574810.053911 [CLK] cpu=800000000 sysb=400000000 pclk1=200000000
1788574810.053978 [TOF] res=0 step=0 id=0xeacc blk=0xeacc10 ctl=0x0
1788574810.058129 [RNG] init=0 step=99 id=0xeacc boot=1 calls=93 xerr=0 dm=1 tb=15
1788574810.064993 [RNG] osc=41 imp=881 imprb=881 mstart=0x40 cfg=91 cfgfail=0x0 vhv=0 vpolls=0
1788574810.071200 [PRT] calls=6223 xerr=0 ler=1 lidx=0x0 perr=0 maxcnt=17 addr8=0x52
1788574810.075268 [RTY] wr=0 wmax=0 wref=0  rd=0 rmax=0 rref=0
1788574810.082873 [RNG] frames=1528 last=54 min=48 max=72 nrdy=1 dxfer=0 dstat=0 lst=0 nrdyerr=0 dclr=0
1788574810.089127 [DRV] init=0 id=7 mode=0x1 lib=0x2 seq=0x1 odc=0x8b sts=0xe0 armed=1
1788574810.094630 [TRG] pulses=17 suppressed=188 cyc=1600 rst=1 rstmode=0x40
1788574810.097872 [HLT] polls=30 faults=0x0 cfglost=0
1788574810.103622 [EFF] n=5 last=58533 min=58448 max=58533 late=0 stuck=0 rderr=0
1788574810.113872 [IMU] init=0 addr=0x68 who=0x68 rst=1 pmrb0=0x40 pmrb=0x1 sr=19 cfg=4 gcfg=0x0 acfg=0x8 icfg=0x30 ien=0x1 armed=1
1788574810.118997 [ACC] reads=1531 stale=1528 rderr=0 ax=62 ay=-63 az=1122
1788574810.121631 [PWR] pm=0x1 drift=0 rderr=0
1788574810.125621 [DWT] ok=1 cyc=1674712431 cyc_per_ms=800000
1788574811.139468 [HB] up_ms=35500 frames=1577 inf=1577 hazard=205 canary_err=0 q=0 qovr=0
1788574811.150433 [I2C] init=0 gate=0 whoami=0x201e0 wr=0 wrseen=0x27 addr=0x5a ok=12136 err=0 tmo=0 recov=1 pclk1=200000000 sysclk=400000000
1788574811.151781 [NAK] nacks=0
1788574811.156543 [CLK] cpu=800000000 sysb=400000000 pclk1=200000000
1788574811.161040 [TOF] res=0 step=0 id=0xeacc blk=0xeacc10 ctl=0x0
1788574811.166784 [RNG] init=0 step=99 id=0xeacc boot=1 calls=93 xerr=0 dm=1 tb=15
1788574811.173665 [RNG] osc=41 imp=881 imprb=881 mstart=0x40 cfg=91 cfgfail=0x0 vhv=0 vpolls=0
1788574811.179915 [PRT] calls=6423 xerr=0 ler=1 lidx=0x0 perr=0 maxcnt=17 addr8=0x52
1788574811.183921 [RTY] wr=0 wmax=0 wref=0  rd=0 rmax=0 rref=0
1788574811.191664 [RNG] frames=1578 last=58 min=48 max=72 nrdy=1 dxfer=0 dstat=0 lst=0 nrdyerr=0 dclr=0
1788574811.197792 [DRV] init=0 id=7 mode=0x1 lib=0x2 seq=0x1 odc=0x8b sts=0xe0 armed=1
1788574811.203290 [TRG] pulses=17 suppressed=188 cyc=1600 rst=1 rstmode=0x40
1788574811.206539 [HLT] polls=31 faults=0x0 cfglost=0
1788574811.212296 [EFF] n=5 last=58533 min=58448 max=58533 late=0 stuck=0 rderr=0
1788574811.222435 [IMU] init=0 addr=0x68 who=0x68 rst=1 pmrb0=0x40 pmrb=0x1 sr=19 cfg=4 gcfg=0x0 acfg=0x8 icfg=0x30 ien=0x1 armed=1
1788574811.227670 [ACC] reads=1580 stale=1577 rderr=0 ax=61 ay=-60 az=1122
1788574811.230440 [PWR] pm=0x1 drift=0 rderr=0
1788574811.234288 [DWT] ok=1 cyc=2555540515 cyc_per_ms=800025
1788574812.247839 [HB] up_ms=36601 frames=1626 inf=1626 hazard=205 canary_err=0 q=0 qovr=0
1788574812.258964 [I2C] init=0 gate=0 whoami=0x201e0 wr=0 wrseen=0x27 addr=0x5a ok=12438 err=0 tmo=0 recov=1 pclk1=200000000 sysclk=400000000
1788574812.260207 [NAK] nacks=0
1788574812.264832 [CLK] cpu=800000000 sysb=400000000 pclk1=200000000
1788574812.269451 [TOF] res=0 step=0 id=0xeacc blk=0xeacc10 ctl=0x0
1788574812.275347 [RNG] init=0 step=99 id=0xeacc boot=1 calls=93 xerr=0 dm=1 tb=15
1788574812.282205 [RNG] osc=41 imp=881 imprb=881 mstart=0x40 cfg=91 cfgfail=0x0 vhv=0 vpolls=0
1788574812.288215 [PRT] calls=6623 xerr=0 ler=1 lidx=0x0 perr=0 maxcnt=17 addr8=0x52
1788574812.292495 [RTY] wr=0 wmax=0 wref=0  rd=0 rmax=0 rref=0
1788574812.300082 [RNG] frames=1628 last=57 min=48 max=72 nrdy=1 dxfer=0 dstat=0 lst=0 nrdyerr=0 dclr=0
1788574812.306352 [DRV] init=0 id=7 mode=0x1 lib=0x2 seq=0x1 odc=0x8b sts=0xe0 armed=1
1788574812.311577 [TRG] pulses=17 suppressed=188 cyc=1600 rst=1 rstmode=0x40
1788574812.314958 [HLT] polls=32 faults=0x0 cfglost=0
1788574812.320864 [EFF] n=5 last=58533 min=58448 max=58533 late=0 stuck=0 rderr=0
1788574812.330958 [IMU] init=0 addr=0x68 who=0x68 rst=1 pmrb0=0x40 pmrb=0x1 sr=19 cfg=4 gcfg=0x0 acfg=0x8 icfg=0x30 ien=0x1 armed=1
1788574812.336081 [ACC] reads=1630 stale=1627 rderr=0 ax=60 ay=-60 az=1123
1788574812.338853 [PWR] pm=0x1 drift=0 rderr=0
1788574812.342837 [DWT] ok=1 cyc=3436447353 cyc_per_ms=800097
1788574813.356019 [HB] up_ms=37702 frames=1676 inf=1676 hazard=205 canary_err=0 q=0 qovr=0
1788574813.367129 [I2C] init=0 gate=0 whoami=0x201e0 wr=0 wrseen=0x27 addr=0x5a ok=12735 err=0 tmo=0 recov=1 pclk1=200000000 sysclk=400000000
1788574813.368502 [NAK] nacks=0
1788574813.373141 [CLK] cpu=800000000 sysb=400000000 pclk1=200000000
1788574813.377625 [TOF] res=0 step=0 id=0xeacc blk=0xeacc10 ctl=0x0
1788574813.383619 [RNG] init=0 step=99 id=0xeacc boot=1 calls=93 xerr=0 dm=1 tb=15
1788574813.390496 [RNG] osc=41 imp=881 imprb=881 mstart=0x40 cfg=91 cfgfail=0x0 vhv=0 vpolls=0
1788574813.396491 [PRT] calls=6823 xerr=0 ler=1 lidx=0x0 perr=0 maxcnt=17 addr8=0x52
1788574813.400493 [RTY] wr=0 wmax=0 wref=0  rd=0 rmax=0 rref=0
1788574813.408412 [RNG] frames=1677 last=69 min=48 max=72 nrdy=1 dxfer=0 dstat=0 lst=0 nrdyerr=0 dclr=0
1788574813.414497 [DRV] init=0 id=7 mode=0x1 lib=0x2 seq=0x1 odc=0x8b sts=0xe0 armed=1
1788574813.419932 [TRG] pulses=17 suppressed=188 cyc=1600 rst=1 rstmode=0x40
1788574813.423130 [HLT] polls=33 faults=0x0 cfglost=0
1788574813.429014 [EFF] n=5 last=58533 min=58448 max=58533 late=0 stuck=0 rderr=0
1788574813.439132 [IMU] init=0 addr=0x68 who=0x68 rst=1 pmrb0=0x40 pmrb=0x1 sr=19 cfg=4 gcfg=0x0 acfg=0x8 icfg=0x30 ien=0x1 armed=1
1788574813.444246 [ACC] reads=1680 stale=1677 rderr=0 ax=61 ay=-60 az=1122
1788574813.446999 [PWR] pm=0x1 drift=0 rderr=0
1788574813.450877 [DWT] ok=1 cyc=22145047 cyc_per_ms=799877
1788574814.464469 [HB] up_ms=38803 frames=1726 inf=1726 hazard=211 canary_err=0 q=0 qovr=0
1788574814.475668 [I2C] init=0 gate=0 whoami=0x201e0 wr=0 wrseen=0x27 addr=0x5a ok=13036 err=0 tmo=0 recov=1 pclk1=200000000 sysclk=400000000
1788574814.476922 [NAK] nacks=0
1788574814.481541 [CLK] cpu=800000000 sysb=400000000 pclk1=200000000
1788574814.486057 [TOF] res=0 step=0 id=0xeacc blk=0xeacc10 ctl=0x0
1788574814.491918 [RNG] init=0 step=99 id=0xeacc boot=1 calls=93 xerr=0 dm=1 tb=15
1788574814.498936 [RNG] osc=41 imp=881 imprb=881 mstart=0x40 cfg=91 cfgfail=0x0 vhv=0 vpolls=0
1788574814.504922 [PRT] calls=7023 xerr=0 ler=1 lidx=0x0 perr=0 maxcnt=17 addr8=0x52
1788574814.509050 [RTY] wr=0 wmax=0 wref=0  rd=0 rmax=0 rref=0
1788574814.516924 [RNG] frames=1727 last=61 min=48 max=72 nrdy=1 dxfer=0 dstat=0 lst=0 nrdyerr=0 dclr=0
1788574814.523053 [DRV] init=0 id=7 mode=0x1 lib=0x2 seq=0x1 odc=0x8b sts=0xe0 armed=1
1788574814.528421 [TRG] pulses=18 suppressed=196 cyc=1600 rst=1 rstmode=0x40
1788574814.531665 [HLT] polls=34 faults=0x0 cfglost=0
1788574814.537432 [EFF] n=5 last=58533 min=58448 max=58533 late=0 stuck=0 rderr=0
1788574814.547667 [IMU] init=0 addr=0x68 who=0x68 rst=1 pmrb0=0x40 pmrb=0x1 sr=19 cfg=4 gcfg=0x0 acfg=0x8 icfg=0x30 ien=0x1 armed=1
1788574814.552792 [ACC] reads=1730 stale=1727 rderr=0 ax=60 ay=-61 az=1122
1788574814.555429 [PWR] pm=0x1 drift=0 rderr=0
1788574814.559300 [DWT] ok=1 cyc=902948547 cyc_per_ms=800003
1788574815.573492 [HB] up_ms=39904 frames=1776 inf=1776 hazard=246 canary_err=0 q=0 qovr=0
1788574815.584720 [I2C] init=0 gate=0 whoami=0x201e0 wr=0 wrseen=0x27 addr=0x5a ok=13338 err=0 tmo=0 recov=1 pclk1=200000000 sysclk=400000000
1788574815.596013 [NAK] nacks=0
1788574815.596117 [CLK] cpu=800000000 sysb=400000000 pclk1=200000000
1788574815.596186 [TOF] res=0 step=0 id=0xeacc blk=0xeacc10 ctl=0x0
1788574815.600960 [RNG] init=0 step=99 id=0xeacc boot=1 calls=93 xerr=0 dm=1 tb=15
1788574815.607967 [RNG] osc=41 imp=881 imprb=881 mstart=0x40 cfg=91 cfgfail=0x0 vhv=0 vpolls=0
1788574815.613957 [PRT] calls=7223 xerr=0 ler=1 lidx=0x0 perr=0 maxcnt=17 addr8=0x52
1788574815.618087 [RTY] wr=0 wmax=0 wref=0  rd=0 rmax=0 rref=0
1788574815.625721 [RNG] frames=1777 last=60 min=48 max=72 nrdy=1 dxfer=0 dstat=0 lst=0 nrdyerr=0 dclr=0
1788574815.632088 [DRV] init=0 id=7 mode=0x1 lib=0x2 seq=0x1 odc=0x8b sts=0xe0 armed=1
1788574815.637535 [TRG] pulses=20 suppressed=226 cyc=1600 rst=1 rstmode=0x40
1788574815.640733 [HLT] polls=35 faults=0x0 cfglost=0
1788574815.646457 [EFF] n=5 last=58533 min=58448 max=58533 late=0 stuck=0 rderr=0
1788574815.656742 [IMU] init=0 addr=0x68 who=0x68 rst=1 pmrb0=0x40 pmrb=0x1 sr=19 cfg=4 gcfg=0x0 acfg=0x8 icfg=0x30 ien=0x1 armed=1
1788574815.661854 [ACC] reads=1780 stale=1777 rderr=0 ax=59 ay=-60 az=1120
1788574815.664642 [PWR] pm=0x1 drift=0 rderr=0
1788574815.668464 [DWT] ok=1 cyc=1783745091 cyc_per_ms=799996
1788574816.682773 [HB] up_ms=41005 frames=1826 inf=1826 hazard=246 canary_err=0 q=0 qovr=0
1788574816.693878 [I2C] init=0 gate=0 whoami=0x201e0 wr=0 wrseen=0x27 addr=0x5a ok=13640 err=0 tmo=0 recov=1 pclk1=200000000 sysclk=400000000
1788574816.697016 [NAK] nacks=0
1788574816.699890 [CLK] cpu=800000000 sysb=400000000 pclk1=200000000
1788574816.704476 [TOF] res=0 step=0 id=0xeacc blk=0xeacc10 ctl=0x0
1788574816.710127 [RNG] init=0 step=99 id=0xeacc boot=1 calls=93 xerr=0 dm=1 tb=15
1788574816.717124 [RNG] osc=41 imp=881 imprb=881 mstart=0x40 cfg=91 cfgfail=0x0 vhv=0 vpolls=0
1788574816.723258 [PRT] calls=7422 xerr=0 ler=1 lidx=0x0 perr=0 maxcnt=17 addr8=0x52
1788574816.727258 [RTY] wr=0 wmax=0 wref=0  rd=0 rmax=0 rref=0
1788574816.735006 [RNG] frames=1827 last=66 min=48 max=72 nrdy=1 dxfer=0 dstat=0 lst=0 nrdyerr=0 dclr=0
1788574816.741428 [DRV] init=0 id=7 mode=0x1 lib=0x2 seq=0x1 odc=0x8b sts=0xe0 armed=1
1788574816.746626 [TRG] pulses=20 suppressed=226 cyc=1600 rst=1 rstmode=0x40
1788574816.749890 [HLT] polls=36 faults=0x0 cfglost=0
1788574816.755630 [EFF] n=5 last=58533 min=58448 max=58533 late=0 stuck=0 rderr=0
1788574816.766005 [IMU] init=0 addr=0x68 who=0x68 rst=1 pmrb0=0x40 pmrb=0x1 sr=19 cfg=4 gcfg=0x0 acfg=0x8 icfg=0x30 ien=0x1 armed=1
1788574816.771135 [ACC] reads=1830 stale=1827 rderr=0 ax=60 ay=-62 az=1120
1788574816.773773 [PWR] pm=0x1 drift=0 rderr=0
1788574816.777756 [DWT] ok=1 cyc=2664545095 cyc_per_ms=800000
1788574817.791685 [HB] up_ms=42106 frames=1876 inf=1876 hazard=246 canary_err=0 q=0 qovr=0
1788574817.802679 [I2C] init=0 gate=0 whoami=0x201e0 wr=0 wrseen=0x27 addr=0x5a ok=13942 err=0 tmo=0 recov=1 pclk1=200000000 sysclk=400000000
1788574817.804056 [NAK] nacks=0
1788574817.808808 [CLK] cpu=800000000 sysb=400000000 pclk1=200000000
1788574817.813306 [TOF] res=0 step=0 id=0xeacc blk=0xeacc10 ctl=0x0
1788574817.819172 [RNG] init=0 step=99 id=0xeacc boot=1 calls=93 xerr=0 dm=1 tb=15
1788574817.826052 [RNG] osc=41 imp=881 imprb=881 mstart=0x40 cfg=91 cfgfail=0x0 vhv=0 vpolls=0
1788574817.832191 [PRT] calls=7619 xerr=0 ler=1 lidx=0x0 perr=0 maxcnt=17 addr8=0x52
1788574817.836306 [RTY] wr=0 wmax=0 wref=0  rd=0 rmax=0 rref=0
1788574817.843922 [RNG] frames=1877 last=65 min=48 max=72 nrdy=1 dxfer=0 dstat=0 lst=0 nrdyerr=0 dclr=0
1788574817.850173 [DRV] init=0 id=7 mode=0x1 lib=0x2 seq=0x1 odc=0x8b sts=0xe0 armed=1
1788574817.855566 [TRG] pulses=20 suppressed=226 cyc=1600 rst=1 rstmode=0x40
1788574817.858801 [HLT] polls=37 faults=0x0 cfglost=0
1788574817.864555 [EFF] n=5 last=58533 min=58448 max=58533 late=0 stuck=0 rderr=0
1788574817.874817 [IMU] init=0 addr=0x68 who=0x68 rst=1 pmrb0=0x40 pmrb=0x1 sr=19 cfg=4 gcfg=0x0 acfg=0x8 icfg=0x30 ien=0x1 armed=1
1788574817.880065 [ACC] reads=1880 stale=1877 rderr=0 ax=56 ay=-59 az=1122
1788574817.882672 [PWR] pm=0x1 drift=0 rderr=0
1788574817.886677 [DWT] ok=1 cyc=3545345051 cyc_per_ms=799999
1788574818.900476 [HB] up_ms=43207 frames=1925 inf=1925 hazard=246 canary_err=0 q=0 qovr=0
1788574818.911474 [I2C] init=0 gate=0 whoami=0x201e0 wr=0 wrseen=0x27 addr=0x5a ok=14244 err=0 tmo=0 recov=1 pclk1=200000000 sysclk=400000000
1788574818.912710 [NAK] nacks=0
1788574818.917458 [CLK] cpu=800000000 sysb=400000000 pclk1=200000000
1788574818.922094 [TOF] res=0 step=0 id=0xeacc blk=0xeacc10 ctl=0x0
1788574818.927840 [RNG] init=0 step=99 id=0xeacc boot=1 calls=93 xerr=0 dm=1 tb=15
1788574818.934713 [RNG] osc=41 imp=881 imprb=881 mstart=0x40 cfg=91 cfgfail=0x0 vhv=0 vpolls=0
1788574818.940860 [PRT] calls=7819 xerr=0 ler=1 lidx=0x0 perr=0 maxcnt=17 addr8=0x52
1788574818.945010 [RTY] wr=0 wmax=0 wref=0  rd=0 rmax=0 rref=0
1788574818.952712 [RNG] frames=1927 last=62 min=48 max=72 nrdy=1 dxfer=0 dstat=0 lst=0 nrdyerr=0 dclr=0
1788574818.958842 [DRV] init=0 id=7 mode=0x1 lib=0x2 seq=0x1 odc=0x8b sts=0xe0 armed=1
1788574818.964215 [TRG] pulses=20 suppressed=226 cyc=1600 rst=1 rstmode=0x40
1788574818.967591 [HLT] polls=38 faults=0x0 cfglost=0
1788574818.973361 [EFF] n=5 last=58533 min=58448 max=58533 late=0 stuck=0 rderr=0
1788574818.983466 [IMU] init=0 addr=0x68 who=0x68 rst=1 pmrb0=0x40 pmrb=0x1 sr=19 cfg=4 gcfg=0x0 acfg=0x8 icfg=0x30 ien=0x1 armed=1
1788574818.988714 [ACC] reads=1929 stale=1926 rderr=0 ax=59 ay=-62 az=1118
1788574818.991470 [PWR] pm=0x1 drift=0 rderr=0
1788574818.995369 [DWT] ok=1 cyc=131311769 cyc_per_ms=800121
1788574820.009027 [HB] up_ms=44308 frames=1975 inf=1975 hazard=246 canary_err=0 q=0 qovr=0
1788574820.020021 [I2C] init=0 gate=0 whoami=0x201e0 wr=0 wrseen=0x27 addr=0x5a ok=14546 err=0 tmo=0 recov=1 pclk1=200000000 sysclk=400000000
1788574820.021443 [NAK] nacks=0
1788574820.026009 [CLK] cpu=800000000 sysb=400000000 pclk1=200000000
1788574820.030515 [TOF] res=0 step=0 id=0xeacc blk=0xeacc10 ctl=0x0
1788574820.036502 [RNG] init=0 step=99 id=0xeacc boot=1 calls=93 xerr=0 dm=1 tb=15
1788574820.043422 [RNG] osc=41 imp=881 imprb=881 mstart=0x40 cfg=91 cfgfail=0x0 vhv=0 vpolls=0
1788574820.049416 [PRT] calls=8019 xerr=0 ler=1 lidx=0x0 perr=0 maxcnt=17 addr8=0x52
1788574820.053512 [RTY] wr=0 wmax=0 wref=0  rd=0 rmax=0 rref=0
1788574820.061263 [RNG] frames=1976 last=58 min=48 max=72 nrdy=1 dxfer=0 dstat=0 lst=0 nrdyerr=0 dclr=0
1788574820.067503 [DRV] init=0 id=7 mode=0x1 lib=0x2 seq=0x1 odc=0x8b sts=0xe0 armed=1
1788574820.072781 [TRG] pulses=20 suppressed=226 cyc=1600 rst=1 rstmode=0x40
1788574820.076020 [HLT] polls=39 faults=0x0 cfglost=0
1788574820.081894 [EFF] n=5 last=58533 min=58448 max=58533 late=0 stuck=0 rderr=0
1788574820.092147 [IMU] init=0 addr=0x68 who=0x68 rst=1 pmrb0=0x40 pmrb=0x1 sr=19 cfg=4 gcfg=0x0 acfg=0x8 icfg=0x30 ien=0x1 armed=1
1788574820.097258 [ACC] reads=1979 stale=1976 rderr=0 ax=59 ay=-60 az=1122
1788574820.100008 [PWR] pm=0x1 drift=0 rderr=0
1788574820.104015 [DWT] ok=1 cyc=1012047411 cyc_per_ms=799941
1788574821.117957 [HB] up_ms=45409 frames=2025 inf=2025 hazard=246 canary_err=0 q=0 qovr=0
1788574821.129177 [I2C] init=0 gate=0 whoami=0x201e0 wr=0 wrseen=0x27 addr=0x5a ok=14842 err=0 tmo=0 recov=1 pclk1=200000000 sysclk=400000000
1788574821.130550 [NAK] nacks=0
1788574821.135054 [CLK] cpu=800000000 sysb=400000000 pclk1=200000000
1788574821.139561 [TOF] res=0 step=0 id=0xeacc blk=0xeacc10 ctl=0x0
1788574821.145577 [RNG] init=0 step=99 id=0xeacc boot=1 calls=93 xerr=0 dm=1 tb=15
1788574821.152558 [RNG] osc=41 imp=881 imprb=881 mstart=0x40 cfg=91 cfgfail=0x0 vhv=0 vpolls=0
1788574821.158563 [PRT] calls=8219 xerr=0 ler=1 lidx=0x0 perr=0 maxcnt=17 addr8=0x52
1788574821.162560 [RTY] wr=0 wmax=0 wref=0  rd=0 rmax=0 rref=0
1788574821.170433 [RNG] frames=2026 last=65 min=48 max=72 nrdy=1 dxfer=0 dstat=0 lst=0 nrdyerr=0 dclr=0
1788574821.176693 [DRV] init=0 id=7 mode=0x1 lib=0x2 seq=0x1 odc=0x8b sts=0xe0 armed=1
1788574821.181929 [TRG] pulses=20 suppressed=226 cyc=1600 rst=1 rstmode=0x40
1788574821.185182 [HLT] polls=40 faults=0x0 cfglost=0
1788574821.191066 [EFF] n=5 last=58533 min=58448 max=58533 late=0 stuck=0 rderr=0
1788574821.201301 [IMU] init=0 addr=0x68 who=0x68 rst=1 pmrb0=0x40 pmrb=0x1 sr=19 cfg=4 gcfg=0x0 acfg=0x8 icfg=0x30 ien=0x1 armed=1
1788574821.206497 [ACC] reads=2029 stale=2026 rderr=0 ax=60 ay=-62 az=1119
1788574821.209055 [PWR] pm=0x1 drift=0 rderr=0
1788574821.213059 [DWT] ok=1 cyc=1892778571 cyc_per_ms=799937
1788574822.226986 [HB] up_ms=46510 frames=2075 inf=2075 hazard=281 canary_err=0 q=0 qovr=0
1788574822.238099 [I2C] init=0 gate=0 whoami=0x201e0 wr=0 wrseen=0x27 addr=0x5a ok=15144 err=0 tmo=0 recov=1 pclk1=200000000 sysclk=400000000
1788574822.239466 [NAK] nacks=0
1788574822.244096 [CLK] cpu=800000000 sysb=400000000 pclk1=200000000
1788574822.248668 [TOF] res=0 step=0 id=0xeacc blk=0xeacc10 ctl=0x0
1788574822.254373 [RNG] init=0 step=99 id=0xeacc boot=1 calls=93 xerr=0 dm=1 tb=15
1788574822.261483 [RNG] osc=41 imp=881 imprb=881 mstart=0x40 cfg=91 cfgfail=0x0 vhv=0 vpolls=0
1788574822.267471 [PRT] calls=8419 xerr=0 ler=1 lidx=0x0 perr=0 maxcnt=17 addr8=0x52
1788574822.271461 [RTY] wr=0 wmax=0 wref=0  rd=0 rmax=0 rref=0
1788574822.279224 [RNG] frames=2076 last=55 min=48 max=72 nrdy=1 dxfer=0 dstat=0 lst=0 nrdyerr=0 dclr=0
1788574822.285461 [DRV] init=0 id=7 mode=0x1 lib=0x2 seq=0x1 odc=0x8b sts=0xe0 armed=1
1788574822.290855 [TRG] pulses=23 suppressed=261 cyc=1600 rst=1 rstmode=0x40
1788574822.294096 [HLT] polls=41 faults=0x0 cfglost=0
1788574822.299854 [EFF] n=5 last=58533 min=58448 max=58533 late=0 stuck=0 rderr=0
1788574822.310099 [IMU] init=0 addr=0x68 who=0x68 rst=1 pmrb0=0x40 pmrb=0x1 sr=19 cfg=4 gcfg=0x0 acfg=0x8 icfg=0x30 ien=0x1 armed=1
1788574822.315224 [ACC] reads=2079 stale=2076 rderr=0 ax=60 ay=-60 az=1120
1788574822.317857 [PWR] pm=0x1 drift=0 rderr=0
1788574822.321883 [DWT] ok=1 cyc=2773581383 cyc_per_ms=800002
1788574823.335521 [HB] up_ms=47611 frames=2125 inf=2125 hazard=287 canary_err=0 q=0 qovr=0
1788574823.346763 [I2C] init=0 gate=0 whoami=0x201e0 wr=0 wrseen=0x27 addr=0x5a ok=15446 err=0 tmo=0 recov=1 pclk1=200000000 sysclk=400000000
1788574823.348132 [NAK] nacks=0
1788574823.352649 [CLK] cpu=800000000 sysb=400000000 pclk1=200000000
1788574823.357141 [TOF] res=0 step=0 id=0xeacc blk=0xeacc10 ctl=0x0
1788574823.363028 [RNG] init=0 step=99 id=0xeacc boot=1 calls=93 xerr=0 dm=1 tb=15
1788574823.370011 [RNG] osc=41 imp=881 imprb=881 mstart=0x40 cfg=91 cfgfail=0x0 vhv=0 vpolls=0
1788574823.376019 [PRT] calls=8619 xerr=0 ler=1 lidx=0x0 perr=0 maxcnt=17 addr8=0x52
1788574823.380155 [RTY] wr=0 wmax=0 wref=0  rd=0 rmax=0 rref=0
1788574823.387768 [RNG] frames=2126 last=56 min=48 max=72 nrdy=1 dxfer=0 dstat=0 lst=0 nrdyerr=0 dclr=0
1788574823.394137 [DRV] init=0 id=7 mode=0x1 lib=0x2 seq=0x1 odc=0x8b sts=0xe0 armed=1
1788574823.399515 [TRG] pulses=23 suppressed=264 cyc=1600 rst=1 rstmode=0x40
1788574823.402762 [HLT] polls=42 faults=0x0 cfglost=0
1788574823.408512 [EFF] n=5 last=58533 min=58448 max=58533 late=0 stuck=0 rderr=0
1788574823.418775 [IMU] init=0 addr=0x68 who=0x68 rst=1 pmrb0=0x40 pmrb=0x1 sr=19 cfg=4 gcfg=0x0 acfg=0x8 icfg=0x30 ien=0x1 armed=1
1788574823.423892 [ACC] reads=2129 stale=2126 rderr=0 ax=59 ay=-59 az=1124
1788574823.426643 [PWR] pm=0x1 drift=0 rderr=0
1788574823.430537 [DWT] ok=1 cyc=3654377699 cyc_per_ms=799996
1788574824.444073 [HB] up_ms=48712 frames=2175 inf=2175 hazard=287 canary_err=0 q=0 qovr=0
1788574824.455206 [I2C] init=0 gate=0 whoami=0x201e0 wr=0 wrseen=0x27 addr=0x5a ok=15748 err=0 tmo=0 recov=1 pclk1=200000000 sysclk=400000000
1788574824.456592 [NAK] nacks=0
1788574824.461187 [CLK] cpu=800000000 sysb=400000000 pclk1=200000000
1788574824.465690 [TOF] res=0 step=0 id=0xeacc blk=0xeacc10 ctl=0x0
1788574824.471603 [RNG] init=0 step=99 id=0xeacc boot=1 calls=93 xerr=0 dm=1 tb=15
1788574824.478439 [RNG] osc=41 imp=881 imprb=881 mstart=0x40 cfg=91 cfgfail=0x0 vhv=0 vpolls=0
1788574824.484550 [PRT] calls=8815 xerr=0 ler=1 lidx=0x0 perr=0 maxcnt=17 addr8=0x52
1788574824.488701 [RTY] wr=0 wmax=0 wref=0  rd=0 rmax=0 rref=0
1788574824.496310 [RNG] frames=2176 last=58 min=48 max=72 nrdy=1 dxfer=0 dstat=0 lst=0 nrdyerr=0 dclr=0
1788574824.502681 [DRV] init=0 id=7 mode=0x1 lib=0x2 seq=0x1 odc=0x8b sts=0xe0 armed=1
1788574824.508056 [TRG] pulses=23 suppressed=264 cyc=1600 rst=1 rstmode=0x40
1788574824.511310 [HLT] polls=43 faults=0x0 cfglost=0
1788574824.517063 [EFF] n=5 last=58533 min=58448 max=58533 late=0 stuck=0 rderr=0
1788574824.527347 [IMU] init=0 addr=0x68 who=0x68 rst=1 pmrb0=0x40 pmrb=0x1 sr=19 cfg=4 gcfg=0x0 acfg=0x8 icfg=0x30 ien=0x1 armed=1
1788574824.532450 [ACC] reads=2179 stale=2176 rderr=0 ax=60 ay=-62 az=1122
1788574824.535197 [PWR] pm=0x1 drift=0 rderr=0
1788574824.539062 [DWT] ok=1 cyc=240210675 cyc_per_ms=800000
1788574825.553244 [HB] up_ms=49813 frames=2225 inf=2225 hazard=287 canary_err=0 q=0 qovr=0
1788574825.564255 [I2C] init=0 gate=0 whoami=0x201e0 wr=0 wrseen=0x27 addr=0x5a ok=16050 err=0 tmo=0 recov=1 pclk1=200000000 sysclk=400000000
1788574825.565635 [NAK] nacks=0
1788574825.570402 [CLK] cpu=800000000 sysb=400000000 pclk1=200000000
1788574825.574889 [TOF] res=0 step=0 id=0xeacc blk=0xeacc10 ctl=0x0
1788574825.580752 [RNG] init=0 step=99 id=0xeacc boot=1 calls=93 xerr=0 dm=1 tb=15
1788574825.587632 [RNG] osc=41 imp=881 imprb=881 mstart=0x40 cfg=91 cfgfail=0x0 vhv=0 vpolls=0
1788574825.593811 [PRT] calls=9015 xerr=0 ler=1 lidx=0x0 perr=0 maxcnt=17 addr8=0x52
1788574825.597942 [RTY] wr=0 wmax=0 wref=0  rd=0 rmax=0 rref=0
1788574825.605510 [RNG] frames=2226 last=58 min=48 max=72 nrdy=1 dxfer=0 dstat=0 lst=0 nrdyerr=0 dclr=0
1788574825.611756 [DRV] init=0 id=7 mode=0x1 lib=0x2 seq=0x1 odc=0x8b sts=0xe0 armed=1
1788574825.617132 [TRG] pulses=23 suppressed=264 cyc=1600 rst=1 rstmode=0x40
1788574825.620404 [HLT] polls=44 faults=0x0 cfglost=0
1788574825.626149 [EFF] n=5 last=58533 min=58448 max=58533 late=0 stuck=0 rderr=0
1788574825.636454 [IMU] init=0 addr=0x68 who=0x68 rst=1 pmrb0=0x40 pmrb=0x1 sr=19 cfg=4 gcfg=0x0 acfg=0x8 icfg=0x30 ien=0x1 armed=1
1788574825.641640 [ACC] reads=2228 stale=2225 rderr=0 ax=59 ay=-59 az=1122
1788574825.644258 [PWR] pm=0x1 drift=0 rderr=0
1788574825.648229 [DWT] ok=1 cyc=1121010407 cyc_per_ms=799999
1788574826.662746 [HB] up_ms=50914 frames=2274 inf=2274 hazard=287 canary_err=0 q=0 qovr=0
1788574826.673658 [I2C] init=0 gate=0 whoami=0x201e0 wr=0 wrseen=0x27 addr=0x5a ok=16352 err=0 tmo=0 recov=1 pclk1=200000000 sysclk=400000000
1788574826.674896 [NAK] nacks=0
1788574826.679555 [CLK] cpu=800000000 sysb=400000000 pclk1=200000000
1788574826.684145 [TOF] res=0 step=0 id=0xeacc blk=0xeacc10 ctl=0x0
1788574826.690015 [RNG] init=0 step=99 id=0xeacc boot=1 calls=93 xerr=0 dm=1 tb=15
1788574826.696893 [RNG] osc=41 imp=881 imprb=881 mstart=0x40 cfg=91 cfgfail=0x0 vhv=0 vpolls=0
1788574826.702916 [PRT] calls=9215 xerr=0 ler=1 lidx=0x0 perr=0 maxcnt=17 addr8=0x52
1788574826.707167 [RTY] wr=0 wmax=0 wref=0  rd=0 rmax=0 rref=0
1788574826.714901 [RNG] frames=2276 last=62 min=48 max=72 nrdy=1 dxfer=0 dstat=0 lst=0 nrdyerr=0 dclr=0
1788574826.721023 [DRV] init=0 id=7 mode=0x1 lib=0x2 seq=0x1 odc=0x8b sts=0xe0 armed=1
1788574826.726268 [TRG] pulses=23 suppressed=264 cyc=1600 rst=1 rstmode=0x40
1788574826.729818 [HLT] polls=45 faults=0x0 cfglost=0
1788574826.735510 [EFF] n=5 last=58533 min=58448 max=58533 late=0 stuck=0 rderr=0
1788574826.745653 [IMU] init=0 addr=0x68 who=0x68 rst=1 pmrb0=0x40 pmrb=0x1 sr=19 cfg=4 gcfg=0x0 acfg=0x8 icfg=0x30 ien=0x1 armed=1
1788574826.750901 [ACC] reads=2278 stale=2275 rderr=0 ax=60 ay=-61 az=1118
1788574826.753646 [PWR] pm=0x1 drift=0 rderr=0
1788574826.757646 [DWT] ok=1 cyc=2001945285 cyc_per_ms=800122
1788574827.771693 [HB] up_ms=52015 frames=2324 inf=2324 hazard=287 canary_err=0 q=0 qovr=0
1788574827.782694 [I2C] init=0 gate=0 whoami=0x201e0 wr=0 wrseen=0x27 addr=0x5a ok=16652 err=0 tmo=0 recov=1 pclk1=200000000 sysclk=400000000
1788574827.784072 [NAK] nacks=0
1788574827.788694 [CLK] cpu=800000000 sysb=400000000 pclk1=200000000
1788574827.793195 [TOF] res=0 step=0 id=0xeacc blk=0xeacc10 ctl=0x0
1788574827.799192 [RNG] init=0 step=99 id=0xeacc boot=1 calls=93 xerr=0 dm=1 tb=15
1788574827.806070 [RNG] osc=41 imp=881 imprb=881 mstart=0x40 cfg=91 cfgfail=0x0 vhv=0 vpolls=0
1788574827.812053 [PRT] calls=9415 xerr=0 ler=1 lidx=0x0 perr=0 maxcnt=17 addr8=0x52
1788574827.816053 [RTY] wr=0 wmax=0 wref=0  rd=0 rmax=0 rref=0
1788574827.823958 [RNG] frames=2325 last=60 min=48 max=72 nrdy=1 dxfer=0 dstat=0 lst=0 nrdyerr=0 dclr=0
1788574827.830186 [DRV] init=0 id=7 mode=0x1 lib=0x2 seq=0x1 odc=0x8b sts=0xe0 armed=1
1788574827.835434 [TRG] pulses=23 suppressed=264 cyc=1600 rst=1 rstmode=0x40
1788574827.838683 [HLT] polls=46 faults=0x0 cfglost=0
1788574827.844560 [EFF] n=5 last=58533 min=58448 max=58533 late=0 stuck=0 rderr=0
1788574827.854814 [IMU] init=0 addr=0x68 who=0x68 rst=1 pmrb0=0x40 pmrb=0x1 sr=19 cfg=4 gcfg=0x0 acfg=0x8 icfg=0x30 ien=0x1 armed=1
1788574827.859940 [ACC] reads=2328 stale=2325 rderr=0 ax=59 ay=-60 az=1122
1788574827.862560 [PWR] pm=0x1 drift=0 rderr=0
1788574827.866693 [DWT] ok=1 cyc=2882610403 cyc_per_ms=799877
1788574828.881114 [HB] up_ms=53116 frames=2374 inf=2374 hazard=301 canary_err=0 q=0 qovr=0
1788574828.892378 [I2C] init=0 gate=0 whoami=0x201e0 wr=0 wrseen=0x27 addr=0x5a ok=16950 err=0 tmo=0 recov=1 pclk1=200000000 sysclk=400000000
1788574828.893724 [NAK] nacks=0
1788574828.898378 [CLK] cpu=800000000 sysb=400000000 pclk1=200000000
1788574828.902856 [TOF] res=0 step=0 id=0xeacc blk=0xeacc10 ctl=0x0
1788574828.908730 [RNG] init=0 step=99 id=0xeacc boot=1 calls=93 xerr=0 dm=1 tb=15
1788574828.915726 [RNG] osc=41 imp=881 imprb=881 mstart=0x40 cfg=91 cfgfail=0x0 vhv=0 vpolls=0
1788574828.921752 [PRT] calls=9615 xerr=0 ler=1 lidx=0x0 perr=0 maxcnt=17 addr8=0x52
1788574828.925730 [RTY] wr=0 wmax=0 wref=0  rd=0 rmax=0 rref=0
1788574828.933604 [RNG] frames=2375 last=64 min=48 max=72 nrdy=1 dxfer=0 dstat=0 lst=0 nrdyerr=0 dclr=0
1788574828.939868 [DRV] init=0 id=7 mode=0x1 lib=0x2 seq=0x1 odc=0x8b sts=0xe0 armed=1
1788574828.945116 [TRG] pulses=25 suppressed=279 cyc=1600 rst=1 rstmode=0x40
1788574828.948381 [HLT] polls=47 faults=0x0 cfglost=0
1788574828.954237 [EFF] n=5 last=58533 min=58448 max=58533 late=0 stuck=0 rderr=0
1788574828.964485 [IMU] init=0 addr=0x68 who=0x68 rst=1 pmrb0=0x40 pmrb=0x1 sr=19 cfg=4 gcfg=0x0 acfg=0x8 icfg=0x30 ien=0x1 armed=1
1788574828.969608 [ACC] reads=2378 stale=2375 rderr=0 ax=63 ay=-61 az=1116
1788574828.972249 [PWR] pm=0x1 drift=0 rderr=0
1788574828.976234 [DWT] ok=1 cyc=3763416911 cyc_per_ms=800005
1788574829.991033 [HB] up_ms=54217 frames=2424 inf=2424 hazard=328 canary_err=0 q=0 qovr=0
1788574830.002274 [I2C] init=0 gate=0 whoami=0x201e0 wr=0 wrseen=0x27 addr=0x5a ok=17252 err=0 tmo=0 recov=1 pclk1=200000000 sysclk=400000000
1788574830.003517 [NAK] nacks=0
1788574830.008164 [CLK] cpu=800000000 sysb=400000000 pclk1=200000000
1788574830.012656 [TOF] res=0 step=0 id=0xeacc blk=0xeacc10 ctl=0x0
1788574830.018538 [RNG] init=0 step=99 id=0xeacc boot=1 calls=93 xerr=0 dm=1 tb=15
1788574830.025663 [RNG] osc=41 imp=881 imprb=881 mstart=0x40 cfg=91 cfgfail=0x0 vhv=0 vpolls=0
1788574830.031651 [PRT] calls=9815 xerr=0 ler=1 lidx=0x0 perr=0 maxcnt=17 addr8=0x52
1788574830.035648 [RTY] wr=0 wmax=0 wref=0  rd=0 rmax=0 rref=0
1788574830.043415 [RNG] frames=2425 last=61 min=48 max=72 nrdy=1 dxfer=0 dstat=0 lst=0 nrdyerr=0 dclr=0
1788574830.049766 [DRV] init=0 id=7 mode=0x1 lib=0x2 seq=0x1 odc=0x8b sts=0xe0 armed=1
1788574830.055036 [TRG] pulses=26 suppressed=302 cyc=1600 rst=1 rstmode=0x40
1788574830.058291 [HLT] polls=48 faults=0x0 cfglost=0
1788574830.064029 [EFF] n=5 last=58533 min=58448 max=58533 late=0 stuck=0 rderr=0
1788574830.074435 [IMU] init=0 addr=0x68 who=0x68 rst=1 pmrb0=0x40 pmrb=0x1 sr=19 cfg=4 gcfg=0x0 acfg=0x8 icfg=0x30 ien=0x1 armed=1
1788574830.079546 [ACC] reads=2428 stale=2425 rderr=0 ax=60 ay=-64 az=1119
1788574830.082160 [PWR] pm=0x1 drift=0 rderr=0
1788574830.086037 [DWT] ok=1 cyc=349243463 cyc_per_ms=799994
1788574831.101699 [HB] up_ms=55318 frames=2474 inf=2474 hazard=328 canary_err=0 q=0 qovr=0
1788574831.112937 [I2C] init=0 gate=0 whoami=0x201e0 wr=0 wrseen=0x27 addr=0x5a ok=17554 err=0 tmo=0 recov=1 pclk1=200000000 sysclk=400000000
1788574831.114183 [NAK] nacks=0
1788574831.118818 [CLK] cpu=800000000 sysb=400000000 pclk1=200000000
1788574831.123314 [TOF] res=0 step=0 id=0xeacc blk=0xeacc10 ctl=0x0
1788574831.129194 [RNG] init=0 step=99 id=0xeacc boot=1 calls=93 xerr=0 dm=1 tb=15
1788574831.136183 [RNG] osc=41 imp=881 imprb=881 mstart=0x40 cfg=91 cfgfail=0x0 vhv=0 vpolls=0
1788574831.142308 [PRT] calls=10015 xerr=0 ler=1 lidx=0x0 perr=0 maxcnt=17 addr8=0x52
1788574831.146450 [RTY] wr=0 wmax=0 wref=0  rd=0 rmax=0 rref=0
1788574831.154101 [RNG] frames=2475 last=64 min=48 max=72 nrdy=1 dxfer=0 dstat=0 lst=0 nrdyerr=0 dclr=0
1788574831.160467 [DRV] init=0 id=7 mode=0x1 lib=0x2 seq=0x1 odc=0x8b sts=0xe0 armed=1
1788574831.165816 [TRG] pulses=26 suppressed=302 cyc=1600 rst=1 rstmode=0x40
1788574831.169062 [HLT] polls=49 faults=0x0 cfglost=0
1788574831.174820 [EFF] n=5 last=58533 min=58448 max=58533 late=0 stuck=0 rderr=0
1788574831.185077 [IMU] init=0 addr=0x68 who=0x68 rst=1 pmrb0=0x40 pmrb=0x1 sr=19 cfg=4 gcfg=0x0 acfg=0x8 icfg=0x30 ien=0x1 armed=1
1788574831.190217 [ACC] reads=2478 stale=2475 rderr=0 ax=61 ay=-59 az=1120
1788574831.192980 [PWR] pm=0x1 drift=0 rderr=0
1788574831.196818 [DWT] ok=1 cyc=1230112983 cyc_per_ms=800063
1788574832.211618 [HB] up_ms=56419 frames=2524 inf=2524 hazard=328 canary_err=0 q=0 qovr=0
1788574832.222644 [I2C] init=0 gate=0 whoami=0x201e0 wr=0 wrseen=0x27 addr=0x5a ok=17856 err=0 tmo=0 recov=1 pclk1=200000000 sysclk=400000000
1788574832.223982 [NAK] nacks=0
1788574832.228729 [CLK] cpu=800000000 sysb=400000000 pclk1=200000000
1788574832.233236 [TOF] res=0 step=0 id=0xeacc blk=0xeacc10 ctl=0x0
1788574832.239124 [RNG] init=0 step=99 id=0xeacc boot=1 calls=93 xerr=0 dm=1 tb=15
1788574832.246013 [RNG] osc=41 imp=881 imprb=881 mstart=0x40 cfg=91 cfgfail=0x0 vhv=0 vpolls=0
1788574832.252227 [PRT] calls=10211 xerr=0 ler=1 lidx=0x0 perr=0 maxcnt=17 addr8=0x52
1788574832.256567 [RTY] wr=0 wmax=0 wref=0  rd=0 rmax=0 rref=0
1788574832.263988 [RNG] frames=2525 last=58 min=48 max=72 nrdy=1 dxfer=0 dstat=0 lst=0 nrdyerr=0 dclr=0
1788574832.270232 [DRV] init=0 id=7 mode=0x1 lib=0x2 seq=0x1 odc=0x8b sts=0xe0 armed=1
1788574832.275737 [TRG] pulses=26 suppressed=302 cyc=1600 rst=1 rstmode=0x40
1788574832.278985 [HLT] polls=50 faults=0x0 cfglost=0
1788574832.284741 [EFF] n=5 last=58533 min=58448 max=58533 late=0 stuck=0 rderr=0
1788574832.295033 [IMU] init=0 addr=0x68 who=0x68 rst=1 pmrb0=0x40 pmrb=0x1 sr=19 cfg=4 gcfg=0x0 acfg=0x8 icfg=0x30 ien=0x1 armed=1
1788574832.300241 [ACC] reads=2528 stale=2525 rderr=0 ax=61 ay=-60 az=1121
1788574832.302860 [PWR] pm=0x1 drift=0 rderr=0
1788574832.306892 [DWT] ok=1 cyc=2110913131 cyc_per_ms=800000
1788574833.321531 [HB] up_ms=57520 frames=2574 inf=2574 hazard=328 canary_err=0 q=0 qovr=0
1788574833.332521 [I2C] init=0 gate=0 whoami=0x201e0 wr=0 wrseen=0x27 addr=0x5a ok=18158 err=0 tmo=0 recov=1 pclk1=200000000 sysclk=400000000
1788574833.333901 [NAK] nacks=0
1788574833.338671 [CLK] cpu=800000000 sysb=400000000 pclk1=200000000
1788574833.343145 [TOF] res=0 step=0 id=0xeacc blk=0xeacc10 ctl=0x0
1788574833.348898 [RNG] init=0 step=99 id=0xeacc boot=1 calls=93 xerr=0 dm=1 tb=15
1788574833.355924 [RNG] osc=41 imp=881 imprb=881 mstart=0x40 cfg=91 cfgfail=0x0 vhv=0 vpolls=0
1788574833.362159 [PRT] calls=10411 xerr=0 ler=1 lidx=0x0 perr=0 maxcnt=17 addr8=0x52
1788574833.366162 [RTY] wr=0 wmax=0 wref=0  rd=0 rmax=0 rref=0
1788574833.373912 [RNG] frames=2575 last=57 min=48 max=72 nrdy=1 dxfer=0 dstat=0 lst=0 nrdyerr=0 dclr=0
1788574833.380035 [DRV] init=0 id=7 mode=0x1 lib=0x2 seq=0x1 odc=0x8b sts=0xe0 armed=1
1788574833.385525 [TRG] pulses=26 suppressed=302 cyc=1600 rst=1 rstmode=0x40
1788574833.388773 [HLT] polls=51 faults=0x0 cfglost=0
1788574833.394526 [EFF] n=5 last=58533 min=58448 max=58533 late=0 stuck=0 rderr=0
1788574833.404786 [IMU] init=0 addr=0x68 who=0x68 rst=1 pmrb0=0x40 pmrb=0x1 sr=19 cfg=4 gcfg=0x0 acfg=0x8 icfg=0x30 ien=0x1 armed=1
1788574833.410023 [ACC] reads=2577 stale=2574 rderr=0 ax=60 ay=-62 az=1117
1788574833.412660 [PWR] pm=0x1 drift=0 rderr=0
1788574833.416649 [DWT] ok=1 cyc=2991742179 cyc_per_ms=800026
1788574834.431584 [HB] up_ms=58621 frames=2623 inf=2623 hazard=328 canary_err=0 q=0 qovr=0
1788574834.442690 [I2C] init=0 gate=0 whoami=0x201e0 wr=0 wrseen=0x27 addr=0x5a ok=18460 err=0 tmo=0 recov=1 pclk1=200000000 sysclk=400000000
1788574834.443947 [NAK] nacks=0
1788574834.448560 [CLK] cpu=800000000 sysb=400000000 pclk1=200000000
1788574834.453389 [TOF] res=0 step=0 id=0xeacc blk=0xeacc10 ctl=0x0
1788574834.459071 [RNG] init=0 step=99 id=0xeacc boot=1 calls=93 xerr=0 dm=1 tb=15
1788574834.466130 [RNG] osc=41 imp=881 imprb=881 mstart=0x40 cfg=91 cfgfail=0x0 vhv=0 vpolls=0
1788574834.472071 [PRT] calls=10611 xerr=0 ler=1 lidx=0x0 perr=0 maxcnt=17 addr8=0x52
1788574834.476340 [RTY] wr=0 wmax=0 wref=0  rd=0 rmax=0 rref=0
1788574834.484069 [RNG] frames=2625 last=59 min=48 max=72 nrdy=1 dxfer=0 dstat=0 lst=0 nrdyerr=0 dclr=0
1788574834.490198 [DRV] init=0 id=7 mode=0x1 lib=0x2 seq=0x1 odc=0x8b sts=0xe0 armed=1
1788574834.495571 [TRG] pulses=26 suppressed=302 cyc=1600 rst=1 rstmode=0x40
1788574834.498944 [HLT] polls=52 faults=0x0 cfglost=0
1788574834.504694 [EFF] n=5 last=58533 min=58448 max=58533 late=0 stuck=0 rderr=0
1788574834.514943 [IMU] init=0 addr=0x68 who=0x68 rst=1 pmrb0=0x40 pmrb=0x1 sr=19 cfg=4 gcfg=0x0 acfg=0x8 icfg=0x30 ien=0x1 armed=1
1788574834.520078 [ACC] reads=2627 stale=2624 rderr=0 ax=59 ay=-61 az=1119
1788574834.522845 [PWR] pm=0x1 drift=0 rderr=0
1788574834.526822 [DWT] ok=1 cyc=3872648057 cyc_per_ms=800096
1788574835.542627 [HB] up_ms=59723 frames=2673 inf=2673 hazard=328 canary_err=0 q=0 qovr=0
1788574835.553736 [I2C] init=0 gate=0 whoami=0x201e0 wr=0 wrseen=0x27 addr=0x5a ok=18760 err=0 tmo=0 recov=1 pclk1=200000000 sysclk=400000000
1788574835.565596 [NAK] nacks=0
1788574835.565708 [CLK] cpu=800000000 sysb=400000000 pclk1=200000000
1788574835.565767 [TOF] res=0 step=0 id=0xeacc blk=0xeacc10 ctl=0x0
1788574835.570111 [RNG] init=0 step=99 id=0xeacc boot=1 calls=93 xerr=0 dm=1 tb=15
1788574835.576987 [RNG] osc=41 imp=881 imprb=881 mstart=0x40 cfg=91 cfgfail=0x0 vhv=0 vpolls=0
1788574835.583135 [PRT] calls=10811 xerr=0 ler=1 lidx=0x0 perr=0 maxcnt=17 addr8=0x52
1788574835.587236 [RTY] wr=0 wmax=0 wref=0  rd=0 rmax=0 rref=0
1788574835.594991 [RNG] frames=2674 last=62 min=48 max=72 nrdy=1 dxfer=0 dstat=0 lst=0 nrdyerr=0 dclr=0
1788574835.601239 [DRV] init=0 id=7 mode=0x1 lib=0x2 seq=0x1 odc=0x8b sts=0xe0 armed=1
1788574835.606485 [TRG] pulses=26 suppressed=302 cyc=1600 rst=1 rstmode=0x40
1788574835.609871 [HLT] polls=53 faults=0x0 cfglost=0
1788574835.615780 [EFF] n=5 last=58533 min=58448 max=58533 late=0 stuck=0 rderr=0
1788574835.625878 [IMU] init=0 addr=0x68 who=0x68 rst=1 pmrb0=0x40 pmrb=0x1 sr=19 cfg=4 gcfg=0x0 acfg=0x8 icfg=0x30 ien=0x1 armed=1
1788574835.631031 [ACC] reads=2677 stale=2674 rderr=0 ax=59 ay=-61 az=1124
1788574835.633656 [PWR] pm=0x1 drift=0 rderr=0
1788574835.637736 [DWT] ok=1 cyc=459145787 cyc_per_ms=799877
1788574836.652790 [HB] up_ms=60824 frames=2723 inf=2723 hazard=369 canary_err=0 q=0 qovr=0
1788574836.664049 [I2C] init=0 gate=0 whoami=0x201e0 wr=0 wrseen=0x27 addr=0x5a ok=19058 err=0 tmo=0 recov=1 pclk1=200000000 sysclk=400000000
1788574836.665312 [NAK] nacks=0
1788574836.669911 [CLK] cpu=800000000 sysb=400000000 pclk1=200000000
1788574836.674455 [TOF] res=0 step=0 id=0xeacc blk=0xeacc10 ctl=0x0
1788574836.680417 [RNG] init=0 step=99 id=0xeacc boot=1 calls=93 xerr=0 dm=1 tb=15
1788574836.687424 [RNG] osc=41 imp=881 imprb=881 mstart=0x40 cfg=91 cfgfail=0x0 vhv=0 vpolls=0
1788574836.693418 [PRT] calls=11011 xerr=0 ler=1 lidx=0x0 perr=0 maxcnt=17 addr8=0x52
1788574836.697573 [RTY] wr=0 wmax=0 wref=0  rd=0 rmax=0 rref=0
1788574836.705418 [RNG] frames=2724 last=58 min=48 max=72 nrdy=1 dxfer=0 dstat=0 lst=0 nrdyerr=0 dclr=0
1788574836.711533 [DRV] init=0 id=7 mode=0x1 lib=0x2 seq=0x1 odc=0x8b sts=0xe0 armed=1
1788574836.716905 [TRG] pulses=29 suppressed=340 cyc=1600 rst=1 rstmode=0x40
1788574836.720166 [HLT] polls=54 faults=0x0 cfglost=0
1788574836.726040 [EFF] n=5 last=58533 min=58448 max=58533 late=0 stuck=0 rderr=0
1788574836.736286 [IMU] init=0 addr=0x68 who=0x68 rst=1 pmrb0=0x40 pmrb=0x1 sr=19 cfg=4 gcfg=0x0 acfg=0x8 icfg=0x30 ien=0x1 armed=1
1788574836.741474 [ACC] reads=2727 stale=2724 rderr=0 ax=61 ay=-61 az=1123
1788574836.744030 [PWR] pm=0x1 drift=0 rderr=0
1788574836.748060 [DWT] ok=1 cyc=1339945971 cyc_per_ms=800000
1788574837.762843 [HB] up_ms=61925 frames=2773 inf=2773 hazard=369 canary_err=0 q=0 qovr=0
1788574837.773943 [I2C] init=0 gate=0 whoami=0x201e0 wr=0 wrseen=0x27 addr=0x5a ok=19360 err=0 tmo=0 recov=1 pclk1=200000000 sysclk=400000000
1788574837.775317 [NAK] nacks=0
1788574837.779954 [CLK] cpu=800000000 sysb=400000000 pclk1=200000000
1788574837.784444 [TOF] res=0 step=0 id=0xeacc blk=0xeacc10 ctl=0x0
1788574837.790204 [RNG] init=0 step=99 id=0xeacc boot=1 calls=93 xerr=0 dm=1 tb=15
1788574837.797354 [RNG] osc=41 imp=881 imprb=881 mstart=0x40 cfg=91 cfgfail=0x0 vhv=0 vpolls=0
1788574837.803473 [PRT] calls=11211 xerr=0 ler=1 lidx=0x0 perr=0 maxcnt=17 addr8=0x52
1788574837.807448 [RTY] wr=0 wmax=0 wref=0  rd=0 rmax=0 rref=0
1788574837.815189 [RNG] frames=2774 last=61 min=48 max=72 nrdy=1 dxfer=0 dstat=0 lst=0 nrdyerr=0 dclr=0
1788574837.821569 [DRV] init=0 id=7 mode=0x1 lib=0x2 seq=0x1 odc=0x8b sts=0xe0 armed=1
1788574837.826831 [TRG] pulses=29 suppressed=340 cyc=1600 rst=1 rstmode=0x40
1788574837.830072 [HLT] polls=55 faults=0x0 cfglost=0
1788574837.835819 [EFF] n=5 last=58533 min=58448 max=58533 late=0 stuck=0 rderr=0
1788574837.846203 [IMU] init=0 addr=0x68 who=0x68 rst=1 pmrb0=0x40 pmrb=0x1 sr=19 cfg=4 gcfg=0x0 acfg=0x8 icfg=0x30 ien=0x1 armed=1
1788574837.851344 [ACC] reads=2777 stale=2774 rderr=0 ax=60 ay=-62 az=1120
1788574837.853954 [PWR] pm=0x1 drift=0 rderr=0
1788574837.857950 [DWT] ok=1 cyc=2220746139 cyc_per_ms=800000
1788574838.872537 [HB] up_ms=63026 frames=2823 inf=2823 hazard=369 canary_err=0 q=0 qovr=0
1788574838.883615 [I2C] init=0 gate=0 whoami=0x201e0 wr=0 wrseen=0x27 addr=0x5a ok=19662 err=0 tmo=0 recov=1 pclk1=200000000 sysclk=400000000
1788574838.884981 [NAK] nacks=0
1788574838.889617 [CLK] cpu=800000000 sysb=400000000 pclk1=200000000
1788574838.894130 [TOF] res=0 step=0 id=0xeacc blk=0xeacc10 ctl=0x0
1788574838.899861 [RNG] init=0 step=99 id=0xeacc boot=1 calls=93 xerr=0 dm=1 tb=15
1788574838.907010 [RNG] osc=41 imp=881 imprb=881 mstart=0x40 cfg=91 cfgfail=0x0 vhv=0 vpolls=0
1788574838.913114 [PRT] calls=11411 xerr=0 ler=1 lidx=0x0 perr=0 maxcnt=17 addr8=0x52
1788574838.917109 [RTY] wr=0 wmax=0 wref=0  rd=0 rmax=0 rref=0
1788574838.924869 [RNG] frames=2824 last=59 min=48 max=72 nrdy=1 dxfer=0 dstat=0 lst=0 nrdyerr=0 dclr=0
1788574838.931239 [DRV] init=0 id=7 mode=0x1 lib=0x2 seq=0x1 odc=0x8b sts=0xe0 armed=1
1788574838.936489 [TRG] pulses=29 suppressed=340 cyc=1600 rst=1 rstmode=0x40
1788574838.939834 [HLT] polls=56 faults=0x0 cfglost=0
1788574838.945487 [EFF] n=5 last=58533 min=58448 max=58533 late=0 stuck=0 rderr=0
1788574838.955870 [IMU] init=0 addr=0x68 who=0x68 rst=1 pmrb0=0x40 pmrb=0x1 sr=19 cfg=4 gcfg=0x0 acfg=0x8 icfg=0x30 ien=0x1 armed=1
1788574838.960991 [ACC] reads=2827 stale=2823 rderr=0 ax=59 ay=-61 az=1116
1788574838.963611 [PWR] pm=0x1 drift=0 rderr=0
1788574838.967611 [DWT] ok=1 cyc=3101545639 cyc_per_ms=799999
1788574839.981918 [HB] up_ms=64127 frames=2873 inf=2873 hazard=369 canary_err=0 q=0 qovr=0
1788574839.992901 [I2C] init=0 gate=0 whoami=0x201e0 wr=0 wrseen=0x27 addr=0x5a ok=19964 err=0 tmo=0 recov=1 pclk1=200000000 sysclk=400000000
1788574839.994275 [NAK] nacks=0
1788574839.999038 [CLK] cpu=800000000 sysb=400000000 pclk1=200000000
1788574840.003536 [TOF] res=0 step=0 id=0xeacc blk=0xeacc10 ctl=0x0
1788574840.009432 [RNG] init=0 step=99 id=0xeacc boot=1 calls=93 xerr=0 dm=1 tb=15
1788574840.016278 [RNG] osc=41 imp=881 imprb=881 mstart=0x40 cfg=91 cfgfail=0x0 vhv=0 vpolls=0
1788574840.022534 [PRT] calls=11607 xerr=0 ler=1 lidx=0x0 perr=0 maxcnt=17 addr8=0x52
1788574840.026548 [RTY] wr=0 wmax=0 wref=0  rd=0 rmax=0 rref=0
1788574840.034292 [RNG] frames=2874 last=65 min=48 max=72 nrdy=1 dxfer=0 dstat=0 lst=0 nrdyerr=0 dclr=0
1788574840.040540 [DRV] init=0 id=7 mode=0x1 lib=0x2 seq=0x1 odc=0x8b sts=0xe0 armed=1
1788574840.045911 [TRG] pulses=29 suppressed=340 cyc=1600 rst=1 rstmode=0x40
1788574840.049148 [HLT] polls=57 faults=0x0 cfglost=0
1788574840.054909 [EFF] n=5 last=58533 min=58448 max=58533 late=0 stuck=0 rderr=0
1788574840.065279 [IMU] init=0 addr=0x68 who=0x68 rst=1 pmrb0=0x40 pmrb=0x1 sr=19 cfg=4 gcfg=0x0 acfg=0x8 icfg=0x30 ien=0x1 armed=1
1788574840.070422 [ACC] reads=2877 stale=2873 rderr=0 ax=58 ay=-61 az=1119
1788574840.073055 [PWR] pm=0x1 drift=0 rderr=0
1788574840.077038 [DWT] ok=1 cyc=3982345923 cyc_per_ms=800000
1788574841.090963 [HB] up_ms=65228 frames=2923 inf=2923 hazard=369 canary_err=0 q=0 qovr=0
1788574841.101954 [I2C] init=0 gate=0 whoami=0x201e0 wr=0 wrseen=0x27 addr=0x5a ok=20266 err=0 tmo=0 recov=1 pclk1=200000000 sysclk=400000000
1788574841.114223 [NAK] nacks=0
1788574841.114357 [CLK] cpu=800000000 sysb=400000000 pclk1=200000000
1788574841.114438 [TOF] res=0 step=0 id=0xeacc blk=0xeacc10 ctl=0x0
1788574841.118456 [RNG] init=0 step=99 id=0xeacc boot=1 calls=93 xerr=0 dm=1 tb=15
1788574841.125692 [RNG] osc=41 imp=881 imprb=881 mstart=0x40 cfg=91 cfgfail=0x0 vhv=0 vpolls=0
1788574841.131569 [PRT] calls=11807 xerr=0 ler=1 lidx=0x0 perr=0 maxcnt=17 addr8=0x52
1788574841.135579 [RTY] wr=0 wmax=0 wref=0  rd=0 rmax=0 rref=0
1788574841.143348 [RNG] frames=2924 last=57 min=48 max=72 nrdy=1 dxfer=0 dstat=0 lst=0 nrdyerr=0 dclr=0
1788574841.149442 [DRV] init=0 id=7 mode=0x1 lib=0x2 seq=0x1 odc=0x8b sts=0xe0 armed=1
1788574841.154952 [TRG] pulses=29 suppressed=340 cyc=1600 rst=1 rstmode=0x40
1788574841.158200 [HLT] polls=58 faults=0x0 cfglost=0
1788574841.163955 [EFF] n=5 last=58533 min=58448 max=58533 late=0 stuck=0 rderr=0
1788574841.174086 [IMU] init=0 addr=0x68 who=0x68 rst=1 pmrb0=0x40 pmrb=0x1 sr=19 cfg=4 gcfg=0x0 acfg=0x8 icfg=0x30 ien=0x1 armed=1
1788574841.179449 [ACC] reads=2926 stale=2922 rderr=0 ax=60 ay=-61 az=1120
1788574841.182073 [PWR] pm=0x1 drift=0 rderr=0
1788574841.185948 [DWT] ok=1 cyc=568207545 cyc_per_ms=800026
1788574842.199619 [HB] up_ms=66329 frames=2972 inf=2972 hazard=369 canary_err=0 q=0 qovr=0
1788574842.210737 [I2C] init=0 gate=0 whoami=0x201e0 wr=0 wrseen=0x27 addr=0x5a ok=20568 err=0 tmo=0 recov=1 pclk1=200000000 sysclk=400000000
1788574842.211989 [NAK] nacks=0
1788574842.216616 [CLK] cpu=800000000 sysb=400000000 pclk1=200000000
1788574842.221241 [TOF] res=0 step=0 id=0xeacc blk=0xeacc10 ctl=0x0
1788574842.227120 [RNG] init=0 step=99 id=0xeacc boot=1 calls=93 xerr=0 dm=1 tb=15
1788574842.234016 [RNG] osc=41 imp=881 imprb=881 mstart=0x40 cfg=91 cfgfail=0x0 vhv=0 vpolls=0
1788574842.240161 [PRT] calls=12007 xerr=0 ler=1 lidx=0x0 perr=0 maxcnt=17 addr8=0x52
1788574842.244412 [RTY] wr=0 wmax=0 wref=0  rd=0 rmax=0 rref=0
1788574842.251992 [RNG] frames=2974 last=62 min=48 max=72 nrdy=1 dxfer=0 dstat=0 lst=0 nrdyerr=0 dclr=0
1788574842.258233 [DRV] init=0 id=7 mode=0x1 lib=0x2 seq=0x1 odc=0x8b sts=0xe0 armed=1
1788574842.263486 [TRG] pulses=29 suppressed=340 cyc=1600 rst=1 rstmode=0x40
1788574842.266994 [HLT] polls=59 faults=0x0 cfglost=0
1788574842.272733 [EFF] n=5 last=58533 min=58448 max=58533 late=0 stuck=0 rderr=0
1788574842.282874 [IMU] init=0 addr=0x68 who=0x68 rst=1 pmrb0=0x40 pmrb=0x1 sr=19 cfg=4 gcfg=0x0 acfg=0x8 icfg=0x30 ien=0x1 armed=1
1788574842.288078 [ACC] reads=2976 stale=2972 rderr=0 ax=62 ay=-62 az=1120
1788574842.290874 [PWR] pm=0x1 drift=0 rderr=0
1788574842.294740 [DWT] ok=1 cyc=1449113485 cyc_per_ms=800096
1788574843.310306 [HB] up_ms=67431 frames=3022 inf=3022 hazard=391 canary_err=0 q=0 qovr=0
1788574843.321289 [I2C] init=0 gate=0 whoami=0x201e0 wr=0 wrseen=0x27 addr=0x5a ok=20868 err=0 tmo=0 recov=1 pclk1=200000000 sysclk=400000000
1788574843.322667 [NAK] nacks=0
1788574843.327291 [CLK] cpu=800000000 sysb=400000000 pclk1=200000000
1788574843.331785 [TOF] res=0 step=0 id=0xeacc blk=0xeacc10 ctl=0x0
1788574843.337777 [RNG] init=0 step=99 id=0xeacc boot=1 calls=93 xerr=0 dm=1 tb=15
1788574843.344668 [RNG] osc=41 imp=881 imprb=881 mstart=0x40 cfg=91 cfgfail=0x0 vhv=0 vpolls=0
1788574843.350814 [PRT] calls=12207 xerr=0 ler=1 lidx=0x0 perr=0 maxcnt=17 addr8=0x52
1788574843.354792 [RTY] wr=0 wmax=0 wref=0  rd=0 rmax=0 rref=0
1788574843.362664 [RNG] frames=3023 last=58 min=48 max=72 nrdy=1 dxfer=0 dstat=0 lst=0 nrdyerr=0 dclr=0
1788574843.368781 [DRV] init=0 id=7 mode=0x1 lib=0x2 seq=0x1 odc=0x8b sts=0xe0 armed=1
1788574843.374168 [TRG] pulses=31 suppressed=363 cyc=1600 rst=1 rstmode=0x40
1788574843.377429 [HLT] polls=60 faults=0x0 cfglost=0
1788574843.383277 [EFF] n=5 last=58533 min=58448 max=58533 late=0 stuck=0 rderr=0
1788574843.393535 [IMU] init=0 addr=0x68 who=0x68 rst=1 pmrb0=0x40 pmrb=0x1 sr=19 cfg=4 gcfg=0x0 acfg=0x8 icfg=0x30 ien=0x1 armed=1
1788574843.398663 [ACC] reads=3026 stale=3022 rderr=0 ax=60 ay=-60 az=1123
1788574843.401286 [PWR] pm=0x1 drift=0 rderr=0
1788574843.405427 [DWT] ok=1 cyc=2330582027 cyc_per_ms=799880
1788574844.420834 [HB] up_ms=68533 frames=3072 inf=3072 hazard=410 canary_err=0 q=0 qovr=0
1788574844.431951 [I2C] init=0 gate=0 whoami=0x201e0 wr=0 wrseen=0x27 addr=0x5a ok=21166 err=0 tmo=0 recov=1 pclk1=200000000 sysclk=400000000
1788574844.433344 [NAK] nacks=0
1788574844.437949 [CLK] cpu=800000000 sysb=400000000 pclk1=200000000
1788574844.442535 [TOF] res=0 step=0 id=0xeacc blk=0xeacc10 ctl=0x0
1788574844.448472 [RNG] init=0 step=99 id=0xeacc boot=1 calls=93 xerr=0 dm=1 tb=15
1788574844.455404 [RNG] osc=41 imp=881 imprb=881 mstart=0x40 cfg=91 cfgfail=0x0 vhv=0 vpolls=0
1788574844.461457 [PRT] calls=12407 xerr=0 ler=1 lidx=0x0 perr=0 maxcnt=17 addr8=0x52
1788574844.465452 [RTY] wr=0 wmax=0 wref=0  rd=0 rmax=0 rref=0
1788574844.473393 [RNG] frames=3073 last=60 min=48 max=72 nrdy=1 dxfer=0 dstat=0 lst=0 nrdyerr=0 dclr=0
1788574844.479571 [DRV] init=0 id=7 mode=0x1 lib=0x2 seq=0x1 odc=0x8b sts=0xe0 armed=1
1788574844.484847 [TRG] pulses=32 suppressed=378 cyc=1600 rst=1 rstmode=0x40
1788574844.488082 [HLT] polls=61 faults=0x0 cfglost=0
1788574844.493955 [EFF] n=5 last=58533 min=58448 max=58533 late=0 stuck=0 rderr=0
1788574844.504208 [IMU] init=0 addr=0x68 who=0x68 rst=1 pmrb0=0x40 pmrb=0x1 sr=19 cfg=4 gcfg=0x0 acfg=0x8 icfg=0x30 ien=0x1 armed=1
1788574844.509350 [ACC] reads=3076 stale=3072 rderr=0 ax=59 ay=-61 az=1120
1788574844.511957 [PWR] pm=0x1 drift=0 rderr=0
1788574844.516094 [DWT] ok=1 cyc=3212178671 cyc_per_ms=799996
1788574845.530251 [HB] up_ms=69634 frames=3122 inf=3122 hazard=410 canary_err=0 q=0 qovr=0
1788574845.541492 [I2C] init=0 gate=0 whoami=0x201e0 wr=0 wrseen=0x27 addr=0x5a ok=21468 err=0 tmo=0 recov=1 pclk1=200000000 sysclk=400000000
1788574845.542763 [NAK] nacks=0
1788574845.547391 [CLK] cpu=800000000 sysb=400000000 pclk1=200000000
1788574845.551870 [TOF] res=0 step=0 id=0xeacc blk=0xeacc10 ctl=0x0
1788574845.557757 [RNG] init=0 step=99 id=0xeacc boot=1 calls=93 xerr=0 dm=1 tb=15
1788574845.564745 [RNG] osc=41 imp=881 imprb=881 mstart=0x40 cfg=91 cfgfail=0x0 vhv=0 vpolls=0
1788574845.570871 [PRT] calls=12607 xerr=0 ler=1 lidx=0x0 perr=0 maxcnt=17 addr8=0x52
1788574845.574873 [RTY] wr=0 wmax=0 wref=0  rd=0 rmax=0 rref=0
1788574845.582770 [RNG] frames=3123 last=65 min=48 max=72 nrdy=1 dxfer=0 dstat=0 lst=0 nrdyerr=0 dclr=0
1788574845.588994 [DRV] init=0 id=7 mode=0x1 lib=0x2 seq=0x1 odc=0x8b sts=0xe0 armed=1
1788574845.594249 [TRG] pulses=32 suppressed=378 cyc=1600 rst=1 rstmode=0x40
1788574845.597487 [HLT] polls=62 faults=0x0 cfglost=0
1788574845.603246 [EFF] n=5 last=58533 min=58448 max=58533 late=0 stuck=0 rderr=0
1788574845.613647 [IMU] init=0 addr=0x68 who=0x68 rst=1 pmrb0=0x40 pmrb=0x1 sr=19 cfg=4 gcfg=0x0 acfg=0x8 icfg=0x30 ien=0x1 armed=1
1788574845.618744 [ACC] reads=3126 stale=3122 rderr=0 ax=59 ay=-62 az=1120
1788574845.621387 [PWR] pm=0x1 drift=0 rderr=0
1788574845.625440 [DWT] ok=1 cyc=4092978755 cyc_per_ms=800000
1788574846.639445 [HB] up_ms=70735 frames=3172 inf=3172 hazard=410 canary_err=0 q=0 qovr=0
1788574846.650665 [I2C] init=0 gate=0 whoami=0x201e0 wr=0 wrseen=0x27 addr=0x5a ok=21770 err=0 tmo=0 recov=1 pclk1=200000000 sysclk=400000000
1788574846.651907 [NAK] nacks=0
1788574846.656532 [CLK] cpu=800000000 sysb=400000000 pclk1=200000000
1788574846.661050 [TOF] res=0 step=0 id=0xeacc blk=0xeacc10 ctl=0x0
1788574846.667003 [RNG] init=0 step=99 id=0xeacc boot=1 calls=93 xerr=0 dm=1 tb=15
1788574846.674629 [RNG] osc=41 imp=881 imprb=881 mstart=0x40 cfg=91 cfgfail=0x0 vhv=0 vpolls=0
1788574846.680043 [PRT] calls=12807 xerr=0 ler=1 lidx=0x0 perr=0 maxcnt=17 addr8=0x52
1788574846.684035 [RTY] wr=0 wmax=0 wref=0  rd=0 rmax=0 rref=0
1788574846.691782 [RNG] frames=3173 last=64 min=48 max=72 nrdy=1 dxfer=0 dstat=0 lst=0 nrdyerr=0 dclr=0
1788574846.698169 [DRV] init=0 id=7 mode=0x1 lib=0x2 seq=0x1 odc=0x8b sts=0xe0 armed=1
1788574846.703444 [TRG] pulses=32 suppressed=378 cyc=1600 rst=1 rstmode=0x40
1788574846.706692 [HLT] polls=63 faults=0x0 cfglost=0
1788574846.712433 [EFF] n=5 last=58533 min=58448 max=58533 late=0 stuck=0 rderr=0
1788574846.722784 [IMU] init=0 addr=0x68 who=0x68 rst=1 pmrb0=0x40 pmrb=0x1 sr=19 cfg=4 gcfg=0x0 acfg=0x8 icfg=0x30 ien=0x1 armed=1
1788574846.727913 [ACC] reads=3176 stale=3172 rderr=0 ax=61 ay=-61 az=1122
1788574846.730537 [PWR] pm=0x1 drift=0 rderr=0
1788574846.734430 [DWT] ok=1 cyc=678811199 cyc_per_ms=799999
1788574847.748842 [HB] up_ms=71836 frames=3222 inf=3222 hazard=410 canary_err=0 q=0 qovr=0
1788574847.759950 [I2C] init=0 gate=0 whoami=0x201e0 wr=0 wrseen=0x27 addr=0x5a ok=22072 err=0 tmo=0 recov=1 pclk1=200000000 sysclk=400000000
1788574847.761318 [NAK] nacks=0
1788574847.766076 [CLK] cpu=800000000 sysb=400000000 pclk1=200000000
1788574847.770573 [TOF] res=0 step=0 id=0xeacc blk=0xeacc10 ctl=0x0
1788574847.776355 [RNG] init=0 step=99 id=0xeacc boot=1 calls=93 xerr=0 dm=1 tb=15
1788574847.783340 [RNG] osc=41 imp=881 imprb=881 mstart=0x40 cfg=91 cfgfail=0x0 vhv=0 vpolls=0
1788574847.789452 [PRT] calls=13003 xerr=0 ler=1 lidx=0x0 perr=0 maxcnt=17 addr8=0x52
1788574847.793582 [RTY] wr=0 wmax=0 wref=0  rd=0 rmax=0 rref=0
1788574847.801202 [RNG] frames=3223 last=62 min=48 max=72 nrdy=1 dxfer=0 dstat=0 lst=0 nrdyerr=0 dclr=0
1788574847.807592 [DRV] init=0 id=7 mode=0x1 lib=0x2 seq=0x1 odc=0x8b sts=0xe0 armed=1
1788574847.812974 [TRG] pulses=32 suppressed=378 cyc=1600 rst=1 rstmode=0x40
1788574847.816236 [HLT] polls=64 faults=0x0 cfglost=0
1788574847.821955 [EFF] n=5 last=58533 min=58448 max=58533 late=0 stuck=0 rderr=0
1788574847.832203 [IMU] init=0 addr=0x68 who=0x68 rst=1 pmrb0=0x40 pmrb=0x1 sr=19 cfg=4 gcfg=0x0 acfg=0x8 icfg=0x30 ien=0x1 armed=1
1788574847.837347 [ACC] reads=3226 stale=3222 rderr=0 ax=61 ay=-61 az=1119
1788574847.839957 [PWR] pm=0x1 drift=0 rderr=0
1788574847.843961 [DWT] ok=1 cyc=1559611327 cyc_per_ms=800000
1788574848.857598 [HB] up_ms=72937 frames=3272 inf=3272 hazard=410 canary_err=0 q=0 qovr=0
1788574848.868620 [I2C] init=0 gate=0 whoami=0x201e0 wr=0 wrseen=0x27 addr=0x5a ok=22374 err=0 tmo=0 recov=1 pclk1=200000000 sysclk=400000000
1788574848.869872 [NAK] nacks=0
1788574848.874679 [CLK] cpu=800000000 sysb=400000000 pclk1=200000000
1788574848.879116 [TOF] res=0 step=0 id=0xeacc blk=0xeacc10 ctl=0x0
1788574848.884991 [RNG] init=0 step=99 id=0xeacc boot=1 calls=93 xerr=0 dm=1 tb=15
1788574848.891885 [RNG] osc=41 imp=881 imprb=881 mstart=0x40 cfg=91 cfgfail=0x0 vhv=0 vpolls=0
1788574848.898121 [PRT] calls=13203 xerr=0 ler=1 lidx=0x0 perr=0 maxcnt=17 addr8=0x52
1788574848.902243 [RTY] wr=0 wmax=0 wref=0  rd=0 rmax=0 rref=0
1788574848.909881 [RNG] frames=3273 last=57 min=48 max=72 nrdy=1 dxfer=0 dstat=0 lst=0 nrdyerr=0 dclr=0
1788574848.916117 [DRV] init=0 id=7 mode=0x1 lib=0x2 seq=0x1 odc=0x8b sts=0xe0 armed=1
1788574848.921496 [TRG] pulses=32 suppressed=378 cyc=1600 rst=1 rstmode=0x40
1788574848.924753 [HLT] polls=65 faults=0x0 cfglost=0
1788574848.930487 [EFF] n=5 last=58533 min=58448 max=58533 late=0 stuck=0 rderr=0
1788574848.940759 [IMU] init=0 addr=0x68 who=0x68 rst=1 pmrb0=0x40 pmrb=0x1 sr=19 cfg=4 gcfg=0x0 acfg=0x8 icfg=0x30 ien=0x1 armed=1
1788574848.945993 [ACC] reads=3275 stale=3271 rderr=0 ax=58 ay=-64 az=1121
1788574848.948613 [PWR] pm=0x1 drift=0 rderr=0
1788574848.952613 [DWT] ok=1 cyc=2440411339 cyc_per_ms=800000
1788574849.966433 [HB] up_ms=74038 frames=3321 inf=3321 hazard=411 canary_err=0 q=0 qovr=0
1788574849.977530 [I2C] init=0 gate=0 whoami=0x201e0 wr=0 wrseen=0x27 addr=0x5a ok=22676 err=0 tmo=0 recov=1 pclk1=200000000 sysclk=400000000
1788574849.978779 [NAK] nacks=0
1788574849.983450 [CLK] cpu=800000000 sysb=400000000 pclk1=200000000
1788574849.988040 [TOF] res=0 step=0 id=0xeacc blk=0xeacc10 ctl=0x0
1788574849.993912 [RNG] init=0 step=99 id=0xeacc boot=1 calls=93 xerr=0 dm=1 tb=15
1788574850.000785 [RNG] osc=41 imp=881 imprb=881 mstart=0x40 cfg=91 cfgfail=0x0 vhv=0 vpolls=0
1788574850.006911 [PRT] calls=13403 xerr=0 ler=1 lidx=0x0 perr=0 maxcnt=17 addr8=0x52
1788574850.011188 [RTY] wr=0 wmax=0 wref=0  rd=0 rmax=0 rref=0
1788574850.018912 [RNG] frames=3323 last=63 min=48 max=72 nrdy=1 dxfer=0 dstat=0 lst=0 nrdyerr=0 dclr=0
1788574850.025045 [DRV] init=0 id=7 mode=0x1 lib=0x2 seq=0x1 odc=0x8b sts=0xe0 armed=1
1788574850.030287 [TRG] pulses=33 suppressed=381 cyc=1600 rst=1 rstmode=0x40
1788574850.033798 [HLT] polls=66 faults=0x0 cfglost=0
1788574850.039537 [EFF] n=5 last=58533 min=58448 max=58533 late=0 stuck=0 rderr=0
1788574850.049663 [IMU] init=0 addr=0x68 who=0x68 rst=1 pmrb0=0x40 pmrb=0x1 sr=19 cfg=4 gcfg=0x0 acfg=0x8 icfg=0x30 ien=0x1 armed=1
1788574850.054913 [ACC] reads=3325 stale=3321 rderr=0 ax=57 ay=-61 az=1120
1788574850.057726 [PWR] pm=0x1 drift=0 rderr=0
1788574850.061676 [DWT] ok=1 cyc=3321350349 cyc_per_ms=800126
1788574851.076610 [HB] up_ms=75140 frames=3371 inf=3371 hazard=451 canary_err=0 q=0 qovr=0
1788574851.087584 [I2C] init=0 gate=0 whoami=0x201e0 wr=0 wrseen=0x27 addr=0x5a ok=22978 err=0 tmo=0 recov=1 pclk1=200000000 sysclk=400000000
1788574851.088955 [NAK] nacks=0
1788574851.093457 [CLK] cpu=800000000 sysb=400000000 pclk1=200000000
1788574851.098078 [TOF] res=0 step=0 id=0xeacc blk=0xeacc10 ctl=0x0
1788574851.104079 [RNG] init=0 step=99 id=0xeacc boot=1 calls=93 xerr=0 dm=1 tb=15
1788574851.110956 [RNG] osc=41 imp=881 imprb=881 mstart=0x40 cfg=91 cfgfail=0x0 vhv=0 vpolls=0
1788574851.116961 [PRT] calls=13603 xerr=0 ler=1 lidx=0x0 perr=0 maxcnt=17 addr8=0x52
1788574851.121080 [RTY] wr=0 wmax=0 wref=0  rd=0 rmax=0 rref=0
1788574851.128957 [RNG] frames=3372 last=60 min=48 max=72 nrdy=1 dxfer=0 dstat=0 lst=0 nrdyerr=0 dclr=0
1788574851.135079 [DRV] init=0 id=7 mode=0x1 lib=0x2 seq=0x1 odc=0x8b sts=0xe0 armed=1
1788574851.140473 [TRG] pulses=35 suppressed=416 cyc=1600 rst=1 rstmode=0x40
1788574851.143707 [HLT] polls=67 faults=0x0 cfglost=0
1788574851.149582 [EFF] n=5 last=58533 min=58448 max=58533 late=0 stuck=0 rderr=0
1788574851.159872 [IMU] init=0 addr=0x68 who=0x68 rst=1 pmrb0=0x40 pmrb=0x1 sr=19 cfg=4 gcfg=0x0 acfg=0x8 icfg=0x30 ien=0x1 armed=1
