1788556625.770234 [HB] up_ms=959153 frames=43393 inf=43393 hazard=5576 canary_err=0 q=0 qovr=0
1788556625.781334 [I2C] init=0 gate=0 whoami=0x140e0 wr=0 wrseen=0x27 addr=0x5a ok=264776 err=0 tmo=0 recov=4 pclk1=200000000 sysclk=400000000
1788556625.782600 [NAK] nacks=0
1788556625.787194 [CLK] cpu=800000000 sysb=400000000 pclk1=200000000
1788556625.791731 [TOF] res=0 step=0 id=0xeacc blk=0xeacc10 ctl=0x0
1788556625.797704 [RNG] init=0 step=99 id=0xeacc boot=1 calls=93 xerr=0 dm=1 tb=15
1788556625.804576 [RNG] osc=41 imp=881 imprb=881 mstart=0x40 cfg=91 cfgfail=0x0 vhv=0 vpolls=0
1788556625.810830 [PRT] calls=173689 xerr=0 ler=1 lidx=0x0 perr=0 maxcnt=17 addr8=0x52
1788556625.814961 [RTY] wr=0 wmax=0 wref=0  rd=0 rmax=0 rref=0
1788556625.822839 [RNG] frames=43393 last=48 min=28 max=58 nrdy=2 dxfer=0 dstat=0 lst=0 nrdyerr=0 dclr=0
1788556625.829114 [DRV] init=0 id=7 mode=0x1 lib=0x2 seq=0x1 odc=0x8b sts=0xe0 armed=1
1788556625.834587 [TRG] pulses=410 suppressed=5166 cyc=1600 rst=1 rstmode=0x40
1788556625.837960 [HLT] polls=867 faults=0x0 cfglost=0
1788556625.843701 [EFF] n=5 last=58539 min=58421 max=58540 late=0 stuck=0 rderr=0
1788556625.854121 [IMU] init=0 addr=0x68 who=0x68 rst=1 pmrb0=0x40 pmrb=0x1 sr=19 cfg=4 gcfg=0x0 acfg=0x8 icfg=0x30 ien=0x1 armed=1
1788556625.859344 [ACC] reads=43397 stale=43353 rderr=0 ax=51 ay=-71 az=1125
1788556625.862110 [PWR] pm=0x1 drift=0 rderr=0
1788556625.865954 [DWT] ok=1 cyc=2744449004 cyc_per_ms=799997
1788556626.882582 [HB] up_ms=960255 frames=43443 inf=43443 hazard=5576 canary_err=0 q=0 qovr=0
1788556626.893835 [I2C] init=0 gate=0 whoami=0x140e0 wr=0 wrseen=0x27 addr=0x5a ok=265078 err=0 tmo=0 recov=4 pclk1=200000000 sysclk=400000000
1788556626.895157 [NAK] nacks=0
1788556626.899698 [CLK] cpu=800000000 sysb=400000000 pclk1=200000000
1788556626.904185 [TOF] res=0 step=0 id=0xeacc blk=0xeacc10 ctl=0x0
1788556626.910108 [RNG] init=0 step=99 id=0xeacc boot=1 calls=93 xerr=0 dm=1 tb=15
1788556626.917182 [RNG] osc=41 imp=881 imprb=881 mstart=0x40 cfg=91 cfgfail=0x0 vhv=0 vpolls=0
1788556626.923448 [PRT] calls=173889 xerr=0 ler=1 lidx=0x0 perr=0 maxcnt=17 addr8=0x52
1788556626.927449 [RTY] wr=0 wmax=0 wref=0  rd=0 rmax=0 rref=0
1788556626.935339 [RNG] frames=43443 last=35 min=28 max=58 nrdy=2 dxfer=0 dstat=0 lst=0 nrdyerr=0 dclr=0
1788556626.941594 [DRV] init=0 id=7 mode=0x1 lib=0x2 seq=0x1 odc=0x8b sts=0xe0 armed=1
1788556626.947120 [TRG] pulses=410 suppressed=5166 cyc=1600 rst=1 rstmode=0x40
1788556626.950433 [HLT] polls=868 faults=0x0 cfglost=0
1788556626.956193 [EFF] n=5 last=58539 min=58421 max=58540 late=0 stuck=0 rderr=0
1788556626.966574 [IMU] init=0 addr=0x68 who=0x68 rst=1 pmrb0=0x40 pmrb=0x1 sr=19 cfg=4 gcfg=0x0 acfg=0x8 icfg=0x30 ien=0x1 armed=1
1788556626.971805 [ACC] reads=43447 stale=43403 rderr=0 ax=53 ay=-72 az=1125
1788556626.974516 [PWR] pm=0x1 drift=0 rderr=0
1788556626.978469 [DWT] ok=1 cyc=3626048960 cyc_per_ms=799999
1788556627.994570 [HB] up_ms=961357 frames=43493 inf=43493 hazard=5576 canary_err=0 q=0 qovr=0
1788556628.005941 [I2C] init=0 gate=0 whoami=0x140e0 wr=0 wrseen=0x27 addr=0x5a ok=265380 err=0 tmo=0 recov=4 pclk1=200000000 sysclk=400000000
1788556628.007182 [NAK] nacks=0
1788556628.011811 [CLK] cpu=800000000 sysb=400000000 pclk1=200000000
1788556628.016338 [TOF] res=0 step=0 id=0xeacc blk=0xeacc10 ctl=0x0
1788556628.022178 [RNG] init=0 step=99 id=0xeacc boot=1 calls=93 xerr=0 dm=1 tb=15
1788556628.029329 [RNG] osc=41 imp=881 imprb=881 mstart=0x40 cfg=91 cfgfail=0x0 vhv=0 vpolls=0
1788556628.035432 [PRT] calls=174089 xerr=0 ler=1 lidx=0x0 perr=0 maxcnt=17 addr8=0x52
1788556628.039591 [RTY] wr=0 wmax=0 wref=0  rd=0 rmax=0 rref=0
1788556628.047338 [RNG] frames=43493 last=46 min=28 max=58 nrdy=2 dxfer=0 dstat=0 lst=0 nrdyerr=0 dclr=0
1788556628.053685 [DRV] init=0 id=7 mode=0x1 lib=0x2 seq=0x1 odc=0x8b sts=0xe0 armed=1
1788556628.059302 [TRG] pulses=410 suppressed=5166 cyc=1600 rst=1 rstmode=0x40
1788556628.062566 [HLT] polls=869 faults=0x0 cfglost=0
1788556628.068300 [EFF] n=5 last=58539 min=58421 max=58540 late=0 stuck=0 rderr=0
1788556628.079133 [IMU] init=0 addr=0x68 who=0x68 rst=1 pmrb0=0x40 pmrb=0x1 sr=19 cfg=4 gcfg=0x0 acfg=0x8 icfg=0x30 ien=0x1 armed=1
1788556628.083933 [ACC] reads=43497 stale=43453 rderr=0 ax=51 ay=-73 az=1127
1788556628.087216 [PWR] pm=0x1 drift=0 rderr=0
1788556628.090541 [DWT] ok=1 cyc=212681384 cyc_per_ms=799999
1788556629.106821 [HB] up_ms=962459 frames=43543 inf=43543 hazard=5576 canary_err=0 q=0 qovr=0
1788556629.117916 [I2C] init=0 gate=0 whoami=0x140e0 wr=0 wrseen=0x27 addr=0x5a ok=265682 err=0 tmo=0 recov=4 pclk1=200000000 sysclk=400000000
1788556629.119298 [NAK] nacks=0
1788556629.124003 [CLK] cpu=800000000 sysb=400000000 pclk1=200000000
1788556629.128471 [TOF] res=0 step=0 id=0xeacc blk=0xeacc10 ctl=0x0
1788556629.134295 [RNG] init=0 step=99 id=0xeacc boot=1 calls=93 xerr=0 dm=1 tb=15
1788556629.141313 [RNG] osc=41 imp=881 imprb=881 mstart=0x40 cfg=91 cfgfail=0x0 vhv=0 vpolls=0
1788556629.147564 [PRT] calls=174289 xerr=0 ler=1 lidx=0x0 perr=0 maxcnt=17 addr8=0x52
1788556629.151668 [RTY] wr=0 wmax=0 wref=0  rd=0 rmax=0 rref=0
1788556629.159431 [RNG] frames=43543 last=38 min=28 max=58 nrdy=2 dxfer=0 dstat=0 lst=0 nrdyerr=0 dclr=0
1788556629.165820 [DRV] init=0 id=7 mode=0x1 lib=0x2 seq=0x1 odc=0x8b sts=0xe0 armed=1
1788556629.171311 [TRG] pulses=410 suppressed=5166 cyc=1600 rst=1 rstmode=0x40
1788556629.174683 [HLT] polls=870 faults=0x0 cfglost=0
1788556629.180438 [EFF] n=5 last=58539 min=58421 max=58540 late=0 stuck=0 rderr=0
1788556629.190769 [IMU] init=0 addr=0x68 who=0x68 rst=1 pmrb0=0x40 pmrb=0x1 sr=19 cfg=4 gcfg=0x0 acfg=0x8 icfg=0x30 ien=0x1 armed=1
1788556629.196064 [ACC] reads=43547 stale=43501 rderr=0 ax=51 ay=-73 az=1122
1788556629.198682 [PWR] pm=0x1 drift=0 rderr=0
1788556629.202669 [DWT] ok=1 cyc=1094281424 cyc_per_ms=800000
1788556630.218163 [HB] up_ms=963561 frames=43593 inf=43593 hazard=5576 canary_err=0 q=0 qovr=0
1788556630.229308 [I2C] init=0 gate=0 whoami=0x140e0 wr=0 wrseen=0x27 addr=0x5a ok=265984 err=0 tmo=0 recov=4 pclk1=200000000 sysclk=400000000
1788556630.230791 [NAK] nacks=0
1788556630.235429 [CLK] cpu=800000000 sysb=400000000 pclk1=200000000
1788556630.240013 [TOF] res=0 step=0 id=0xeacc blk=0xeacc10 ctl=0x0
1788556630.246317 [RNG] init=0 step=99 id=0xeacc boot=1 calls=93 xerr=0 dm=1 tb=15
1788556630.252695 [RNG] osc=41 imp=881 imprb=881 mstart=0x40 cfg=91 cfgfail=0x0 vhv=0 vpolls=0
1788556630.259037 [PRT] calls=174485 xerr=0 ler=1 lidx=0x0 perr=0 maxcnt=17 addr8=0x52
1788556630.263177 [RTY] wr=0 wmax=0 wref=0  rd=0 rmax=0 rref=0
1788556630.270933 [RNG] frames=43593 last=41 min=28 max=58 nrdy=2 dxfer=0 dstat=0 lst=0 nrdyerr=0 dclr=0
1788556630.277411 [DRV] init=0 id=7 mode=0x1 lib=0x2 seq=0x1 odc=0x8b sts=0xe0 armed=1
1788556630.282831 [TRG] pulses=410 suppressed=5166 cyc=1600 rst=1 rstmode=0x40
1788556630.286220 [HLT] polls=871 faults=0x0 cfglost=0
1788556630.291930 [EFF] n=5 last=58539 min=58421 max=58540 late=0 stuck=0 rderr=0
1788556630.302350 [IMU] init=0 addr=0x68 who=0x68 rst=1 pmrb0=0x40 pmrb=0x1 sr=19 cfg=4 gcfg=0x0 acfg=0x8 icfg=0x30 ien=0x1 armed=1
1788556630.307920 [ACC] reads=43597 stale=43551 rderr=0 ax=54 ay=-74 az=1124
1788556630.310422 [PWR] pm=0x1 drift=0 rderr=0
1788556630.314284 [DWT] ok=1 cyc=1975881364 cyc_per_ms=799999
1788556631.330198 [HB] up_ms=964663 frames=43643 inf=43643 hazard=5579 canary_err=0 q=0 qovr=0
1788556631.341437 [I2C] init=0 gate=0 whoami=0x140e0 wr=0 wrseen=0x27 addr=0x5a ok=266286 err=0 tmo=0 recov=4 pclk1=200000000 sysclk=400000000
1788556631.342701 [NAK] nacks=0
1788556631.347434 [CLK] cpu=800000000 sysb=400000000 pclk1=200000000
1788556631.351928 [TOF] res=0 step=0 id=0xeacc blk=0xeacc10 ctl=0x0
1788556631.357829 [RNG] init=0 step=99 id=0xeacc boot=1 calls=93 xerr=0 dm=1 tb=15
1788556631.364682 [RNG] osc=41 imp=881 imprb=881 mstart=0x40 cfg=91 cfgfail=0x0 vhv=0 vpolls=0
1788556631.371122 [PRT] calls=174685 xerr=0 ler=1 lidx=0x0 perr=0 maxcnt=17 addr8=0x52
1788556631.375194 [RTY] wr=0 wmax=0 wref=0  rd=0 rmax=0 rref=0
1788556631.382916 [RNG] frames=43643 last=37 min=28 max=58 nrdy=2 dxfer=0 dstat=0 lst=0 nrdyerr=0 dclr=0
1788556631.389179 [DRV] init=0 id=7 mode=0x1 lib=0x2 seq=0x1 odc=0x8b sts=0xe0 armed=1
1788556631.394820 [TRG] pulses=411 suppressed=5170 cyc=1600 rst=1 rstmode=0x40
1788556631.398160 [HLT] polls=872 faults=0x0 cfglost=0
1788556631.403901 [EFF] n=5 last=58539 min=58421 max=58540 late=0 stuck=0 rderr=0
1788556631.414169 [IMU] init=0 addr=0x68 who=0x68 rst=1 pmrb0=0x40 pmrb=0x1 sr=19 cfg=4 gcfg=0x0 acfg=0x8 icfg=0x30 ien=0x1 armed=1
1788556631.419565 [ACC] reads=43647 stale=43601 rderr=0 ax=51 ay=-73 az=1126
1788556631.422166 [PWR] pm=0x1 drift=0 rderr=0
1788556631.426251 [DWT] ok=1 cyc=2857485044 cyc_per_ms=800003
1788556632.441915 [HB] up_ms=965765 frames=43692 inf=43692 hazard=5617 canary_err=0 q=0 qovr=0
1788556632.453056 [I2C] init=0 gate=0 whoami=0x140e0 wr=0 wrseen=0x27 addr=0x5a ok=266588 err=0 tmo=0 recov=4 pclk1=200000000 sysclk=400000000
1788556632.454294 [NAK] nacks=0
1788556632.459053 [CLK] cpu=800000000 sysb=400000000 pclk1=200000000
1788556632.463652 [TOF] res=0 step=0 id=0xeacc blk=0xeacc10 ctl=0x0
1788556632.469410 [RNG] init=0 step=99 id=0xeacc boot=1 calls=93 xerr=0 dm=1 tb=15
1788556632.476467 [RNG] osc=41 imp=881 imprb=881 mstart=0x40 cfg=91 cfgfail=0x0 vhv=0 vpolls=0
1788556632.482653 [PRT] calls=174885 xerr=0 ler=1 lidx=0x0 perr=0 maxcnt=17 addr8=0x52
1788556632.486778 [RTY] wr=0 wmax=0 wref=0  rd=0 rmax=0 rref=0
1788556632.494557 [RNG] frames=43693 last=42 min=28 max=58 nrdy=2 dxfer=0 dstat=0 lst=0 nrdyerr=0 dclr=0
1788556632.500782 [DRV] init=0 id=7 mode=0x1 lib=0x2 seq=0x1 odc=0x8b sts=0xe0 armed=1
1788556632.506421 [TRG] pulses=413 suppressed=5204 cyc=1600 rst=1 rstmode=0x40
1788556632.509854 [HLT] polls=873 faults=0x0 cfglost=0
1788556632.515532 [EFF] n=5 last=58539 min=58421 max=58540 late=0 stuck=0 rderr=0
1788556632.525695 [IMU] init=0 addr=0x68 who=0x68 rst=1 pmrb0=0x40 pmrb=0x1 sr=19 cfg=4 gcfg=0x0 acfg=0x8 icfg=0x30 ien=0x1 armed=1
1788556632.531158 [ACC] reads=43696 stale=43650 rderr=0 ax=51 ay=-71 az=1126
1788556632.533771 [PWR] pm=0x1 drift=0 rderr=0
1788556632.537790 [DWT] ok=1 cyc=3739214650 cyc_per_ms=800117
1788556633.554295 [HB] up_ms=966868 frames=43742 inf=43742 hazard=5617 canary_err=0 q=0 qovr=0
1788556633.565404 [I2C] init=0 gate=0 whoami=0x140e0 wr=0 wrseen=0x27 addr=0x5a ok=266890 err=0 tmo=0 recov=4 pclk1=200000000 sysclk=400000000
1788556633.566784 [NAK] nacks=0
1788556633.571409 [CLK] cpu=800000000 sysb=400000000 pclk1=200000000
1788556633.576308 [TOF] res=0 step=0 id=0xeacc blk=0xeacc10 ctl=0x0
1788556633.581922 [RNG] init=0 step=99 id=0xeacc boot=1 calls=93 xerr=0 dm=1 tb=15
1788556633.588772 [RNG] osc=41 imp=881 imprb=881 mstart=0x40 cfg=91 cfgfail=0x0 vhv=0 vpolls=0
1788556633.595045 [PRT] calls=175085 xerr=0 ler=1 lidx=0x0 perr=0 maxcnt=17 addr8=0x52
1788556633.599413 [RTY] wr=0 wmax=0 wref=0  rd=0 rmax=0 rref=0
1788556633.607037 [RNG] frames=43743 last=36 min=28 max=58 nrdy=2 dxfer=0 dstat=0 lst=0 nrdyerr=0 dclr=0
1788556633.613143 [DRV] init=0 id=7 mode=0x1 lib=0x2 seq=0x1 odc=0x8b sts=0xe0 armed=1
1788556633.618649 [TRG] pulses=413 suppressed=5204 cyc=1600 rst=1 rstmode=0x40
1788556633.622157 [HLT] polls=874 faults=0x0 cfglost=0
1788556633.627994 [EFF] n=5 last=58539 min=58421 max=58540 late=0 stuck=0 rderr=0
1788556633.638170 [IMU] init=0 addr=0x68 who=0x68 rst=1 pmrb0=0x40 pmrb=0x1 sr=19 cfg=4 gcfg=0x0 acfg=0x8 icfg=0x30 ien=0x1 armed=1
1788556633.643651 [ACC] reads=43746 stale=43700 rderr=0 ax=53 ay=-72 az=1123
1788556633.646279 [PWR] pm=0x1 drift=0 rderr=0
1788556633.650173 [DWT] ok=1 cyc=326648230 cyc_per_ms=800000
1788556634.666783 [HB] up_ms=967971 frames=43792 inf=43792 hazard=5617 canary_err=0 q=0 qovr=0
1788556634.677911 [I2C] init=0 gate=0 whoami=0x140e0 wr=0 wrseen=0x27 addr=0x5a ok=267192 err=0 tmo=0 recov=4 pclk1=200000000 sysclk=400000000
1788556634.679279 [NAK] nacks=0
1788556634.683912 [CLK] cpu=800000000 sysb=400000000 pclk1=200000000
1788556634.688527 [TOF] res=0 step=0 id=0xeacc blk=0xeacc10 ctl=0x0
1788556634.694414 [RNG] init=0 step=99 id=0xeacc boot=1 calls=93 xerr=0 dm=1 tb=15
1788556634.701290 [RNG] osc=41 imp=881 imprb=881 mstart=0x40 cfg=91 cfgfail=0x0 vhv=0 vpolls=0
1788556634.707447 [PRT] calls=175285 xerr=0 ler=1 lidx=0x0 perr=0 maxcnt=17 addr8=0x52
1788556634.711667 [RTY] wr=0 wmax=0 wref=0  rd=0 rmax=0 rref=0
1788556634.719547 [RNG] frames=43792 last=44 min=28 max=58 nrdy=2 dxfer=0 dstat=0 lst=0 nrdyerr=0 dclr=0
1788556634.725679 [DRV] init=0 id=7 mode=0x1 lib=0x2 seq=0x1 odc=0x8b sts=0xe0 armed=1
1788556634.731219 [TRG] pulses=413 suppressed=5204 cyc=1600 rst=1 rstmode=0x40
1788556634.734681 [HLT] polls=875 faults=0x0 cfglost=0
1788556634.740535 [EFF] n=5 last=58539 min=58421 max=58540 late=0 stuck=0 rderr=0
1788556634.750638 [IMU] init=0 addr=0x68 who=0x68 rst=1 pmrb0=0x40 pmrb=0x1 sr=19 cfg=4 gcfg=0x0 acfg=0x8 icfg=0x30 ien=0x1 armed=1
1788556634.755885 [ACC] reads=43796 stale=43750 rderr=0 ax=52 ay=-75 az=1126
1788556634.758654 [PWR] pm=0x1 drift=0 rderr=0
1788556634.762665 [DWT] ok=1 cyc=1209035694 cyc_per_ms=799988
1788556635.779321 [HB] up_ms=969074 frames=43842 inf=43842 hazard=5617 canary_err=0 q=0 qovr=0
1788556635.790542 [I2C] init=0 gate=0 whoami=0x140e0 wr=0 wrseen=0x27 addr=0x5a ok=267490 err=0 tmo=0 recov=4 pclk1=200000000 sysclk=400000000
1788556635.791928 [NAK] nacks=0
1788556635.796527 [CLK] cpu=800000000 sysb=400000000 pclk1=200000000
1788556635.801013 [TOF] res=0 step=0 id=0xeacc blk=0xeacc10 ctl=0x0
1788556635.807033 [RNG] init=0 step=99 id=0xeacc boot=1 calls=93 xerr=0 dm=1 tb=15
1788556635.813909 [RNG] osc=41 imp=881 imprb=881 mstart=0x40 cfg=91 cfgfail=0x0 vhv=0 vpolls=0
1788556635.820217 [PRT] calls=175485 xerr=0 ler=1 lidx=0x0 perr=0 maxcnt=17 addr8=0x52
1788556635.824210 [RTY] wr=0 wmax=0 wref=0  rd=0 rmax=0 rref=0
1788556635.832182 [RNG] frames=43842 last=41 min=28 max=58 nrdy=2 dxfer=0 dstat=0 lst=0 nrdyerr=0 dclr=0
1788556635.838273 [DRV] init=0 id=7 mode=0x1 lib=0x2 seq=0x1 odc=0x8b sts=0xe0 armed=1
1788556635.843787 [TRG] pulses=413 suppressed=5204 cyc=1600 rst=1 rstmode=0x40
1788556635.847159 [HLT] polls=876 faults=0x0 cfglost=0
1788556635.853031 [EFF] n=5 last=58539 min=58421 max=58540 late=0 stuck=0 rderr=0
1788556635.863279 [IMU] init=0 addr=0x68 who=0x68 rst=1 pmrb0=0x40 pmrb=0x1 sr=19 cfg=4 gcfg=0x0 acfg=0x8 icfg=0x30 ien=0x1 armed=1
1788556635.868522 [ACC] reads=43846 stale=43800 rderr=0 ax=51 ay=-73 az=1123
1788556635.871272 [PWR] pm=0x1 drift=0 rderr=0
1788556635.875436 [DWT] ok=1 cyc=2091336302 cyc_per_ms=799909
1788556636.891881 [HB] up_ms=970177 frames=43892 inf=43892 hazard=5617 canary_err=0 q=0 qovr=0
1788556636.903170 [I2C] init=0 gate=0 whoami=0x140e0 wr=0 wrseen=0x27 addr=0x5a ok=267790 err=0 tmo=0 recov=4 pclk1=200000000 sysclk=400000000
1788556636.904513 [NAK] nacks=0
1788556636.909063 [CLK] cpu=800000000 sysb=400000000 pclk1=200000000
1788556636.913630 [TOF] res=0 step=0 id=0xeacc blk=0xeacc10 ctl=0x0
1788556636.919638 [RNG] init=0 step=99 id=0xeacc boot=1 calls=93 xerr=0 dm=1 tb=15
1788556636.926665 [RNG] osc=41 imp=881 imprb=881 mstart=0x40 cfg=91 cfgfail=0x0 vhv=0 vpolls=0
1788556636.932646 [PRT] calls=175685 xerr=0 ler=1 lidx=0x0 perr=0 maxcnt=17 addr8=0x52
1788556636.936766 [RTY] wr=0 wmax=0 wref=0  rd=0 rmax=0 rref=0
1788556636.944785 [RNG] frames=43892 last=42 min=28 max=58 nrdy=2 dxfer=0 dstat=0 lst=0 nrdyerr=0 dclr=0
1788556636.950911 [DRV] init=0 id=7 mode=0x1 lib=0x2 seq=0x1 odc=0x8b sts=0xe0 armed=1
1788556636.956431 [TRG] pulses=413 suppressed=5204 cyc=1600 rst=1 rstmode=0x40
1788556636.959778 [HLT] polls=877 faults=0x0 cfglost=0
1788556636.965650 [EFF] n=5 last=58539 min=58421 max=58540 late=0 stuck=0 rderr=0
1788556636.975983 [IMU] init=0 addr=0x68 who=0x68 rst=1 pmrb0=0x40 pmrb=0x1 sr=19 cfg=4 gcfg=0x0 acfg=0x8 icfg=0x30 ien=0x1 armed=1
1788556636.981179 [ACC] reads=43896 stale=43850 rderr=0 ax=52 ay=-72 az=1128
1788556636.983780 [PWR] pm=0x1 drift=0 rderr=0
1788556636.987898 [DWT] ok=1 cyc=2973714084 cyc_per_ms=799979
1788556638.004399 [HB] up_ms=971280 frames=43942 inf=43942 hazard=5617 canary_err=0 q=0 qovr=0
1788556638.015773 [I2C] init=0 gate=0 whoami=0x140e0 wr=0 wrseen=0x27 addr=0x5a ok=268092 err=0 tmo=0 recov=4 pclk1=200000000 sysclk=400000000
1788556638.017015 [NAK] nacks=0
1788556638.021671 [CLK] cpu=800000000 sysb=400000000 pclk1=200000000
1788556638.026221 [TOF] res=0 step=0 id=0xeacc blk=0xeacc10 ctl=0x0
1788556638.032171 [RNG] init=0 step=99 id=0xeacc boot=1 calls=93 xerr=0 dm=1 tb=15
1788556638.039171 [RNG] osc=41 imp=881 imprb=881 mstart=0x40 cfg=91 cfgfail=0x0 vhv=0 vpolls=0
1788556638.045276 [PRT] calls=175885 xerr=0 ler=1 lidx=0x0 perr=0 maxcnt=17 addr8=0x52
1788556638.049384 [RTY] wr=0 wmax=0 wref=0  rd=0 rmax=0 rref=0
1788556638.057276 [RNG] frames=43942 last=39 min=28 max=58 nrdy=2 dxfer=0 dstat=0 lst=0 nrdyerr=0 dclr=0
1788556638.063530 [DRV] init=0 id=7 mode=0x1 lib=0x2 seq=0x1 odc=0x8b sts=0xe0 armed=1
1788556638.068999 [TRG] pulses=413 suppressed=5204 cyc=1600 rst=1 rstmode=0x40
1788556638.072388 [HLT] polls=878 faults=0x0 cfglost=0
1788556638.078166 [EFF] n=5 last=58539 min=58421 max=58540 late=0 stuck=0 rderr=0
1788556638.088541 [IMU] init=0 addr=0x68 who=0x68 rst=1 pmrb0=0x40 pmrb=0x1 sr=19 cfg=4 gcfg=0x0 acfg=0x8 icfg=0x30 ien=0x1 armed=1
1788556638.093809 [ACC] reads=43946 stale=43900 rderr=0 ax=52 ay=-74 az=1127
1788556638.096398 [PWR] pm=0x1 drift=0 rderr=0
1788556638.100375 [DWT] ok=1 cyc=3856114364 cyc_per_ms=800000
1788556639.116522 [HB] up_ms=972382 frames=43992 inf=43992 hazard=5649 canary_err=0 q=0 qovr=0
1788556639.127780 [I2C] init=0 gate=0 whoami=0x140e0 wr=0 wrseen=0x27 addr=0x5a ok=268394 err=0 tmo=0 recov=4 pclk1=200000000 sysclk=400000000
1788556639.129224 [NAK] nacks=0
1788556639.133762 [CLK] cpu=800000000 sysb=400000000 pclk1=200000000
1788556639.138264 [TOF] res=0 step=0 id=0xeacc blk=0xeacc10 ctl=0x0
1788556639.144027 [RNG] init=0 step=99 id=0xeacc boot=1 calls=93 xerr=0 dm=1 tb=15
1788556639.151160 [RNG] osc=41 imp=881 imprb=881 mstart=0x40 cfg=91 cfgfail=0x0 vhv=0 vpolls=0
1788556639.157377 [PRT] calls=176085 xerr=0 ler=1 lidx=0x0 perr=0 maxcnt=17 addr8=0x52
1788556639.161391 [RTY] wr=0 wmax=0 wref=0  rd=0 rmax=0 rref=0
1788556639.169253 [RNG] frames=43992 last=43 min=28 max=58 nrdy=2 dxfer=0 dstat=0 lst=0 nrdyerr=0 dclr=0
1788556639.176380 [DRV] init=0 id=7 mode=0x1 lib=0x2 seq=0x1 odc=0x8b sts=0xe0 armed=1
1788556639.181015 [TRG] pulses=416 suppressed=5236 cyc=1600 rst=1 rstmode=0x40
1788556639.184379 [HLT] polls=879 faults=0x0 cfglost=0
1788556639.190140 [EFF] n=5 last=58539 min=58421 max=58540 late=0 stuck=0 rderr=0
1788556639.200532 [IMU] init=0 addr=0x68 who=0x68 rst=1 pmrb0=0x40 pmrb=0x1 sr=19 cfg=4 gcfg=0x0 acfg=0x8 icfg=0x30 ien=0x1 armed=1
1788556639.205755 [ACC] reads=43996 stale=43950 rderr=0 ax=51 ay=-74 az=1127
1788556639.208535 [PWR] pm=0x1 drift=0 rderr=0
1788556639.212384 [DWT] ok=1 cyc=442750588 cyc_per_ms=800003
1788556640.228170 [HB] up_ms=973484 frames=44042 inf=44042 hazard=5658 canary_err=0 q=0 qovr=0
1788556640.239512 [I2C] init=0 gate=0 whoami=0x140e0 wr=0 wrseen=0x27 addr=0x5a ok=268696 err=0 tmo=0 recov=4 pclk1=200000000 sysclk=400000000
1788556640.241134 [NAK] nacks=0
1788556640.245429 [CLK] cpu=800000000 sysb=400000000 pclk1=200000000
1788556640.249901 [TOF] res=0 step=0 id=0xeacc blk=0xeacc10 ctl=0x0
1788556640.255739 [RNG] init=0 step=99 id=0xeacc boot=1 calls=93 xerr=0 dm=1 tb=15
1788556640.262751 [RNG] osc=41 imp=881 imprb=881 mstart=0x40 cfg=91 cfgfail=0x0 vhv=0 vpolls=0
1788556640.269016 [PRT] calls=176285 xerr=0 ler=1 lidx=0x0 perr=0 maxcnt=17 addr8=0x52
1788556640.273038 [RTY] wr=0 wmax=0 wref=0  rd=0 rmax=0 rref=0
1788556640.280881 [RNG] frames=44042 last=44 min=28 max=58 nrdy=2 dxfer=0 dstat=0 lst=0 nrdyerr=0 dclr=0
1788556640.287251 [DRV] init=0 id=7 mode=0x1 lib=0x2 seq=0x1 odc=0x8b sts=0xe0 armed=1
1788556640.292650 [TRG] pulses=416 suppressed=5242 cyc=1600 rst=1 rstmode=0x40
1788556640.296021 [HLT] polls=880 faults=0x0 cfglost=0
1788556640.301764 [EFF] n=5 last=58539 min=58421 max=58540 late=0 stuck=0 rderr=0
1788556640.312166 [IMU] init=0 addr=0x68 who=0x68 rst=1 pmrb0=0x40 pmrb=0x1 sr=19 cfg=4 gcfg=0x0 acfg=0x8 icfg=0x30 ien=0x1 armed=1
1788556640.317377 [ACC] reads=44046 stale=44000 rderr=0 ax=52 ay=-75 az=1124
1788556640.320140 [PWR] pm=0x1 drift=0 rderr=0
1788556640.324031 [DWT] ok=1 cyc=1324346788 cyc_per_ms=799996
1788556641.340371 [HB] up_ms=974586 frames=44092 inf=44092 hazard=5658 canary_err=0 q=0 qovr=0
1788556641.351380 [I2C] init=0 gate=0 whoami=0x140e0 wr=0 wrseen=0x27 addr=0x5a ok=268998 err=0 tmo=0 recov=4 pclk1=200000000 sysclk=400000000
1788556641.352764 [NAK] nacks=0
1788556641.357467 [CLK] cpu=800000000 sysb=400000000 pclk1=200000000
1788556641.361874 [TOF] res=0 step=0 id=0xeacc blk=0xeacc10 ctl=0x0
1788556641.367750 [RNG] init=0 step=99 id=0xeacc boot=1 calls=93 xerr=0 dm=1 tb=15
1788556641.374794 [RNG] osc=41 imp=881 imprb=881 mstart=0x40 cfg=91 cfgfail=0x0 vhv=0 vpolls=0
1788556641.380991 [PRT] calls=176485 xerr=0 ler=1 lidx=0x0 perr=0 maxcnt=17 addr8=0x52
1788556641.384983 [RTY] wr=0 wmax=0 wref=0  rd=0 rmax=0 rref=0
1788556641.393281 [RNG] frames=44092 last=45 min=28 max=58 nrdy=2 dxfer=0 dstat=0 lst=0 nrdyerr=0 dclr=0
1788556641.399174 [DRV] init=0 id=7 mode=0x1 lib=0x2 seq=0x1 odc=0x8b sts=0xe0 armed=1
1788556641.404618 [TRG] pulses=416 suppressed=5242 cyc=1600 rst=1 rstmode=0x40
1788556641.408016 [HLT] polls=881 faults=0x0 cfglost=0
1788556641.413772 [EFF] n=5 last=58539 min=58421 max=58540 late=0 stuck=0 rderr=0
1788556641.424169 [IMU] init=0 addr=0x68 who=0x68 rst=1 pmrb0=0x40 pmrb=0x1 sr=19 cfg=4 gcfg=0x0 acfg=0x8 icfg=0x30 ien=0x1 armed=1
1788556641.429522 [ACC] reads=44096 stale=44050 rderr=0 ax=51 ay=-73 az=1124
1788556641.432152 [PWR] pm=0x1 drift=0 rderr=0
1788556641.436164 [DWT] ok=1 cyc=2205946820 cyc_per_ms=800000
1788556642.451889 [HB] up_ms=975688 frames=44142 inf=44142 hazard=5658 canary_err=0 q=0 qovr=0
1788556642.462995 [I2C] init=0 gate=0 whoami=0x140e0 wr=0 wrseen=0x27 addr=0x5a ok=269300 err=0 tmo=0 recov=4 pclk1=200000000 sysclk=400000000
1788556642.464495 [NAK] nacks=0
1788556642.469165 [CLK] cpu=800000000 sysb=400000000 pclk1=200000000
1788556642.473718 [TOF] res=0 step=0 id=0xeacc blk=0xeacc10 ctl=0x0
1788556642.479564 [RNG] init=0 step=99 id=0xeacc boot=1 calls=93 xerr=0 dm=1 tb=15
1788556642.486364 [RNG] osc=41 imp=881 imprb=881 mstart=0x40 cfg=91 cfgfail=0x0 vhv=0 vpolls=0
1788556642.492753 [PRT] calls=176681 xerr=0 ler=1 lidx=0x0 perr=0 maxcnt=17 addr8=0x52
1788556642.496745 [RTY] wr=0 wmax=0 wref=0  rd=0 rmax=0 rref=0
1788556642.504631 [RNG] frames=44142 last=38 min=28 max=58 nrdy=2 dxfer=0 dstat=0 lst=0 nrdyerr=0 dclr=0
1788556642.510879 [DRV] init=0 id=7 mode=0x1 lib=0x2 seq=0x1 odc=0x8b sts=0xe0 armed=1
1788556642.516376 [TRG] pulses=416 suppressed=5242 cyc=1600 rst=1 rstmode=0x40
1788556642.519763 [HLT] polls=882 faults=0x0 cfglost=0
1788556642.525536 [EFF] n=5 last=58539 min=58421 max=58540 late=0 stuck=0 rderr=0
1788556642.535884 [IMU] init=0 addr=0x68 who=0x68 rst=1 pmrb0=0x40 pmrb=0x1 sr=19 cfg=4 gcfg=0x0 acfg=0x8 icfg=0x30 ien=0x1 armed=1
1788556642.541262 [ACC] reads=44146 stale=44100 rderr=0 ax=51 ay=-72 az=1126
1788556642.543998 [PWR] pm=0x1 drift=0 rderr=0
1788556642.547876 [DWT] ok=1 cyc=3087546920 cyc_per_ms=800000
1788556643.562880 [HB] up_ms=976790 frames=44192 inf=44192 hazard=5658 canary_err=0 q=0 qovr=0
1788556643.574361 [I2C] init=0 gate=0 whoami=0x140e0 wr=0 wrseen=0x27 addr=0x5a ok=269602 err=0 tmo=0 recov=4 pclk1=200000000 sysclk=400000000
1788556643.575280 [NAK] nacks=0
1788556643.580071 [CLK] cpu=800000000 sysb=400000000 pclk1=200000000
1788556643.584515 [TOF] res=0 step=0 id=0xeacc blk=0xeacc10 ctl=0x0
1788556643.590385 [RNG] init=0 step=99 id=0xeacc boot=1 calls=93 xerr=0 dm=1 tb=15
1788556643.597228 [RNG] osc=41 imp=881 imprb=881 mstart=0x40 cfg=91 cfgfail=0x0 vhv=0 vpolls=0
1788556643.603597 [PRT] calls=176881 xerr=0 ler=1 lidx=0x0 perr=0 maxcnt=17 addr8=0x52
1788556643.607748 [RTY] wr=0 wmax=0 wref=0  rd=0 rmax=0 rref=0
1788556643.615485 [RNG] frames=44192 last=43 min=28 max=58 nrdy=2 dxfer=0 dstat=0 lst=0 nrdyerr=0 dclr=0
1788556643.621603 [DRV] init=0 id=7 mode=0x1 lib=0x2 seq=0x1 odc=0x8b sts=0xe0 armed=1
1788556643.627400 [TRG] pulses=416 suppressed=5242 cyc=1600 rst=1 rstmode=0x40
1788556643.630774 [HLT] polls=883 faults=0x0 cfglost=0
1788556643.636352 [EFF] n=5 last=58539 min=58421 max=58540 late=0 stuck=0 rderr=0
1788556643.646631 [IMU] init=0 addr=0x68 who=0x68 rst=1 pmrb0=0x40 pmrb=0x1 sr=19 cfg=4 gcfg=0x0 acfg=0x8 icfg=0x30 ien=0x1 armed=1
1788556643.652148 [ACC] reads=44196 stale=44150 rderr=0 ax=51 ay=-72 az=1122
1788556643.654750 [PWR] pm=0x1 drift=0 rderr=0
1788556643.658749 [DWT] ok=1 cyc=3969146864 cyc_per_ms=799999
1788556644.674565 [HB] up_ms=977892 frames=44241 inf=44241 hazard=5658 canary_err=0 q=0 qovr=0
1788556644.685626 [I2C] init=0 gate=0 whoami=0x140e0 wr=0 wrseen=0x27 addr=0x5a ok=269904 err=0 tmo=0 recov=4 pclk1=200000000 sysclk=400000000
1788556644.687003 [NAK] nacks=0
1788556644.691780 [CLK] cpu=800000000 sysb=400000000 pclk1=200000000
1788556644.696242 [TOF] res=0 step=0 id=0xeacc blk=0xeacc10 ctl=0x0
1788556644.702123 [RNG] init=0 step=99 id=0xeacc boot=1 calls=93 xerr=0 dm=1 tb=15
1788556644.708997 [RNG] osc=41 imp=881 imprb=881 mstart=0x40 cfg=91 cfgfail=0x0 vhv=0 vpolls=0
1788556644.715384 [PRT] calls=177081 xerr=0 ler=1 lidx=0x0 perr=0 maxcnt=17 addr8=0x52
1788556644.719489 [RTY] wr=0 wmax=0 wref=0  rd=0 rmax=0 rref=0
1788556644.727300 [RNG] frames=44242 last=41 min=28 max=58 nrdy=2 dxfer=0 dstat=0 lst=0 nrdyerr=0 dclr=0
1788556644.733502 [DRV] init=0 id=7 mode=0x1 lib=0x2 seq=0x1 odc=0x8b sts=0xe0 armed=1
1788556644.739001 [TRG] pulses=416 suppressed=5242 cyc=1600 rst=1 rstmode=0x40
1788556644.742504 [HLT] polls=884 faults=0x0 cfglost=0
1788556644.748264 [EFF] n=5 last=58539 min=58421 max=58540 late=0 stuck=0 rderr=0
1788556644.758367 [IMU] init=0 addr=0x68 who=0x68 rst=1 pmrb0=0x40 pmrb=0x1 sr=19 cfg=4 gcfg=0x0 acfg=0x8 icfg=0x30 ien=0x1 armed=1
1788556644.763878 [ACC] reads=44245 stale=44199 rderr=0 ax=50 ay=-72 az=1126
1788556644.766486 [PWR] pm=0x1 drift=0 rderr=0
1788556644.770366 [DWT] ok=1 cyc=555912674 cyc_per_ms=800120
1788556645.786861 [HB] up_ms=978995 frames=44291 inf=44291 hazard=5669 canary_err=0 q=0 qovr=0
1788556645.798001 [I2C] init=0 gate=0 whoami=0x140e0 wr=0 wrseen=0x27 addr=0x5a ok=270206 err=0 tmo=0 recov=4 pclk1=200000000 sysclk=400000000
1788556645.799334 [NAK] nacks=0
1788556645.803974 [CLK] cpu=800000000 sysb=400000000 pclk1=200000000
1788556645.808636 [TOF] res=0 step=0 id=0xeacc blk=0xeacc10 ctl=0x0
1788556645.814486 [RNG] init=0 step=99 id=0xeacc boot=1 calls=93 xerr=0 dm=1 tb=15
1788556645.821359 [RNG] osc=41 imp=881 imprb=881 mstart=0x40 cfg=91 cfgfail=0x0 vhv=0 vpolls=0
1788556645.827644 [PRT] calls=177281 xerr=0 ler=1 lidx=0x0 perr=0 maxcnt=17 addr8=0x52
1788556645.831725 [RTY] wr=0 wmax=0 wref=0  rd=0 rmax=0 rref=0
1788556645.839600 [RNG] frames=44292 last=39 min=28 max=58 nrdy=2 dxfer=0 dstat=0 lst=0 nrdyerr=0 dclr=0
1788556645.845724 [DRV] init=0 id=7 mode=0x1 lib=0x2 seq=0x1 odc=0x8b sts=0xe0 armed=1
1788556645.851227 [TRG] pulses=417 suppressed=5255 cyc=1600 rst=1 rstmode=0x40
1788556645.854716 [HLT] polls=885 faults=0x0 cfglost=0
1788556645.860491 [EFF] n=5 last=58539 min=58421 max=58540 late=0 stuck=0 rderr=0
1788556645.870730 [IMU] init=0 addr=0x68 who=0x68 rst=1 pmrb0=0x40 pmrb=0x1 sr=19 cfg=4 gcfg=0x0 acfg=0x8 icfg=0x30 ien=0x1 armed=1
1788556645.876118 [ACC] reads=44295 stale=44249 rderr=0 ax=51 ay=-74 az=1126
1788556645.878841 [PWR] pm=0x1 drift=0 rderr=0
1788556645.882862 [DWT] ok=1 cyc=1438320586 cyc_per_ms=800007
1788556646.898605 [HB] up_ms=980098 frames=44341 inf=44341 hazard=5699 canary_err=0 q=0 qovr=0
1788556646.909741 [I2C] init=0 gate=0 whoami=0x140e0 wr=0 wrseen=0x27 addr=0x5a ok=270508 err=0 tmo=0 recov=4 pclk1=200000000 sysclk=400000000
1788556646.911115 [NAK] nacks=0
1788556646.915730 [CLK] cpu=800000000 sysb=400000000 pclk1=200000000
1788556646.920369 [TOF] res=0 step=0 id=0xeacc blk=0xeacc10 ctl=0x0
1788556646.926499 [RNG] init=0 step=99 id=0xeacc boot=1 calls=93 xerr=0 dm=1 tb=15
1788556646.933145 [RNG] osc=41 imp=881 imprb=881 mstart=0x40 cfg=91 cfgfail=0x0 vhv=0 vpolls=0
1788556646.939239 [PRT] calls=177481 xerr=0 ler=1 lidx=0x0 perr=0 maxcnt=17 addr8=0x52
1788556646.943680 [RTY] wr=0 wmax=0 wref=0  rd=0 rmax=0 rref=0
1788556646.951382 [RNG] frames=44341 last=45 min=28 max=58 nrdy=2 dxfer=0 dstat=0 lst=0 nrdyerr=0 dclr=0
1788556646.957517 [DRV] init=0 id=7 mode=0x1 lib=0x2 seq=0x1 odc=0x8b sts=0xe0 armed=1
1788556646.962974 [TRG] pulses=419 suppressed=5280 cyc=1600 rst=1 rstmode=0x40
1788556646.966356 [HLT] polls=886 faults=0x0 cfglost=0
1788556646.972212 [EFF] n=5 last=58539 min=58421 max=58540 late=0 stuck=0 rderr=0
1788556646.982366 [IMU] init=0 addr=0x68 who=0x68 rst=1 pmrb0=0x40 pmrb=0x1 sr=19 cfg=4 gcfg=0x0 acfg=0x8 icfg=0x30 ien=0x1 armed=1
1788556646.987721 [ACC] reads=44345 stale=44299 rderr=0 ax=51 ay=-72 az=1125
1788556646.990478 [PWR] pm=0x1 drift=0 rderr=0
1788556646.994473 [DWT] ok=1 cyc=2320701082 cyc_per_ms=799982
1788556648.009364 [HB] up_ms=981201 frames=44391 inf=44391 hazard=5699 canary_err=0 q=0 qovr=0
1788556648.020598 [I2C] init=0 gate=0 whoami=0x140e0 wr=0 wrseen=0x27 addr=0x5a ok=270806 err=0 tmo=0 recov=4 pclk1=200000000 sysclk=400000000
1788556648.021977 [NAK] nacks=0
1788556648.026627 [CLK] cpu=800000000 sysb=400000000 pclk1=200000000
1788556648.031138 [TOF] res=0 step=0 id=0xeacc blk=0xeacc10 ctl=0x0
1788556648.037139 [RNG] init=0 step=99 id=0xeacc boot=1 calls=93 xerr=0 dm=1 tb=15
1788556648.043991 [RNG] osc=41 imp=881 imprb=881 mstart=0x40 cfg=91 cfgfail=0x0 vhv=0 vpolls=0
1788556648.050120 [PRT] calls=177681 xerr=0 ler=1 lidx=0x0 perr=0 maxcnt=17 addr8=0x52
1788556648.054227 [RTY] wr=0 wmax=0 wref=0  rd=0 rmax=0 rref=0
1788556648.062135 [RNG] frames=44391 last=39 min=28 max=58 nrdy=2 dxfer=0 dstat=0 lst=0 nrdyerr=0 dclr=0
1788556648.068338 [DRV] init=0 id=7 mode=0x1 lib=0x2 seq=0x1 odc=0x8b sts=0xe0 armed=1
1788556648.074211 [TRG] pulses=419 suppressed=5280 cyc=1600 rst=1 rstmode=0x40
1788556648.077262 [HLT] polls=887 faults=0x0 cfglost=0
1788556648.083178 [EFF] n=5 last=58539 min=58421 max=58540 late=0 stuck=0 rderr=0
1788556648.093238 [IMU] init=0 addr=0x68 who=0x68 rst=1 pmrb0=0x40 pmrb=0x1 sr=19 cfg=4 gcfg=0x0 acfg=0x8 icfg=0x30 ien=0x1 armed=1
1788556648.098611 [ACC] reads=44395 stale=44349 rderr=0 ax=49 ay=-72 az=1126
1788556648.101244 [PWR] pm=0x1 drift=0 rderr=0
1788556648.105345 [DWT] ok=1 cyc=3203001642 cyc_per_ms=799909
1788556649.120611 [HB] up_ms=982304 frames=44441 inf=44441 hazard=5699 canary_err=0 q=0 qovr=0
1788556649.131963 [I2C] init=0 gate=0 whoami=0x140e0 wr=0 wrseen=0x27 addr=0x5a ok=271106 err=0 tmo=0 recov=4 pclk1=200000000 sysclk=400000000
1788556649.133340 [NAK] nacks=0
1788556649.137832 [CLK] cpu=800000000 sysb=400000000 pclk1=200000000
1788556649.142350 [TOF] res=0 step=0 id=0xeacc blk=0xeacc10 ctl=0x0
1788556649.148351 [RNG] init=0 step=99 id=0xeacc boot=1 calls=93 xerr=0 dm=1 tb=15
1788556649.155322 [RNG] osc=41 imp=881 imprb=881 mstart=0x40 cfg=91 cfgfail=0x0 vhv=0 vpolls=0
1788556649.161493 [PRT] calls=177881 xerr=0 ler=1 lidx=0x0 perr=0 maxcnt=17 addr8=0x52
1788556649.165616 [RTY] wr=0 wmax=0 wref=0  rd=0 rmax=0 rref=0
1788556649.173460 [RNG] frames=44441 last=43 min=28 max=58 nrdy=2 dxfer=0 dstat=0 lst=0 nrdyerr=0 dclr=0
1788556649.179712 [DRV] init=0 id=7 mode=0x1 lib=0x2 seq=0x1 odc=0x8b sts=0xe0 armed=1
1788556649.185107 [TRG] pulses=419 suppressed=5280 cyc=1600 rst=1 rstmode=0x40
1788556649.188460 [HLT] polls=888 faults=0x0 cfglost=0
1788556649.194533 [EFF] n=5 last=58539 min=58421 max=58540 late=0 stuck=0 rderr=0
1788556649.204595 [IMU] init=0 addr=0x68 who=0x68 rst=1 pmrb0=0x40 pmrb=0x1 sr=19 cfg=4 gcfg=0x0 acfg=0x8 icfg=0x30 ien=0x1 armed=1
1788556649.209966 [ACC] reads=44445 stale=44399 rderr=0 ax=50 ay=-71 az=1124
1788556649.212595 [PWR] pm=0x1 drift=0 rderr=0
1788556649.216729 [DWT] ok=1 cyc=4085379492 cyc_per_ms=799979
1788556650.232958 [HB] up_ms=983407 frames=44491 inf=44491 hazard=5699 canary_err=0 q=0 qovr=0
1788556650.244359 [I2C] init=0 gate=0 whoami=0x140e0 wr=0 wrseen=0x27 addr=0x5a ok=271408 err=0 tmo=0 recov=4 pclk1=200000000 sysclk=400000000
1788556650.245608 [NAK] nacks=0
1788556650.250212 [CLK] cpu=800000000 sysb=400000000 pclk1=200000000
1788556650.254707 [TOF] res=0 step=0 id=0xeacc blk=0xeacc10 ctl=0x0
1788556650.260717 [RNG] init=0 step=99 id=0xeacc boot=1 calls=93 xerr=0 dm=1 tb=15
1788556650.267748 [RNG] osc=41 imp=881 imprb=881 mstart=0x40 cfg=91 cfgfail=0x0 vhv=0 vpolls=0
1788556650.273865 [PRT] calls=178081 xerr=0 ler=1 lidx=0x0 perr=0 maxcnt=17 addr8=0x52
1788556650.277979 [RTY] wr=0 wmax=0 wref=0  rd=0 rmax=0 rref=0
1788556650.285846 [RNG] frames=44491 last=36 min=28 max=58 nrdy=2 dxfer=0 dstat=0 lst=0 nrdyerr=0 dclr=0
1788556650.292247 [DRV] init=0 id=7 mode=0x1 lib=0x2 seq=0x1 odc=0x8b sts=0xe0 armed=1
1788556650.297587 [TRG] pulses=419 suppressed=5280 cyc=1600 rst=1 rstmode=0x40
1788556650.300951 [HLT] polls=889 faults=0x0 cfglost=0
1788556650.306711 [EFF] n=5 last=58539 min=58421 max=58540 late=0 stuck=0 rderr=0
1788556650.317114 [IMU] init=0 addr=0x68 who=0x68 rst=1 pmrb0=0x40 pmrb=0x1 sr=19 cfg=4 gcfg=0x0 acfg=0x8 icfg=0x30 ien=0x1 armed=1
1788556650.322345 [ACC] reads=44495 stale=44449 rderr=0 ax=49 ay=-74 az=1126
1788556650.325023 [PWR] pm=0x1 drift=0 rderr=0
1788556650.328938 [DWT] ok=1 cyc=672812500 cyc_per_ms=800000
1788556651.344858 [HB] up_ms=984509 frames=44541 inf=44541 hazard=5699 canary_err=0 q=0 qovr=0
1788556651.356331 [I2C] init=0 gate=0 whoami=0x140e0 wr=0 wrseen=0x27 addr=0x5a ok=271710 err=0 tmo=0 recov=4 pclk1=200000000 sysclk=400000000
1788556651.357505 [NAK] nacks=0
1788556651.362109 [CLK] cpu=800000000 sysb=400000000 pclk1=200000000
1788556651.366585 [TOF] res=0 step=0 id=0xeacc blk=0xeacc10 ctl=0x0
1788556651.372449 [RNG] init=0 step=99 id=0xeacc boot=1 calls=93 xerr=0 dm=1 tb=15
1788556651.379474 [RNG] osc=41 imp=881 imprb=881 mstart=0x40 cfg=91 cfgfail=0x0 vhv=0 vpolls=0
1788556651.385707 [PRT] calls=178281 xerr=0 ler=1 lidx=0x0 perr=0 maxcnt=17 addr8=0x52
1788556651.389741 [RTY] wr=0 wmax=0 wref=0  rd=0 rmax=0 rref=0
1788556651.397638 [RNG] frames=44541 last=40 min=28 max=58 nrdy=2 dxfer=0 dstat=0 lst=0 nrdyerr=0 dclr=0
1788556651.403822 [DRV] init=0 id=7 mode=0x1 lib=0x2 seq=0x1 odc=0x8b sts=0xe0 armed=1
1788556651.409362 [TRG] pulses=419 suppressed=5280 cyc=1600 rst=1 rstmode=0x40
1788556651.412716 [HLT] polls=890 faults=0x0 cfglost=0
1788556651.418460 [EFF] n=5 last=58539 min=58421 max=58540 late=0 stuck=0 rderr=0
1788556651.428834 [IMU] init=0 addr=0x68 who=0x68 rst=1 pmrb0=0x40 pmrb=0x1 sr=19 cfg=4 gcfg=0x0 acfg=0x8 icfg=0x30 ien=0x1 armed=1
1788556651.434097 [ACC] reads=44545 stale=44499 rderr=0 ax=54 ay=-73 az=1123
1788556651.436707 [PWR] pm=0x1 drift=0 rderr=0
1788556651.440993 [DWT] ok=1 cyc=1554412476 cyc_per_ms=799999
1788556652.456110 [HB] up_ms=985611 frames=44591 inf=44591 hazard=5699 canary_err=0 q=0 qovr=0
1788556652.467463 [I2C] init=0 gate=0 whoami=0x140e0 wr=0 wrseen=0x27 addr=0x5a ok=272012 err=0 tmo=0 recov=4 pclk1=200000000 sysclk=400000000
1788556652.468706 [NAK] nacks=0
1788556652.473360 [CLK] cpu=800000000 sysb=400000000 pclk1=200000000
1788556652.477857 [TOF] res=0 step=0 id=0xeacc blk=0xeacc10 ctl=0x0
1788556652.483715 [RNG] init=0 step=99 id=0xeacc boot=1 calls=93 xerr=0 dm=1 tb=15
1788556652.490708 [RNG] osc=41 imp=881 imprb=881 mstart=0x40 cfg=91 cfgfail=0x0 vhv=0 vpolls=0
1788556652.496973 [PRT] calls=178481 xerr=0 ler=1 lidx=0x0 perr=0 maxcnt=17 addr8=0x52
1788556652.501090 [RTY] wr=0 wmax=0 wref=0  rd=0 rmax=0 rref=0
1788556652.508839 [RNG] frames=44591 last=40 min=28 max=58 nrdy=2 dxfer=0 dstat=0 lst=0 nrdyerr=0 dclr=0
1788556652.515203 [DRV] init=0 id=7 mode=0x1 lib=0x2 seq=0x1 odc=0x8b sts=0xe0 armed=1
1788556652.520700 [TRG] pulses=419 suppressed=5280 cyc=1600 rst=1 rstmode=0x40
1788556652.524007 [HLT] polls=891 faults=0x0 cfglost=0
1788556652.529713 [EFF] n=5 last=58539 min=58421 max=58540 late=0 stuck=0 rderr=0
1788556652.540089 [IMU] init=0 addr=0x68 who=0x68 rst=1 pmrb0=0x40 pmrb=0x1 sr=19 cfg=4 gcfg=0x0 acfg=0x8 icfg=0x30 ien=0x1 armed=1
1788556652.545500 [ACC] reads=44595 stale=44549 rderr=0 ax=52 ay=-72 az=1126
1788556652.548090 [PWR] pm=0x1 drift=0 rderr=0
1788556652.552101 [DWT] ok=1 cyc=2436012152 cyc_per_ms=799999
1788556653.568111 [HB] up_ms=986713 frames=44641 inf=44641 hazard=5740 canary_err=0 q=0 qovr=0
1788556653.579333 [I2C] init=0 gate=0 whoami=0x140e0 wr=0 wrseen=0x27 addr=0x5a ok=272314 err=0 tmo=0 recov=4 pclk1=200000000 sysclk=400000000
1788556653.580695 [NAK] nacks=0
1788556653.585392 [CLK] cpu=800000000 sysb=400000000 pclk1=200000000
1788556653.589931 [TOF] res=0 step=0 id=0xeacc blk=0xeacc10 ctl=0x0
1788556653.595830 [RNG] init=0 step=99 id=0xeacc boot=1 calls=93 xerr=0 dm=1 tb=15
1788556653.602742 [RNG] osc=41 imp=881 imprb=881 mstart=0x40 cfg=91 cfgfail=0x0 vhv=0 vpolls=0
1788556653.608941 [PRT] calls=178681 xerr=0 ler=1 lidx=0x0 perr=0 maxcnt=17 addr8=0x52
1788556653.613149 [RTY] wr=0 wmax=0 wref=0  rd=0 rmax=0 rref=0
1788556653.620853 [RNG] frames=44641 last=50 min=28 max=58 nrdy=2 dxfer=0 dstat=0 lst=0 nrdyerr=0 dclr=0
1788556653.627211 [DRV] init=0 id=7 mode=0x1 lib=0x2 seq=0x1 odc=0x8b sts=0xe0 armed=1
1788556653.632685 [TRG] pulses=422 suppressed=5318 cyc=1600 rst=1 rstmode=0x40
1788556653.636053 [HLT] polls=892 faults=0x0 cfglost=0
1788556653.641809 [EFF] n=5 last=58539 min=58421 max=58540 late=0 stuck=0 rderr=0
1788556653.652110 [IMU] init=0 addr=0x68 who=0x68 rst=1 pmrb0=0x40 pmrb=0x1 sr=19 cfg=4 gcfg=0x0 acfg=0x8 icfg=0x30 ien=0x1 armed=1
1788556653.657474 [ACC] reads=44645 stale=44599 rderr=0 ax=53 ay=-74 az=1126
1788556653.660177 [PWR] pm=0x1 drift=0 rderr=0
1788556653.664065 [DWT] ok=1 cyc=3317612244 cyc_per_ms=800000
1788556654.679692 [HB] up_ms=987815 frames=44691 inf=44691 hazard=5740 canary_err=0 q=0 qovr=0
1788556654.690767 [I2C] init=0 gate=0 whoami=0x140e0 wr=0 wrseen=0x27 addr=0x5a ok=272616 err=0 tmo=0 recov=4 pclk1=200000000 sysclk=400000000
1788556654.692204 [NAK] nacks=0
1788556654.696825 [CLK] cpu=800000000 sysb=400000000 pclk1=200000000
1788556654.701323 [TOF] res=0 step=0 id=0xeacc blk=0xeacc10 ctl=0x0
1788556654.707287 [RNG] init=0 step=99 id=0xeacc boot=1 calls=93 xerr=0 dm=1 tb=15
1788556654.714118 [RNG] osc=41 imp=881 imprb=881 mstart=0x40 cfg=91 cfgfail=0x0 vhv=0 vpolls=0
1788556654.720446 [PRT] calls=178877 xerr=0 ler=1 lidx=0x0 perr=0 maxcnt=17 addr8=0x52
1788556654.724637 [RTY] wr=0 wmax=0 wref=0  rd=0 rmax=0 rref=0
1788556654.732331 [RNG] frames=44691 last=46 min=28 max=58 nrdy=2 dxfer=0 dstat=0 lst=0 nrdyerr=0 dclr=0
1788556654.738584 [DRV] init=0 id=7 mode=0x1 lib=0x2 seq=0x1 odc=0x8b sts=0xe0 armed=1
1788556654.744218 [TRG] pulses=422 suppressed=5318 cyc=1600 rst=1 rstmode=0x40
1788556654.747556 [HLT] polls=893 faults=0x0 cfglost=0
1788556654.753334 [EFF] n=5 last=58539 min=58421 max=58540 late=0 stuck=0 rderr=0
1788556654.763587 [IMU] init=0 addr=0x68 who=0x68 rst=1 pmrb0=0x40 pmrb=0x1 sr=19 cfg=4 gcfg=0x0 acfg=0x8 icfg=0x30 ien=0x1 armed=1
1788556654.768944 [ACC] reads=44695 stale=44649 rderr=0 ax=51 ay=-73 az=1126
1788556654.771562 [PWR] pm=0x1 drift=0 rderr=0
1788556654.775570 [DWT] ok=1 cyc=4199212184 cyc_per_ms=799999
1788556655.791317 [HB] up_ms=988917 frames=44741 inf=44741 hazard=5740 canary_err=0 q=0 qovr=0
1788556655.802456 [I2C] init=0 gate=0 whoami=0x140e0 wr=0 wrseen=0x27 addr=0x5a ok=272918 err=0 tmo=0 recov=4 pclk1=200000000 sysclk=400000000
1788556655.803721 [NAK] nacks=0
1788556655.808476 [CLK] cpu=800000000 sysb=400000000 pclk1=200000000
1788556655.813384 [TOF] res=0 step=0 id=0xeacc blk=0xeacc10 ctl=0x0
1788556655.818831 [RNG] init=0 step=99 id=0xeacc boot=1 calls=93 xerr=0 dm=1 tb=15
1788556655.825842 [RNG] osc=41 imp=881 imprb=881 mstart=0x40 cfg=91 cfgfail=0x0 vhv=0 vpolls=0
1788556655.832068 [PRT] calls=179077 xerr=0 ler=1 lidx=0x0 perr=0 maxcnt=17 addr8=0x52
1788556655.836178 [RTY] wr=0 wmax=0 wref=0  rd=0 rmax=0 rref=0
1788556655.843943 [RNG] frames=44741 last=37 min=28 max=58 nrdy=2 dxfer=0 dstat=0 lst=0 nrdyerr=0 dclr=0
1788556655.850199 [DRV] init=0 id=7 mode=0x1 lib=0x2 seq=0x1 odc=0x8b sts=0xe0 armed=1
1788556655.855816 [TRG] pulses=422 suppressed=5318 cyc=1600 rst=1 rstmode=0x40
1788556655.859225 [HLT] polls=894 faults=0x0 cfglost=0
1788556655.864930 [EFF] n=5 last=58539 min=58421 max=58540 late=0 stuck=0 rderr=0
1788556655.875325 [IMU] init=0 addr=0x68 who=0x68 rst=1 pmrb0=0x40 pmrb=0x1 sr=19 cfg=4 gcfg=0x0 acfg=0x8 icfg=0x30 ien=0x1 armed=1
1788556655.880691 [ACC] reads=44745 stale=44699 rderr=0 ax=50 ay=-75 az=1124
1788556655.883302 [PWR] pm=0x1 drift=0 rderr=0
1788556655.887186 [DWT] ok=1 cyc=785845080 cyc_per_ms=800000
1788556656.903314 [HB] up_ms=990019 frames=44790 inf=44790 hazard=5740 canary_err=0 q=0 qovr=0
1788556656.914431 [I2C] init=0 gate=0 whoami=0x140e0 wr=0 wrseen=0x27 addr=0x5a ok=273220 err=0 tmo=0 recov=4 pclk1=200000000 sysclk=400000000
1788556656.915805 [NAK] nacks=0
1788556656.920414 [CLK] cpu=800000000 sysb=400000000 pclk1=200000000
1788556656.925176 [TOF] res=0 step=0 id=0xeacc blk=0xeacc10 ctl=0x0
1788556656.930798 [RNG] init=0 step=99 id=0xeacc boot=1 calls=93 xerr=0 dm=1 tb=15
1788556656.937792 [RNG] osc=41 imp=881 imprb=881 mstart=0x40 cfg=91 cfgfail=0x0 vhv=0 vpolls=0
1788556656.944069 [PRT] calls=179277 xerr=0 ler=1 lidx=0x0 perr=0 maxcnt=17 addr8=0x52
1788556656.948179 [RTY] wr=0 wmax=0 wref=0  rd=0 rmax=0 rref=0
1788556656.955939 [RNG] frames=44791 last=44 min=28 max=58 nrdy=2 dxfer=0 dstat=0 lst=0 nrdyerr=0 dclr=0
1788556656.962202 [DRV] init=0 id=7 mode=0x1 lib=0x2 seq=0x1 odc=0x8b sts=0xe0 armed=1
1788556656.967808 [TRG] pulses=422 suppressed=5318 cyc=1600 rst=1 rstmode=0x40
1788556656.971192 [HLT] polls=895 faults=0x0 cfglost=0
1788556656.977026 [EFF] n=5 last=58539 min=58421 max=58540 late=0 stuck=0 rderr=0
1788556656.987069 [IMU] init=0 addr=0x68 who=0x68 rst=1 pmrb0=0x40 pmrb=0x1 sr=19 cfg=4 gcfg=0x0 acfg=0x8 icfg=0x30 ien=0x1 armed=1
1788556656.992659 [ACC] reads=44794 stale=44748 rderr=0 ax=51 ay=-74 az=1125
1788556656.995206 [PWR] pm=0x1 drift=0 rderr=0
1788556656.999185 [DWT] ok=1 cyc=1667578082 cyc_per_ms=800120
1788556658.015451 [HB] up_ms=991122 frames=44840 inf=44840 hazard=5740 canary_err=0 q=0 qovr=0
1788556658.026602 [I2C] init=0 gate=0 whoami=0x140e0 wr=0 wrseen=0x27 addr=0x5a ok=273522 err=0 tmo=0 recov=4 pclk1=200000000 sysclk=400000000
1788556658.028120 [NAK] nacks=0
1788556658.032539 [CLK] cpu=800000000 sysb=400000000 pclk1=200000000
1788556658.037194 [TOF] res=0 step=0 id=0xeacc blk=0xeacc10 ctl=0x0
1788556658.042956 [RNG] init=0 step=99 id=0xeacc boot=1 calls=93 xerr=0 dm=1 tb=15
1788556658.049927 [RNG] osc=41 imp=881 imprb=881 mstart=0x40 cfg=91 cfgfail=0x0 vhv=0 vpolls=0
1788556658.056039 [PRT] calls=179477 xerr=0 ler=1 lidx=0x0 perr=0 maxcnt=17 addr8=0x52
1788556658.060325 [RTY] wr=0 wmax=0 wref=0  rd=0 rmax=0 rref=0
1788556658.068061 [RNG] frames=44841 last=50 min=28 max=58 nrdy=2 dxfer=0 dstat=0 lst=0 nrdyerr=0 dclr=0
1788556658.074358 [DRV] init=0 id=7 mode=0x1 lib=0x2 seq=0x1 odc=0x8b sts=0xe0 armed=1
1788556658.079723 [TRG] pulses=422 suppressed=5318 cyc=1600 rst=1 rstmode=0x40
1788556658.083310 [HLT] polls=896 faults=0x0 cfglost=0
1788556658.089047 [EFF] n=5 last=58539 min=58421 max=58540 late=0 stuck=0 rderr=0
1788556658.099175 [IMU] init=0 addr=0x68 who=0x68 rst=1 pmrb0=0x40 pmrb=0x1 sr=19 cfg=4 gcfg=0x0 acfg=0x8 icfg=0x30 ien=0x1 armed=1
1788556658.104552 [ACC] reads=44844 stale=44798 rderr=0 ax=51 ay=-71 az=1129
1788556658.107326 [PWR] pm=0x1 drift=0 rderr=0
1788556658.111338 [DWT] ok=1 cyc=2549979082 cyc_per_ms=800000
1788556659.127368 [HB] up_ms=992225 frames=44890 inf=44890 hazard=5740 canary_err=0 q=0 qovr=0
1788556659.138439 [I2C] init=0 gate=0 whoami=0x140e0 wr=0 wrseen=0x27 addr=0x5a ok=273824 err=0 tmo=0 recov=4 pclk1=200000000 sysclk=400000000
1788556659.139808 [NAK] nacks=0
1788556659.144437 [CLK] cpu=800000000 sysb=400000000 pclk1=200000000
1788556659.149039 [TOF] res=0 step=0 id=0xeacc blk=0xeacc10 ctl=0x0
1788556659.154925 [RNG] init=0 step=99 id=0xeacc boot=1 calls=93 xerr=0 dm=1 tb=15
1788556659.161813 [RNG] osc=41 imp=881 imprb=881 mstart=0x40 cfg=91 cfgfail=0x0 vhv=0 vpolls=0
1788556659.168046 [PRT] calls=179677 xerr=0 ler=1 lidx=0x0 perr=0 maxcnt=17 addr8=0x52
1788556659.172171 [RTY] wr=0 wmax=0 wref=0  rd=0 rmax=0 rref=0
1788556659.180137 [RNG] frames=44890 last=45 min=28 max=58 nrdy=2 dxfer=0 dstat=0 lst=0 nrdyerr=0 dclr=0
1788556659.186194 [DRV] init=0 id=7 mode=0x1 lib=0x2 seq=0x1 odc=0x8b sts=0xe0 armed=1
1788556659.191710 [TRG] pulses=422 suppressed=5318 cyc=1600 rst=1 rstmode=0x40
1788556659.195199 [HLT] polls=897 faults=0x0 cfglost=0
1788556659.200923 [EFF] n=5 last=58539 min=58421 max=58540 late=0 stuck=0 rderr=0
1788556659.211209 [IMU] init=0 addr=0x68 who=0x68 rst=1 pmrb0=0x40 pmrb=0x1 sr=19 cfg=4 gcfg=0x0 acfg=0x8 icfg=0x30 ien=0x1 armed=1
1788556659.216405 [ACC] reads=44894 stale=44848 rderr=0 ax=52 ay=-72 az=1127
1788556659.219150 [PWR] pm=0x1 drift=0 rderr=0
1788556659.223154 [DWT] ok=1 cyc=3432366534 cyc_per_ms=799988
1788556660.239431 [HB] up_ms=993328 frames=44940 inf=44940 hazard=5760 canary_err=0 q=0 qovr=0
1788556660.250660 [I2C] init=0 gate=0 whoami=0x140e0 wr=0 wrseen=0x27 addr=0x5a ok=274122 err=0 tmo=0 recov=4 pclk1=200000000 sysclk=400000000
1788556660.252036 [NAK] nacks=0
1788556660.256712 [CLK] cpu=800000000 sysb=400000000 pclk1=200000000
1788556660.261190 [TOF] res=0 step=0 id=0xeacc blk=0xeacc10 ctl=0x0
1788556660.267192 [RNG] init=0 step=99 id=0xeacc boot=1 calls=93 xerr=0 dm=1 tb=15
1788556660.274060 [RNG] osc=41 imp=881 imprb=881 mstart=0x40 cfg=91 cfgfail=0x0 vhv=0 vpolls=0
1788556660.280300 [PRT] calls=179877 xerr=0 ler=1 lidx=0x0 perr=0 maxcnt=17 addr8=0x52
1788556660.284327 [RTY] wr=0 wmax=0 wref=0  rd=0 rmax=0 rref=0
1788556660.292342 [RNG] frames=44940 last=40 min=28 max=58 nrdy=2 dxfer=0 dstat=0 lst=0 nrdyerr=0 dclr=0
1788556660.298425 [DRV] init=0 id=7 mode=0x1 lib=0x2 seq=0x1 odc=0x8b sts=0xe0 armed=1
1788556660.303913 [TRG] pulses=424 suppressed=5339 cyc=1600 rst=1 rstmode=0x40
1788556660.307336 [HLT] polls=898 faults=0x0 cfglost=0
1788556660.313198 [EFF] n=5 last=58539 min=58421 max=58540 late=0 stuck=0 rderr=0
1788556660.323426 [IMU] init=0 addr=0x68 who=0x68 rst=1 pmrb0=0x40 pmrb=0x1 sr=19 cfg=4 gcfg=0x0 acfg=0x8 icfg=0x30 ien=0x1 armed=1
1788556660.328676 [ACC] reads=44944 stale=44898 rderr=0 ax=54 ay=-73 az=1128
1788556660.331300 [PWR] pm=0x1 drift=0 rderr=0
1788556660.335303 [DWT] ok=1 cyc=19703354 cyc_per_ms=799913
1788556661.350548 [HB] up_ms=994430 frames=44990 inf=44990 hazard=5781 canary_err=0 q=0 qovr=0
1788556661.361911 [I2C] init=0 gate=0 whoami=0x140e0 wr=0 wrseen=0x27 addr=0x5a ok=274422 err=0 tmo=0 recov=4 pclk1=200000000 sysclk=400000000
1788556661.363244 [NAK] nacks=0
1788556661.367790 [CLK] cpu=800000000 sysb=400000000 pclk1=200000000
1788556661.372290 [TOF] res=0 step=0 id=0xeacc blk=0xeacc10 ctl=0x0
1788556661.378296 [RNG] init=0 step=99 id=0xeacc boot=1 calls=93 xerr=0 dm=1 tb=15
1788556661.385214 [RNG] osc=41 imp=881 imprb=881 mstart=0x40 cfg=91 cfgfail=0x0 vhv=0 vpolls=0
1788556661.391423 [PRT] calls=180077 xerr=0 ler=1 lidx=0x0 perr=0 maxcnt=17 addr8=0x52
1788556661.395427 [RTY] wr=0 wmax=0 wref=0  rd=0 rmax=0 rref=0
1788556661.403442 [RNG] frames=44990 last=45 min=28 max=58 nrdy=2 dxfer=0 dstat=0 lst=0 nrdyerr=0 dclr=0
1788556661.409656 [DRV] init=0 id=7 mode=0x1 lib=0x2 seq=0x1 odc=0x8b sts=0xe0 armed=1
1788556661.415047 [TRG] pulses=425 suppressed=5356 cyc=1600 rst=1 rstmode=0x40
1788556661.418422 [HLT] polls=899 faults=0x0 cfglost=0
1788556661.424449 [EFF] n=5 last=58539 min=58421 max=58540 late=0 stuck=0 rderr=0
1788556661.434548 [IMU] init=0 addr=0x68 who=0x68 rst=1 pmrb0=0x40 pmrb=0x1 sr=19 cfg=4 gcfg=0x0 acfg=0x8 icfg=0x30 ien=0x1 armed=1
1788556661.439904 [ACC] reads=44994 stale=44948 rderr=0 ax=52 ay=-73 az=1125
1788556661.442542 [PWR] pm=0x1 drift=0 rderr=0
1788556661.446442 [DWT] ok=1 cyc=901277708 cyc_per_ms=799976
1788556662.461922 [HB] up_ms=995532 frames=45040 inf=45040 hazard=5781 canary_err=0 q=0 qovr=0
1788556662.473202 [I2C] init=0 gate=0 whoami=0x140e0 wr=0 wrseen=0x27 addr=0x5a ok=274724 err=0 tmo=0 recov=4 pclk1=200000000 sysclk=400000000
1788556662.474577 [NAK] nacks=0
1788556662.479184 [CLK] cpu=800000000 sysb=400000000 pclk1=200000000
1788556662.483653 [TOF] res=0 step=0 id=0xeacc blk=0xeacc10 ctl=0x0
1788556662.489533 [RNG] init=0 step=99 id=0xeacc boot=1 calls=93 xerr=0 dm=1 tb=15
1788556662.496538 [RNG] osc=41 imp=881 imprb=881 mstart=0x40 cfg=91 cfgfail=0x0 vhv=0 vpolls=0
1788556662.502775 [PRT] calls=180277 xerr=0 ler=1 lidx=0x0 perr=0 maxcnt=17 addr8=0x52
1788556662.506890 [RTY] wr=0 wmax=0 wref=0  rd=0 rmax=0 rref=0
1788556662.514798 [RNG] frames=45040 last=39 min=28 max=58 nrdy=2 dxfer=0 dstat=0 lst=0 nrdyerr=0 dclr=0
1788556662.520913 [DRV] init=0 id=7 mode=0x1 lib=0x2 seq=0x1 odc=0x8b sts=0xe0 armed=1
1788556662.526453 [TRG] pulses=425 suppressed=5356 cyc=1600 rst=1 rstmode=0x40
1788556662.529783 [HLT] polls=900 faults=0x0 cfglost=0
1788556662.535527 [EFF] n=5 last=58539 min=58421 max=58540 late=0 stuck=0 rderr=0
1788556662.545934 [IMU] init=0 addr=0x68 who=0x68 rst=1 pmrb0=0x40 pmrb=0x1 sr=19 cfg=4 gcfg=0x0 acfg=0x8 icfg=0x30 ien=0x1 armed=1
1788556662.551195 [ACC] reads=45044 stale=44998 rderr=0 ax=52 ay=-72 az=1128
1788556662.553912 [PWR] pm=0x1 drift=0 rderr=0
1788556662.557792 [DWT] ok=1 cyc=1782877612 cyc_per_ms=799999
1788556663.573043 [HB] up_ms=996634 frames=45090 inf=45090 hazard=5781 canary_err=0 q=0 qovr=0
1788556663.584275 [I2C] init=0 gate=0 whoami=0x140e0 wr=0 wrseen=0x27 addr=0x5a ok=275026 err=0 tmo=0 recov=4 pclk1=200000000 sysclk=400000000
1788556663.585644 [NAK] nacks=0
1788556663.590290 [CLK] cpu=800000000 sysb=400000000 pclk1=200000000
1788556663.594779 [TOF] res=0 step=0 id=0xeacc blk=0xeacc10 ctl=0x0
1788556663.600559 [RNG] init=0 step=99 id=0xeacc boot=1 calls=93 xerr=0 dm=1 tb=15
1788556663.607734 [RNG] osc=41 imp=881 imprb=881 mstart=0x40 cfg=91 cfgfail=0x0 vhv=0 vpolls=0
1788556663.613825 [PRT] calls=180477 xerr=0 ler=1 lidx=0x0 perr=0 maxcnt=17 addr8=0x52
1788556663.617903 [RTY] wr=0 wmax=0 wref=0  rd=0 rmax=0 rref=0
1788556663.625707 [RNG] frames=45090 last=40 min=28 max=58 nrdy=2 dxfer=0 dstat=0 lst=0 nrdyerr=0 dclr=0
1788556663.632025 [DRV] init=0 id=7 mode=0x1 lib=0x2 seq=0x1 odc=0x8b sts=0xe0 armed=1
1788556663.637527 [TRG] pulses=425 suppressed=5356 cyc=1600 rst=1 rstmode=0x40
1788556663.640928 [HLT] polls=901 faults=0x0 cfglost=0
1788556663.646652 [EFF] n=5 last=58539 min=58421 max=58540 late=0 stuck=0 rderr=0
1788556663.656938 [IMU] init=0 addr=0x68 who=0x68 rst=1 pmrb0=0x40 pmrb=0x1 sr=19 cfg=4 gcfg=0x0 acfg=0x8 icfg=0x30 ien=0x1 armed=1
1788556663.662295 [ACC] reads=45094 stale=45048 rderr=0 ax=50 ay=-72 az=1126
1788556663.664900 [PWR] pm=0x1 drift=0 rderr=0
1788556663.668907 [DWT] ok=1 cyc=2664477604 cyc_per_ms=799999
1788556664.684295 [HB] up_ms=997736 frames=45140 inf=45140 hazard=5781 canary_err=0 q=0 qovr=0
1788556664.695522 [I2C] init=0 gate=0 whoami=0x140e0 wr=0 wrseen=0x27 addr=0x5a ok=275328 err=0 tmo=0 recov=4 pclk1=200000000 sysclk=400000000
1788556664.696904 [NAK] nacks=0
1788556664.701532 [CLK] cpu=800000000 sysb=400000000 pclk1=200000000
1788556664.706018 [TOF] res=0 step=0 id=0xeacc blk=0xeacc10 ctl=0x0
1788556664.711968 [RNG] init=0 step=99 id=0xeacc boot=1 calls=93 xerr=0 dm=1 tb=15
1788556664.718910 [RNG] osc=41 imp=881 imprb=881 mstart=0x40 cfg=91 cfgfail=0x0 vhv=0 vpolls=0
1788556664.725427 [PRT] calls=180677 xerr=0 ler=1 lidx=0x0 perr=0 maxcnt=17 addr8=0x52
1788556664.729277 [RTY] wr=0 wmax=0 wref=0  rd=0 rmax=0 rref=0
1788556664.737043 [RNG] frames=45140 last=42 min=28 max=58 nrdy=2 dxfer=0 dstat=0 lst=0 nrdyerr=0 dclr=0
1788556664.743444 [DRV] init=0 id=7 mode=0x1 lib=0x2 seq=0x1 odc=0x8b sts=0xe0 armed=1
1788556664.748791 [TRG] pulses=425 suppressed=5356 cyc=1600 rst=1 rstmode=0x40
1788556664.752299 [HLT] polls=902 faults=0x0 cfglost=0
1788556664.758005 [EFF] n=5 last=58539 min=58421 max=58540 late=0 stuck=0 rderr=0
1788556664.768283 [IMU] init=0 addr=0x68 who=0x68 rst=1 pmrb0=0x40 pmrb=0x1 sr=19 cfg=4 gcfg=0x0 acfg=0x8 icfg=0x30 ien=0x1 armed=1
1788556664.773734 [ACC] reads=45144 stale=45097 rderr=0 ax=52 ay=-74 az=1124
1788556664.776846 [PWR] pm=0x1 drift=0 rderr=0
1788556664.780274 [DWT] ok=1 cyc=3546077576 cyc_per_ms=799999
1788556665.795477 [HB] up_ms=998838 frames=45190 inf=45190 hazard=5781 canary_err=0 q=0 qovr=0
1788556665.806532 [I2C] init=0 gate=0 whoami=0x140e0 wr=0 wrseen=0x27 addr=0x5a ok=275630 err=0 tmo=0 recov=4 pclk1=200000000 sysclk=400000000
1788556665.808013 [NAK] nacks=0
1788556665.813330 [CLK] cpu=800000000 sysb=400000000 pclk1=200000000
1788556665.817034 [TOF] res=0 step=0 id=0xeacc blk=0xeacc10 ctl=0x0
1788556665.822901 [RNG] init=0 step=99 id=0xeacc boot=1 calls=93 xerr=0 dm=1 tb=15
1788556665.829921 [RNG] osc=41 imp=881 imprb=881 mstart=0x40 cfg=91 cfgfail=0x0 vhv=0 vpolls=0
1788556665.836145 [PRT] calls=180874 xerr=0 ler=1 lidx=0x0 perr=0 maxcnt=17 addr8=0x52
1788556665.840220 [RTY] wr=0 wmax=0 wref=0  rd=0 rmax=0 rref=0
1788556665.847881 [RNG] frames=45190 last=38 min=28 max=58 nrdy=2 dxfer=0 dstat=0 lst=0 nrdyerr=0 dclr=0
1788556665.854268 [DRV] init=0 id=7 mode=0x1 lib=0x2 seq=0x1 odc=0x8b sts=0xe0 armed=1
1788556665.859785 [TRG] pulses=425 suppressed=5356 cyc=1600 rst=1 rstmode=0x40
1788556665.863186 [HLT] polls=903 faults=0x0 cfglost=0
1788556665.868903 [EFF] n=5 last=58539 min=58421 max=58540 late=0 stuck=0 rderr=0
1788556665.879205 [IMU] init=0 addr=0x68 who=0x68 rst=1 pmrb0=0x40 pmrb=0x1 sr=19 cfg=4 gcfg=0x0 acfg=0x8 icfg=0x30 ien=0x1 armed=1
1788556665.884623 [ACC] reads=45194 stale=45147 rderr=0 ax=52 ay=-74 az=1126
1788556665.887175 [PWR] pm=0x1 drift=0 rderr=0
1788556665.891034 [DWT] ok=1 cyc=132710668 cyc_per_ms=800000
1788556666.905521 [HB] up_ms=999940 frames=45240 inf=45240 hazard=5781 canary_err=0 q=0 qovr=0
1788556666.916795 [I2C] init=0 gate=0 whoami=0x140e0 wr=0 wrseen=0x27 addr=0x5a ok=275932 err=0 tmo=0 recov=4 pclk1=200000000 sysclk=400000000
1788556666.918021 [NAK] nacks=0
1788556666.922796 [CLK] cpu=800000000 sysb=400000000 pclk1=200000000
1788556666.927313 [TOF] res=0 step=0 id=0xeacc blk=0xeacc10 ctl=0x0
1788556666.933154 [RNG] init=0 step=99 id=0xeacc boot=1 calls=93 xerr=0 dm=1 tb=15
1788556666.940009 [RNG] osc=41 imp=881 imprb=881 mstart=0x40 cfg=91 cfgfail=0x0 vhv=0 vpolls=0
1788556666.946638 [PRT] calls=181073 xerr=0 ler=1 lidx=0x0 perr=0 maxcnt=17 addr8=0x52
1788556666.950382 [RTY] wr=0 wmax=0 wref=0  rd=0 rmax=0 rref=0
1788556666.958281 [RNG] frames=45240 last=43 min=28 max=58 nrdy=2 dxfer=0 dstat=0 lst=0 nrdyerr=0 dclr=0
1788556666.964399 [DRV] init=0 id=7 mode=0x1 lib=0x2 seq=0x1 odc=0x8b sts=0xe0 armed=1
1788556666.970022 [TRG] pulses=426 suppressed=5357 cyc=1600 rst=1 rstmode=0x40
1788556666.973391 [HLT] polls=904 faults=0x0 cfglost=0
1788556666.979195 [EFF] n=5 last=58539 min=58421 max=58540 late=0 stuck=0 rderr=0
1788556666.989527 [IMU] init=0 addr=0x68 who=0x68 rst=1 pmrb0=0x40 pmrb=0x1 sr=19 cfg=4 gcfg=0x0 acfg=0x8 icfg=0x30 ien=0x1 armed=1
1788556666.994804 [ACC] reads=45244 stale=45197 rderr=0 ax=52 ay=-69 az=1126
1788556666.997373 [PWR] pm=0x1 drift=0 rderr=0
1788556667.001376 [DWT] ok=1 cyc=1014316664 cyc_per_ms=800005
1788556668.016042 [HB] up_ms=1001042 frames=45290 inf=45290 hazard=5822 canary_err=0 q=0 qovr=0
1788556668.027285 [I2C] init=0 gate=0 whoami=0x140e0 wr=0 wrseen=0x27 addr=0x5a ok=276234 err=0 tmo=0 recov=4 pclk1=200000000 sysclk=400000000
1788556668.028420 [NAK] nacks=0
1788556668.033173 [CLK] cpu=800000000 sysb=400000000 pclk1=200000000
1788556668.037655 [TOF] res=0 step=0 id=0xeacc blk=0xeacc10 ctl=0x0
1788556668.043534 [RNG] init=0 step=99 id=0xeacc boot=1 calls=93 xerr=0 dm=1 tb=15
1788556668.050391 [RNG] osc=41 imp=881 imprb=881 mstart=0x40 cfg=91 cfgfail=0x0 vhv=0 vpolls=0
1788556668.056757 [PRT] calls=181273 xerr=0 ler=1 lidx=0x0 perr=0 maxcnt=17 addr8=0x52
1788556668.060889 [RTY] wr=0 wmax=0 wref=0  rd=0 rmax=0 rref=0
1788556668.068648 [RNG] frames=45290 last=43 min=28 max=58 nrdy=2 dxfer=0 dstat=0 lst=0 nrdyerr=0 dclr=0
1788556668.074946 [DRV] init=0 id=7 mode=0x1 lib=0x2 seq=0x1 odc=0x8b sts=0xe0 armed=1
1788556668.080546 [TRG] pulses=428 suppressed=5394 cyc=1600 rst=1 rstmode=0x40
1788556668.083878 [HLT] polls=905 faults=0x0 cfglost=0
1788556668.089627 [EFF] n=5 last=58539 min=58421 max=58540 late=0 stuck=0 rderr=0
1788556668.099765 [IMU] init=0 addr=0x68 who=0x68 rst=1 pmrb0=0x40 pmrb=0x1 sr=19 cfg=4 gcfg=0x0 acfg=0x8 icfg=0x30 ien=0x1 armed=1
1788556668.105265 [ACC] reads=45293 stale=45246 rderr=0 ax=54 ay=-73 az=1124
1788556668.108118 [PWR] pm=0x1 drift=0 rderr=0
1788556668.111875 [DWT] ok=1 cyc=1896008496 cyc_per_ms=800083
1788556669.127530 [HB] up_ms=1002145 frames=45339 inf=45339 hazard=5822 canary_err=0 q=0 qovr=0
1788556669.138657 [I2C] init=0 gate=0 whoami=0x140e0 wr=0 wrseen=0x27 addr=0x5a ok=276536 err=0 tmo=0 recov=4 pclk1=200000000 sysclk=400000000
1788556669.140004 [NAK] nacks=0
1788556669.144656 [CLK] cpu=800000000 sysb=400000000 pclk1=200000000
1788556669.149319 [TOF] res=0 step=0 id=0xeacc blk=0xeacc10 ctl=0x0
1788556669.155137 [RNG] init=0 step=99 id=0xeacc boot=1 calls=93 xerr=0 dm=1 tb=15
1788556669.162005 [RNG] osc=41 imp=881 imprb=881 mstart=0x40 cfg=91 cfgfail=0x0 vhv=0 vpolls=0
1788556669.168272 [PRT] calls=181473 xerr=0 ler=1 lidx=0x0 perr=0 maxcnt=17 addr8=0x52
1788556669.172379 [RTY] wr=0 wmax=0 wref=0  rd=0 rmax=0 rref=0
1788556669.180218 [RNG] frames=45340 last=40 min=28 max=58 nrdy=2 dxfer=0 dstat=0 lst=0 nrdyerr=0 dclr=0
1788556669.186451 [DRV] init=0 id=7 mode=0x1 lib=0x2 seq=0x1 odc=0x8b sts=0xe0 armed=1
1788556669.192013 [TRG] pulses=428 suppressed=5394 cyc=1600 rst=1 rstmode=0x40
1788556669.195395 [HLT] polls=906 faults=0x0 cfglost=0
1788556669.201164 [EFF] n=5 last=58539 min=58421 max=58540 late=0 stuck=0 rderr=0
1788556669.211273 [IMU] init=0 addr=0x68 who=0x68 rst=1 pmrb0=0x40 pmrb=0x1 sr=19 cfg=4 gcfg=0x0 acfg=0x8 icfg=0x30 ien=0x1 armed=1
1788556669.216759 [ACC] reads=45343 stale=45296 rderr=0 ax=52 ay=-72 az=1129
1788556669.219386 [PWR] pm=0x1 drift=0 rderr=0
1788556669.223460 [DWT] ok=1 cyc=2778513590 cyc_per_ms=800095
1788556670.239013 [HB] up_ms=1003248 frames=45389 inf=45389 hazard=5822 canary_err=0 q=0 qovr=0
1788556670.250196 [I2C] init=0 gate=0 whoami=0x140e0 wr=0 wrseen=0x27 addr=0x5a ok=276838 err=0 tmo=0 recov=4 pclk1=200000000 sysclk=400000000
1788556670.251518 [NAK] nacks=0
1788556670.256114 [CLK] cpu=800000000 sysb=400000000 pclk1=200000000
1788556670.260805 [TOF] res=0 step=0 id=0xeacc blk=0xeacc10 ctl=0x0
1788556670.266528 [RNG] init=0 step=99 id=0xeacc boot=1 calls=93 xerr=0 dm=1 tb=15
1788556670.273390 [RNG] osc=41 imp=881 imprb=881 mstart=0x40 cfg=91 cfgfail=0x0 vhv=0 vpolls=0
1788556670.279625 [PRT] calls=181673 xerr=0 ler=1 lidx=0x0 perr=0 maxcnt=17 addr8=0x52
1788556670.283978 [RTY] wr=0 wmax=0 wref=0  rd=0 rmax=0 rref=0
1788556670.291620 [RNG] frames=45390 last=37 min=28 max=58 nrdy=2 dxfer=0 dstat=0 lst=0 nrdyerr=0 dclr=0
1788556670.297742 [DRV] init=0 id=7 mode=0x1 lib=0x2 seq=0x1 odc=0x8b sts=0xe0 armed=1
1788556670.303258 [TRG] pulses=428 suppressed=5394 cyc=1600 rst=1 rstmode=0x40
1788556670.306728 [HLT] polls=907 faults=0x0 cfglost=0
1788556670.312484 [EFF] n=5 last=58539 min=58421 max=58540 late=0 stuck=0 rderr=0
1788556670.322740 [IMU] init=0 addr=0x68 who=0x68 rst=1 pmrb0=0x40 pmrb=0x1 sr=19 cfg=4 gcfg=0x0 acfg=0x8 icfg=0x30 ien=0x1 armed=1
1788556670.328187 [ACC] reads=45393 stale=45346 rderr=0 ax=54 ay=-72 az=1127
1788556670.330757 [PWR] pm=0x1 drift=0 rderr=0
1788556670.334764 [DWT] ok=1 cyc=3660914594 cyc_per_ms=800000
1788556671.350364 [HB] up_ms=1004351 frames=45439 inf=45439 hazard=5822 canary_err=0 q=0 qovr=0
1788556671.361513 [I2C] init=0 gate=0 whoami=0x140e0 wr=0 wrseen=0x27 addr=0x5a ok=277140 err=0 tmo=0 recov=4 pclk1=200000000 sysclk=400000000
1788556671.362870 [NAK] nacks=0
1788556671.367499 [CLK] cpu=800000000 sysb=400000000 pclk1=200000000
1788556671.372139 [TOF] res=0 step=0 id=0xeacc blk=0xeacc10 ctl=0x0
1788556671.377979 [RNG] init=0 step=99 id=0xeacc boot=1 calls=93 xerr=0 dm=1 tb=15
1788556671.384879 [RNG] osc=41 imp=881 imprb=881 mstart=0x40 cfg=91 cfgfail=0x0 vhv=0 vpolls=0
1788556671.390999 [PRT] calls=181873 xerr=0 ler=1 lidx=0x0 perr=0 maxcnt=17 addr8=0x52
1788556671.395272 [RTY] wr=0 wmax=0 wref=0  rd=0 rmax=0 rref=0
1788556671.403160 [RNG] frames=45439 last=37 min=28 max=58 nrdy=2 dxfer=0 dstat=0 lst=0 nrdyerr=0 dclr=0
1788556671.409236 [DRV] init=0 id=7 mode=0x1 lib=0x2 seq=0x1 odc=0x8b sts=0xe0 armed=1
1788556671.414753 [TRG] pulses=428 suppressed=5394 cyc=1600 rst=1 rstmode=0x40
1788556671.418262 [HLT] polls=908 faults=0x0 cfglost=0
1788556671.424006 [EFF] n=5 last=58539 min=58421 max=58540 late=0 stuck=0 rderr=0
1788556671.434283 [IMU] init=0 addr=0x68 who=0x68 rst=1 pmrb0=0x40 pmrb=0x1 sr=19 cfg=4 gcfg=0x0 acfg=0x8 icfg=0x30 ien=0x1 armed=1
1788556671.439528 [ACC] reads=45443 stale=45396 rderr=0 ax=53 ay=-73 az=1125
1788556671.442277 [PWR] pm=0x1 drift=0 rderr=0
1788556671.446300 [DWT] ok=1 cyc=248335322 cyc_per_ms=799989
1788556672.461876 [HB] up_ms=1005454 frames=45489 inf=45489 hazard=5822 canary_err=0 q=0 qovr=0
1788556672.473137 [I2C] init=0 gate=0 whoami=0x140e0 wr=0 wrseen=0x27 addr=0x5a ok=277438 err=0 tmo=0 recov=4 pclk1=200000000 sysclk=400000000
1788556672.474418 [NAK] nacks=0
1788556672.478976 [CLK] cpu=800000000 sysb=400000000 pclk1=200000000
1788556672.483492 [TOF] res=0 step=0 id=0xeacc blk=0xeacc10 ctl=0x0
1788556672.489499 [RNG] init=0 step=99 id=0xeacc boot=1 calls=93 xerr=0 dm=1 tb=15
1788556672.496380 [RNG] osc=41 imp=881 imprb=881 mstart=0x40 cfg=91 cfgfail=0x0 vhv=0 vpolls=0
1788556672.502625 [PRT] calls=182073 xerr=0 ler=1 lidx=0x0 perr=0 maxcnt=17 addr8=0x52
1788556672.506618 [RTY] wr=0 wmax=0 wref=0  rd=0 rmax=0 rref=0
1788556672.514636 [RNG] frames=45489 last=45 min=28 max=58 nrdy=2 dxfer=0 dstat=0 lst=0 nrdyerr=0 dclr=0
1788556672.520748 [DRV] init=0 id=7 mode=0x1 lib=0x2 seq=0x1 odc=0x8b sts=0xe0 armed=1
1788556672.526329 [TRG] pulses=428 suppressed=5394 cyc=1600 rst=1 rstmode=0x40
1788556672.529669 [HLT] polls=909 faults=0x0 cfglost=0
1788556672.535486 [EFF] n=5 last=58539 min=58421 max=58540 late=0 stuck=0 rderr=0
1788556672.545730 [IMU] init=0 addr=0x68 who=0x68 rst=1 pmrb0=0x40 pmrb=0x1 sr=19 cfg=4 gcfg=0x0 acfg=0x8 icfg=0x30 ien=0x1 armed=1
1788556672.550988 [ACC] reads=45493 stale=45446 rderr=0 ax=50 ay=-72 az=1124
1788556672.553604 [PWR] pm=0x1 drift=0 rderr=0
1788556672.557898 [DWT] ok=1 cyc=1130635098 cyc_per_ms=799909
1788556673.573249 [HB] up_ms=1006557 frames=45539 inf=45539 hazard=5822 canary_err=0 q=0 qovr=0
1788556673.584478 [I2C] init=0 gate=0 whoami=0x140e0 wr=0 wrseen=0x27 addr=0x5a ok=277738 err=0 tmo=0 recov=4 pclk1=200000000 sysclk=400000000
1788556673.585849 [NAK] nacks=0
1788556673.590478 [CLK] cpu=800000000 sysb=400000000 pclk1=200000000
1788556673.595018 [TOF] res=0 step=0 id=0xeacc blk=0xeacc10 ctl=0x0
1788556673.601596 [RNG] init=0 step=99 id=0xeacc boot=1 calls=93 xerr=0 dm=1 tb=15
1788556673.607877 [RNG] osc=41 imp=881 imprb=881 mstart=0x40 cfg=91 cfgfail=0x0 vhv=0 vpolls=0
1788556673.614016 [PRT] calls=182273 xerr=0 ler=1 lidx=0x0 perr=0 maxcnt=17 addr8=0x52
1788556673.618157 [RTY] wr=0 wmax=0 wref=0  rd=0 rmax=0 rref=0
1788556673.626029 [RNG] frames=45539 last=41 min=28 max=58 nrdy=2 dxfer=0 dstat=0 lst=0 nrdyerr=0 dclr=0
1788556673.632238 [DRV] init=0 id=7 mode=0x1 lib=0x2 seq=0x1 odc=0x8b sts=0xe0 armed=1
1788556673.637743 [TRG] pulses=428 suppressed=5394 cyc=1600 rst=1 rstmode=0x40
1788556673.641177 [HLT] polls=910 faults=0x0 cfglost=0
1788556673.647001 [EFF] n=5 last=58539 min=58421 max=58540 late=0 stuck=0 rderr=0
1788556673.657189 [IMU] init=0 addr=0x68 who=0x68 rst=1 pmrb0=0x40 pmrb=0x1 sr=19 cfg=4 gcfg=0x0 acfg=0x8 icfg=0x30 ien=0x1 armed=1
1788556673.662477 [ACC] reads=45543 stale=45496 rderr=0 ax=51 ay=-75 az=1123
1788556673.665116 [PWR] pm=0x1 drift=0 rderr=0
1788556673.669309 [DWT] ok=1 cyc=2013012936 cyc_per_ms=799979
1788556674.684125 [HB] up_ms=1007660 frames=45589 inf=45589 hazard=5851 canary_err=0 q=0 qovr=0
1788556674.695358 [I2C] init=0 gate=0 whoami=0x140e0 wr=0 wrseen=0x27 addr=0x5a ok=278040 err=0 tmo=0 recov=4 pclk1=200000000 sysclk=400000000
1788556674.696723 [NAK] nacks=0
1788556674.701351 [CLK] cpu=800000000 sysb=400000000 pclk1=200000000
1788556674.705856 [TOF] res=0 step=0 id=0xeacc blk=0xeacc10 ctl=0x0
1788556674.711742 [RNG] init=0 step=99 id=0xeacc boot=1 calls=93 xerr=0 dm=1 tb=15
1788556674.718744 [RNG] osc=41 imp=881 imprb=881 mstart=0x40 cfg=91 cfgfail=0x0 vhv=0 vpolls=0
1788556674.725119 [PRT] calls=182473 xerr=0 ler=1 lidx=0x0 perr=0 maxcnt=17 addr8=0x52
1788556674.730140 [RTY] wr=0 wmax=0 wref=0  rd=0 rmax=0 rref=0
1788556674.736852 [RNG] frames=45589 last=41 min=28 max=58 nrdy=2 dxfer=0 dstat=0 lst=0 nrdyerr=0 dclr=0
1788556674.743127 [DRV] init=0 id=7 mode=0x1 lib=0x2 seq=0x1 odc=0x8b sts=0xe0 armed=1
1788556674.748599 [TRG] pulses=431 suppressed=5423 cyc=1600 rst=1 rstmode=0x40
1788556674.751865 [HLT] polls=911 faults=0x0 cfglost=0
1788556674.757736 [EFF] n=5 last=58539 min=58421 max=58540 late=0 stuck=0 rderr=0
1788556674.767999 [IMU] init=0 addr=0x68 who=0x68 rst=1 pmrb0=0x40 pmrb=0x1 sr=19 cfg=4 gcfg=0x0 acfg=0x8 icfg=0x30 ien=0x1 armed=1
1788556674.773248 [ACC] reads=45593 stale=45546 rderr=0 ax=51 ay=-71 az=1121
1788556674.776000 [PWR] pm=0x1 drift=0 rderr=0
1788556674.779956 [DWT] ok=1 cyc=2895416988 cyc_per_ms=800003
1788556675.795206 [HB] up_ms=1008763 frames=45639 inf=45639 hazard=5863 canary_err=0 q=0 qovr=0
1788556675.806337 [I2C] init=0 gate=0 whoami=0x140e0 wr=0 wrseen=0x27 addr=0x5a ok=278342 err=0 tmo=0 recov=4 pclk1=200000000 sysclk=400000000
1788556675.807903 [NAK] nacks=0
1788556675.812243 [CLK] cpu=800000000 sysb=400000000 pclk1=200000000
1788556675.816726 [TOF] res=0 step=0 id=0xeacc blk=0xeacc10 ctl=0x0
1788556675.822588 [RNG] init=0 step=99 id=0xeacc boot=1 calls=93 xerr=0 dm=1 tb=15
1788556675.829762 [RNG] osc=41 imp=881 imprb=881 mstart=0x40 cfg=91 cfgfail=0x0 vhv=0 vpolls=0
1788556675.835863 [PRT] calls=182673 xerr=0 ler=1 lidx=0x0 perr=0 maxcnt=17 addr8=0x52
1788556675.839992 [RTY] wr=0 wmax=0 wref=0  rd=0 rmax=0 rref=0
1788556675.847847 [RNG] frames=45639 last=41 min=28 max=58 nrdy=2 dxfer=0 dstat=0 lst=0 nrdyerr=0 dclr=0
1788556675.854106 [DRV] init=0 id=7 mode=0x1 lib=0x2 seq=0x1 odc=0x8b sts=0xe0 armed=1
1788556675.859616 [TRG] pulses=431 suppressed=5432 cyc=1600 rst=1 rstmode=0x40
1788556675.862841 [HLT] polls=912 faults=0x0 cfglost=0
1788556675.868587 [EFF] n=5 last=58539 min=58421 max=58540 late=0 stuck=0 rderr=0
1788556675.878965 [IMU] init=0 addr=0x68 who=0x68 rst=1 pmrb0=0x40 pmrb=0x1 sr=19 cfg=4 gcfg=0x0 acfg=0x8 icfg=0x30 ien=0x1 armed=1
1788556675.884222 [ACC] reads=45643 stale=45596 rderr=0 ax=53 ay=-74 az=1124
1788556675.886964 [PWR] pm=0x1 drift=0 rderr=0
1788556675.890857 [DWT] ok=1 cyc=3777813060 cyc_per_ms=799996
1788556676.906108 [HB] up_ms=1009866 frames=45689 inf=45689 hazard=5863 canary_err=0 q=0 qovr=0
1788556676.917348 [I2C] init=0 gate=0 whoami=0x140e0 wr=0 wrseen=0x27 addr=0x5a ok=278644 err=0 tmo=0 recov=4 pclk1=200000000 sysclk=400000000
1788556676.918760 [NAK] nacks=0
1788556676.923210 [CLK] cpu=800000000 sysb=400000000 pclk1=200000000
1788556676.927736 [TOF] res=0 step=0 id=0xeacc blk=0xeacc10 ctl=0x0
1788556676.933603 [RNG] init=0 step=99 id=0xeacc boot=1 calls=93 xerr=0 dm=1 tb=15
1788556676.940629 [RNG] osc=41 imp=881 imprb=881 mstart=0x40 cfg=91 cfgfail=0x0 vhv=0 vpolls=0
1788556676.946904 [PRT] calls=182873 xerr=0 ler=1 lidx=0x0 perr=0 maxcnt=17 addr8=0x52
1788556676.950843 [RTY] wr=0 wmax=0 wref=0  rd=0 rmax=0 rref=0
1788556676.958849 [RNG] frames=45689 last=42 min=28 max=58 nrdy=2 dxfer=0 dstat=0 lst=0 nrdyerr=0 dclr=0
1788556676.964983 [DRV] init=0 id=7 mode=0x1 lib=0x2 seq=0x1 odc=0x8b sts=0xe0 armed=1
1788556676.970477 [TRG] pulses=431 suppressed=5432 cyc=1600 rst=1 rstmode=0x40
1788556676.973846 [HLT] polls=913 faults=0x0 cfglost=0
1788556676.979654 [EFF] n=5 last=58539 min=58421 max=58540 late=0 stuck=0 rderr=0
1788556676.989974 [IMU] init=0 addr=0x68 who=0x68 rst=1 pmrb0=0x40 pmrb=0x1 sr=19 cfg=4 gcfg=0x0 acfg=0x8 icfg=0x30 ien=0x1 armed=1
1788556676.995241 [ACC] reads=45693 stale=45646 rderr=0 ax=50 ay=-76 az=1126
1788556676.997851 [PWR] pm=0x1 drift=0 rderr=0
1788556677.001776 [DWT] ok=1 cyc=365245988 cyc_per_ms=800000
1788556678.016230 [HB] up_ms=1010968 frames=45739 inf=45739 hazard=5863 canary_err=0 q=0 qovr=0
1788556678.027490 [I2C] init=0 gate=0 whoami=0x140e0 wr=0 wrseen=0x27 addr=0x5a ok=278946 err=0 tmo=0 recov=4 pclk1=200000000 sysclk=400000000
1788556678.028857 [NAK] nacks=0
1788556678.033462 [CLK] cpu=800000000 sysb=400000000 pclk1=200000000
1788556678.037981 [TOF] res=0 step=0 id=0xeacc blk=0xeacc10 ctl=0x0
1788556678.043697 [RNG] init=0 step=99 id=0xeacc boot=1 calls=93 xerr=0 dm=1 tb=15
1788556678.050852 [RNG] osc=41 imp=881 imprb=881 mstart=0x40 cfg=91 cfgfail=0x0 vhv=0 vpolls=0
1788556678.056972 [PRT] calls=183073 xerr=0 ler=1 lidx=0x0 perr=0 maxcnt=17 addr8=0x52
1788556678.061152 [RTY] wr=0 wmax=0 wref=0  rd=0 rmax=0 rref=0
1788556678.068848 [RNG] frames=45739 last=46 min=28 max=58 nrdy=2 dxfer=0 dstat=0 lst=0 nrdyerr=0 dclr=0
1788556678.075278 [DRV] init=0 id=7 mode=0x1 lib=0x2 seq=0x1 odc=0x8b sts=0xe0 armed=1
1788556678.080721 [TRG] pulses=431 suppressed=5432 cyc=1600 rst=1 rstmode=0x40
1788556678.083959 [HLT] polls=914 faults=0x0 cfglost=0
1788556678.089704 [EFF] n=5 last=58539 min=58421 max=58540 late=0 stuck=0 rderr=0
1788556678.100093 [IMU] init=0 addr=0x68 who=0x68 rst=1 pmrb0=0x40 pmrb=0x1 sr=19 cfg=4 gcfg=0x0 acfg=0x8 icfg=0x30 ien=0x1 armed=1
1788556678.105323 [ACC] reads=45743 stale=45696 rderr=0 ax=51 ay=-73 az=1126
1788556678.108236 [PWR] pm=0x1 drift=0 rderr=0
1788556678.111950 [DWT] ok=1 cyc=1246845632 cyc_per_ms=799999
1788556679.127639 [HB] up_ms=1012071 frames=45789 inf=45789 hazard=5863 canary_err=0 q=0 qovr=0
1788556679.138852 [I2C] init=0 gate=0 whoami=0x140e0 wr=0 wrseen=0x27 addr=0x5a ok=279248 err=0 tmo=0 recov=4 pclk1=200000000 sysclk=400000000
1788556679.140211 [NAK] nacks=0
1788556679.144835 [CLK] cpu=800000000 sysb=400000000 pclk1=200000000
1788556679.149208 [TOF] res=0 step=0 id=0xeacc blk=0xeacc10 ctl=0x0
1788556679.155111 [RNG] init=0 step=99 id=0xeacc boot=1 calls=93 xerr=0 dm=1 tb=15
1788556679.162206 [RNG] osc=41 imp=881 imprb=881 mstart=0x40 cfg=91 cfgfail=0x0 vhv=0 vpolls=0
1788556679.168333 [PRT] calls=183273 xerr=0 ler=1 lidx=0x0 perr=0 maxcnt=17 addr8=0x52
1788556679.172459 [RTY] wr=0 wmax=0 wref=0  rd=0 rmax=0 rref=0
1788556679.180221 [RNG] frames=45789 last=43 min=28 max=58 nrdy=2 dxfer=0 dstat=0 lst=0 nrdyerr=0 dclr=0
1788556679.186623 [DRV] init=0 id=7 mode=0x1 lib=0x2 seq=0x1 odc=0x8b sts=0xe0 armed=1
1788556679.192195 [TRG] pulses=431 suppressed=5432 cyc=1600 rst=1 rstmode=0x40
1788556679.195465 [HLT] polls=915 faults=0x0 cfglost=0
1788556679.201123 [EFF] n=5 last=58539 min=58421 max=58540 late=0 stuck=0 rderr=0
1788556679.211480 [IMU] init=0 addr=0x68 who=0x68 rst=1 pmrb0=0x40 pmrb=0x1 sr=19 cfg=4 gcfg=0x0 acfg=0x8 icfg=0x30 ien=0x1 armed=1
1788556679.216827 [ACC] reads=45793 stale=45746 rderr=0 ax=52 ay=-74 az=1125
1788556679.219447 [PWR] pm=0x1 drift=0 rderr=0
1788556679.223483 [DWT] ok=1 cyc=2129245608 cyc_per_ms=799999
1788556680.238391 [HB] up_ms=1013174 frames=45839 inf=45839 hazard=5863 canary_err=0 q=0 qovr=0
1788556680.249594 [I2C] init=0 gate=0 whoami=0x140e0 wr=0 wrseen=0x27 addr=0x5a ok=279550 err=0 tmo=0 recov=4 pclk1=200000000 sysclk=400000000
1788556680.250958 [NAK] nacks=0
1788556680.255582 [CLK] cpu=800000000 sysb=400000000 pclk1=200000000
1788556680.260120 [TOF] res=0 step=0 id=0xeacc blk=0xeacc10 ctl=0x0
1788556680.265840 [RNG] init=0 step=99 id=0xeacc boot=1 calls=93 xerr=0 dm=1 tb=15
1788556680.272963 [RNG] osc=41 imp=881 imprb=881 mstart=0x40 cfg=91 cfgfail=0x0 vhv=0 vpolls=0
1788556680.279126 [PRT] calls=183473 xerr=0 ler=1 lidx=0x0 perr=0 maxcnt=17 addr8=0x52
1788556680.283207 [RTY] wr=0 wmax=0 wref=0  rd=0 rmax=0 rref=0
1788556680.291003 [RNG] frames=45839 last=50 min=28 max=58 nrdy=2 dxfer=0 dstat=0 lst=0 nrdyerr=0 dclr=0
1788556680.297377 [DRV] init=0 id=7 mode=0x1 lib=0x2 seq=0x1 odc=0x8b sts=0xe0 armed=1
1788556680.302697 [TRG] pulses=431 suppressed=5432 cyc=1600 rst=1 rstmode=0x40
1788556680.306067 [HLT] polls=916 faults=0x0 cfglost=0
1788556680.311818 [EFF] n=5 last=58539 min=58421 max=58540 late=0 stuck=0 rderr=0
1788556680.322204 [IMU] init=0 addr=0x68 who=0x68 rst=1 pmrb0=0x40 pmrb=0x1 sr=19 cfg=4 gcfg=0x0 acfg=0x8 icfg=0x30 ien=0x1 armed=1
1788556680.327574 [ACC] reads=45843 stale=45796 rderr=0 ax=51 ay=-75 az=1127
1788556680.330104 [PWR] pm=0x1 drift=0 rderr=0
1788556680.334112 [DWT] ok=1 cyc=3011645904 cyc_per_ms=800000
1788556681.349124 [HB] up_ms=1014277 frames=45889 inf=45889 hazard=5872 canary_err=0 q=0 qovr=0
1788556681.360401 [I2C] init=0 gate=0 whoami=0x140e0 wr=0 wrseen=0x27 addr=0x5a ok=279852 err=0 tmo=0 recov=4 pclk1=200000000 sysclk=400000000
1788556681.361708 [NAK] nacks=0
1788556681.366316 [CLK] cpu=800000000 sysb=400000000 pclk1=200000000
1788556681.370863 [TOF] res=0 step=0 id=0xeacc blk=0xeacc10 ctl=0x0
1788556681.376626 [RNG] init=0 step=99 id=0xeacc boot=1 calls=93 xerr=0 dm=1 tb=15
1788556681.383590 [RNG] osc=41 imp=881 imprb=881 mstart=0x40 cfg=91 cfgfail=0x0 vhv=0 vpolls=0
1788556681.389831 [PRT] calls=183671 xerr=0 ler=1 lidx=0x0 perr=0 maxcnt=17 addr8=0x52
1788556681.394054 [RTY] wr=0 wmax=0 wref=0  rd=0 rmax=0 rref=0
1788556681.401711 [RNG] frames=45889 last=42 min=28 max=58 nrdy=2 dxfer=0 dstat=0 lst=0 nrdyerr=0 dclr=0
1788556681.408104 [DRV] init=0 id=7 mode=0x1 lib=0x2 seq=0x1 odc=0x8b sts=0xe0 armed=1
1788556681.413592 [TRG] pulses=432 suppressed=5443 cyc=1600 rst=1 rstmode=0x40
1788556681.416942 [HLT] polls=917 faults=0x0 cfglost=0
1788556681.422567 [EFF] n=5 last=58539 min=58421 max=58540 late=0 stuck=0 rderr=0
1788556681.432960 [IMU] init=0 addr=0x68 who=0x68 rst=1 pmrb0=0x40 pmrb=0x1 sr=19 cfg=4 gcfg=0x0 acfg=0x8 icfg=0x30 ien=0x1 armed=1
1788556681.438216 [ACC] reads=45893 stale=45845 rderr=0 ax=50 ay=-73 az=1123
1788556681.440965 [PWR] pm=0x1 drift=0 rderr=0
1788556681.444862 [DWT] ok=1 cyc=3894049592 cyc_per_ms=800003
1788556682.459821 [HB] up_ms=1015380 frames=45939 inf=45939 hazard=5904 canary_err=0 q=0 qovr=0
1788556682.470937 [I2C] init=0 gate=0 whoami=0x140e0 wr=0 wrseen=0x27 addr=0x5a ok=280154 err=0 tmo=0 recov=4 pclk1=200000000 sysclk=400000000
1788556682.472447 [NAK] nacks=0
1788556682.477170 [CLK] cpu=800000000 sysb=400000000 pclk1=200000000
1788556682.481566 [TOF] res=0 step=0 id=0xeacc blk=0xeacc10 ctl=0x0
1788556682.487314 [RNG] init=0 step=99 id=0xeacc boot=1 calls=93 xerr=0 dm=1 tb=15
1788556682.494332 [RNG] osc=41 imp=881 imprb=881 mstart=0x40 cfg=91 cfgfail=0x0 vhv=0 vpolls=0
1788556682.500583 [PRT] calls=183869 xerr=0 ler=1 lidx=0x0 perr=0 maxcnt=17 addr8=0x52
1788556682.504716 [RTY] wr=0 wmax=0 wref=0  rd=0 rmax=0 rref=0
1788556682.512461 [RNG] frames=45939 last=42 min=28 max=58 nrdy=2 dxfer=0 dstat=0 lst=0 nrdyerr=0 dclr=0
1788556682.518698 [DRV] init=0 id=7 mode=0x1 lib=0x2 seq=0x1 odc=0x8b sts=0xe0 armed=1
1788556682.524338 [TRG] pulses=434 suppressed=5470 cyc=1600 rst=1 rstmode=0x40
1788556682.527827 [HLT] polls=918 faults=0x0 cfglost=0
1788556682.533309 [EFF] n=5 last=58539 min=58421 max=58540 late=0 stuck=0 rderr=0
1788556682.543700 [IMU] init=0 addr=0x68 who=0x68 rst=1 pmrb0=0x40 pmrb=0x1 sr=19 cfg=4 gcfg=0x0 acfg=0x8 icfg=0x30 ien=0x1 armed=1
1788556682.548958 [ACC] reads=45943 stale=45895 rderr=0 ax=53 ay=-72 az=1125
1788556682.551704 [PWR] pm=0x1 drift=0 rderr=0
1788556682.555578 [DWT] ok=1 cyc=481478728 cyc_per_ms=799996
1788556683.569580 [HB] up_ms=1016482 frames=45989 inf=45989 hazard=5904 canary_err=0 q=0 qovr=0
1788556683.580723 [I2C] init=0 gate=0 whoami=0x140e0 wr=0 wrseen=0x27 addr=0x5a ok=280456 err=0 tmo=0 recov=4 pclk1=200000000 sysclk=400000000
1788556683.581954 [NAK] nacks=0
1788556683.586802 [CLK] cpu=800000000 sysb=400000000 pclk1=200000000
1788556683.591328 [TOF] res=0 step=0 id=0xeacc blk=0xeacc10 ctl=0x0
1788556683.597112 [RNG] init=0 step=99 id=0xeacc boot=1 calls=93 xerr=0 dm=1 tb=15
1788556683.603935 [RNG] osc=41 imp=881 imprb=881 mstart=0x40 cfg=91 cfgfail=0x0 vhv=0 vpolls=0
1788556683.610319 [PRT] calls=184069 xerr=0 ler=1 lidx=0x0 perr=0 maxcnt=17 addr8=0x52
1788556683.614433 [RTY] wr=0 wmax=0 wref=0  rd=0 rmax=0 rref=0
1788556683.622202 [RNG] frames=45989 last=39 min=28 max=58 nrdy=2 dxfer=0 dstat=0 lst=0 nrdyerr=0 dclr=0
1788556683.628337 [DRV] init=0 id=7 mode=0x1 lib=0x2 seq=0x1 odc=0x8b sts=0xe0 armed=1
1788556683.633935 [TRG] pulses=434 suppressed=5470 cyc=1600 rst=1 rstmode=0x40
1788556683.637319 [HLT] polls=919 faults=0x0 cfglost=0
1788556683.643061 [EFF] n=5 last=58539 min=58421 max=58540 late=0 stuck=0 rderr=0
1788556683.653438 [IMU] init=0 addr=0x68 who=0x68 rst=1 pmrb0=0x40 pmrb=0x1 sr=19 cfg=4 gcfg=0x0 acfg=0x8 icfg=0x30 ien=0x1 armed=1
1788556683.658822 [ACC] reads=45993 stale=45945 rderr=0 ax=52 ay=-74 az=1124
1788556683.661316 [PWR] pm=0x1 drift=0 rderr=0
1788556683.665316 [DWT] ok=1 cyc=1363078468 cyc_per_ms=799999
1788556684.680707 [HB] up_ms=1017585 frames=46039 inf=46039 hazard=5904 canary_err=0 q=0 qovr=0
1788556684.691832 [I2C] init=0 gate=0 whoami=0x140e0 wr=0 wrseen=0x27 addr=0x5a ok=280758 err=0 tmo=0 recov=4 pclk1=200000000 sysclk=400000000
1788556684.693219 [NAK] nacks=0
1788556684.697954 [CLK] cpu=800000000 sysb=400000000 pclk1=200000000
1788556684.702430 [TOF] res=0 step=0 id=0xeacc blk=0xeacc10 ctl=0x0
1788556684.708553 [RNG] init=0 step=99 id=0xeacc boot=1 calls=93 xerr=0 dm=1 tb=15
1788556684.715205 [RNG] osc=41 imp=881 imprb=881 mstart=0x40 cfg=91 cfgfail=0x0 vhv=0 vpolls=0
1788556684.721430 [PRT] calls=184269 xerr=0 ler=1 lidx=0x0 perr=0 maxcnt=17 addr8=0x52
1788556684.725615 [RTY] wr=0 wmax=0 wref=0  rd=0 rmax=0 rref=0
1788556684.733319 [RNG] frames=46039 last=48 min=28 max=58 nrdy=2 dxfer=0 dstat=0 lst=0 nrdyerr=0 dclr=0
1788556684.739434 [DRV] init=0 id=7 mode=0x1 lib=0x2 seq=0x1 odc=0x8b sts=0xe0 armed=1
1788556684.745193 [TRG] pulses=434 suppressed=5470 cyc=1600 rst=1 rstmode=0x40
1788556684.748424 [HLT] polls=920 faults=0x0 cfglost=0
1788556684.754178 [EFF] n=5 last=58539 min=58421 max=58540 late=0 stuck=0 rderr=0
1788556684.764457 [IMU] init=0 addr=0x68 who=0x68 rst=1 pmrb0=0x40 pmrb=0x1 sr=19 cfg=4 gcfg=0x0 acfg=0x8 icfg=0x30 ien=0x1 armed=1
1788556684.769791 [ACC] reads=46042 stale=45994 rderr=0 ax=51 ay=-73 az=1125
1788556684.772560 [PWR] pm=0x1 drift=0 rderr=0
1788556684.776463 [DWT] ok=1 cyc=2245506652 cyc_per_ms=800025
1788556685.792170 [HB] up_ms=1018688 frames=46088 inf=46088 hazard=5904 canary_err=0 q=0 qovr=0
1788556685.803187 [I2C] init=0 gate=0 whoami=0x140e0 wr=0 wrseen=0x27 addr=0x5a ok=281060 err=0 tmo=0 recov=4 pclk1=200000000 sysclk=400000000
1788556685.804558 [NAK] nacks=0
1788556685.809209 [CLK] cpu=800000000 sysb=400000000 pclk1=200000000
1788556685.813838 [TOF] res=0 step=0 id=0xeacc blk=0xeacc10 ctl=0x0
1788556685.819559 [RNG] init=0 step=99 id=0xeacc boot=1 calls=93 xerr=0 dm=1 tb=15
1788556685.826468 [RNG] osc=41 imp=881 imprb=881 mstart=0x40 cfg=91 cfgfail=0x0 vhv=0 vpolls=0
1788556685.832801 [PRT] calls=184469 xerr=0 ler=1 lidx=0x0 perr=0 maxcnt=17 addr8=0x52
1788556685.836929 [RTY] wr=0 wmax=0 wref=0  rd=0 rmax=0 rref=0
1788556685.844686 [RNG] frames=46089 last=45 min=28 max=58 nrdy=2 dxfer=0 dstat=0 lst=0 nrdyerr=0 dclr=0
1788556685.850841 [DRV] init=0 id=7 mode=0x1 lib=0x2 seq=0x1 odc=0x8b sts=0xe0 armed=1
1788556685.856422 [TRG] pulses=434 suppressed=5470 cyc=1600 rst=1 rstmode=0x40
1788556685.859844 [HLT] polls=921 faults=0x0 cfglost=0
1788556685.865548 [EFF] n=5 last=58539 min=58421 max=58540 late=0 stuck=0 rderr=0
1788556685.875816 [IMU] init=0 addr=0x68 who=0x68 rst=1 pmrb0=0x40 pmrb=0x1 sr=19 cfg=4 gcfg=0x0 acfg=0x8 icfg=0x30 ien=0x1 armed=1
1788556685.881217 [ACC] reads=46092 stale=46044 rderr=0 ax=54 ay=-71 az=1124
1788556685.883924 [PWR] pm=0x1 drift=0 rderr=0
1788556685.887800 [DWT] ok=1 cyc=3128011618 cyc_per_ms=800095
1788556686.903600 [HB] up_ms=1019791 frames=46138 inf=46138 hazard=5904 canary_err=0 q=0 qovr=0
1788556686.914681 [I2C] init=0 gate=0 whoami=0x140e0 wr=0 wrseen=0x27 addr=0x5a ok=281362 err=0 tmo=0 recov=4 pclk1=200000000 sysclk=400000000
1788556686.926920 [NAK] nacks=0
1788556686.927116 [CLK] cpu=800000000 sysb=400000000 pclk1=200000000
1788556686.927204 [TOF] res=0 step=0 id=0xeacc blk=0xeacc10 ctl=0x0
1788556686.931057 [RNG] init=0 step=99 id=0xeacc boot=1 calls=93 xerr=0 dm=1 tb=15
1788556686.937930 [RNG] osc=41 imp=881 imprb=881 mstart=0x40 cfg=91 cfgfail=0x0 vhv=0 vpolls=0
1788556686.944200 [PRT] calls=184669 xerr=0 ler=1 lidx=0x0 perr=0 maxcnt=17 addr8=0x52
1788556686.948434 [RTY] wr=0 wmax=0 wref=0  rd=0 rmax=0 rref=0
1788556686.956176 [RNG] frames=46139 last=40 min=28 max=58 nrdy=2 dxfer=0 dstat=0 lst=0 nrdyerr=0 dclr=0
1788556686.962441 [DRV] init=0 id=7 mode=0x1 lib=0x2 seq=0x1 odc=0x8b sts=0xe0 armed=1
1788556686.967804 [TRG] pulses=434 suppressed=5470 cyc=1600 rst=1 rstmode=0x40
1788556686.971432 [HLT] polls=922 faults=0x0 cfglost=0
1788556686.977310 [EFF] n=5 last=58539 min=58421 max=58540 late=0 stuck=0 rderr=0
1788556686.987311 [IMU] init=0 addr=0x68 who=0x68 rst=1 pmrb0=0x40 pmrb=0x1 sr=19 cfg=4 gcfg=0x0 acfg=0x8 icfg=0x30 ien=0x1 armed=1
1788556686.992697 [ACC] reads=46142 stale=46094 rderr=0 ax=51 ay=-75 az=1122
1788556686.995434 [PWR] pm=0x1 drift=0 rderr=0
1788556686.999428 [DWT] ok=1 cyc=4010412694 cyc_per_ms=800000
1788556688.014853 [HB] up_ms=1020894 frames=46188 inf=46188 hazard=5904 canary_err=0 q=0 qovr=0
1788556688.026053 [I2C] init=0 gate=0 whoami=0x140e0 wr=0 wrseen=0x27 addr=0x5a ok=281664 err=0 tmo=0 recov=4 pclk1=200000000 sysclk=400000000
1788556688.027385 [NAK] nacks=0
1788556688.031803 [CLK] cpu=800000000 sysb=400000000 pclk1=200000000
1788556688.036443 [TOF] res=0 step=0 id=0xeacc blk=0xeacc10 ctl=0x0
1788556688.042423 [RNG] init=0 step=99 id=0xeacc boot=1 calls=93 xerr=0 dm=1 tb=15
1788556688.049190 [RNG] osc=41 imp=881 imprb=881 mstart=0x40 cfg=91 cfgfail=0x0 vhv=0 vpolls=0
1788556688.055408 [PRT] calls=184869 xerr=0 ler=1 lidx=0x0 perr=0 maxcnt=17 addr8=0x52
1788556688.059584 [RTY] wr=0 wmax=0 wref=0  rd=0 rmax=0 rref=0
1788556688.067438 [RNG] frames=46188 last=40 min=28 max=58 nrdy=2 dxfer=0 dstat=0 lst=0 nrdyerr=0 dclr=0
1788556688.073532 [DRV] init=0 id=7 mode=0x1 lib=0x2 seq=0x1 odc=0x8b sts=0xe0 armed=1
1788556688.079064 [TRG] pulses=434 suppressed=5470 cyc=1600 rst=1 rstmode=0x40
1788556688.082548 [HLT] polls=923 faults=0x0 cfglost=0
1788556688.088293 [EFF] n=5 last=58539 min=58421 max=58540 late=0 stuck=0 rderr=0
1788556688.098412 [IMU] init=0 addr=0x68 who=0x68 rst=1 pmrb0=0x40 pmrb=0x1 sr=19 cfg=4 gcfg=0x0 acfg=0x8 icfg=0x30 ien=0x1 armed=1
1788556688.103788 [ACC] reads=46192 stale=46143 rderr=0 ax=51 ay=-76 az=1128
1788556688.106534 [PWR] pm=0x1 drift=0 rderr=0
1788556688.110453 [DWT] ok=1 cyc=597833414 cyc_per_ms=799989
1788556689.126202 [HB] up_ms=1021997 frames=46238 inf=46238 hazard=5942 canary_err=0 q=0 qovr=0
1788556689.137194 [I2C] init=0 gate=0 whoami=0x140e0 wr=0 wrseen=0x27 addr=0x5a ok=281962 err=0 tmo=0 recov=4 pclk1=200000000 sysclk=400000000
1788556689.138530 [NAK] nacks=0
1788556689.143187 [CLK] cpu=800000000 sysb=400000000 pclk1=200000000
1788556689.147658 [TOF] res=0 step=0 id=0xeacc blk=0xeacc10 ctl=0x0
1788556689.153674 [RNG] init=0 step=99 id=0xeacc boot=1 calls=93 xerr=0 dm=1 tb=15
1788556689.160554 [RNG] osc=41 imp=881 imprb=881 mstart=0x40 cfg=91 cfgfail=0x0 vhv=0 vpolls=0
1788556689.166780 [PRT] calls=185069 xerr=0 ler=1 lidx=0x0 perr=0 maxcnt=17 addr8=0x52
1788556689.170782 [RTY] wr=0 wmax=0 wref=0  rd=0 rmax=0 rref=0
1788556689.179763 [RNG] frames=46238 last=41 min=28 max=58 nrdy=2 dxfer=0 dstat=0 lst=0 nrdyerr=0 dclr=0
1788556689.184920 [DRV] init=0 id=7 mode=0x1 lib=0x2 seq=0x1 odc=0x8b sts=0xe0 armed=1
1788556689.190423 [TRG] pulses=437 suppressed=5508 cyc=1600 rst=1 rstmode=0x40
1788556689.193806 [HLT] polls=924 faults=0x0 cfglost=0
1788556689.199679 [EFF] n=5 last=58539 min=58421 max=58540 late=0 stuck=0 rderr=0
1788556689.209952 [IMU] init=0 addr=0x68 who=0x68 rst=1 pmrb0=0x40 pmrb=0x1 sr=19 cfg=4 gcfg=0x0 acfg=0x8 icfg=0x30 ien=0x1 armed=1
1788556689.215187 [ACC] reads=46242 stale=46193 rderr=0 ax=53 ay=-73 az=1125
1788556689.217800 [PWR] pm=0x1 drift=0 rderr=0
1788556689.221937 [DWT] ok=1 cyc=1480135834 cyc_per_ms=799911
1788556690.237110 [HB] up_ms=1023100 frames=46288 inf=46288 hazard=5945 canary_err=0 q=0 qovr=0
1788556690.248300 [I2C] init=0 gate=0 whoami=0x140e0 wr=0 wrseen=0x27 addr=0x5a ok=282262 err=0 tmo=0 recov=4 pclk1=200000000 sysclk=400000000
1788556690.249666 [NAK] nacks=0
1788556690.254182 [CLK] cpu=800000000 sysb=400000000 pclk1=200000000
1788556690.258691 [TOF] res=0 step=0 id=0xeacc blk=0xeacc10 ctl=0x0
1788556690.264703 [RNG] init=0 step=99 id=0xeacc boot=1 calls=93 xerr=0 dm=1 tb=15
1788556690.271560 [RNG] osc=41 imp=881 imprb=881 mstart=0x40 cfg=91 cfgfail=0x0 vhv=0 vpolls=0
1788556690.278825 [PRT] calls=185269 xerr=0 ler=1 lidx=0x0 perr=0 maxcnt=17 addr8=0x52
1788556690.281794 [RTY] wr=0 wmax=0 wref=0  rd=0 rmax=0 rref=0
1788556690.289777 [RNG] frames=46288 last=46 min=28 max=58 nrdy=2 dxfer=0 dstat=0 lst=0 nrdyerr=0 dclr=0
1788556690.295998 [DRV] init=0 id=7 mode=0x1 lib=0x2 seq=0x1 odc=0x8b sts=0xe0 armed=1
1788556690.301492 [TRG] pulses=437 suppressed=5508 cyc=1600 rst=1 rstmode=0x40
1788556690.304781 [HLT] polls=925 faults=0x0 cfglost=0
1788556690.310676 [EFF] n=5 last=58539 min=58421 max=58540 late=0 stuck=0 rderr=0
1788556690.320788 [IMU] init=0 addr=0x68 who=0x68 rst=1 pmrb0=0x40 pmrb=0x1 sr=19 cfg=4 gcfg=0x0 acfg=0x8 icfg=0x30 ien=0x1 armed=1
1788556690.326258 [ACC] reads=46292 stale=46243 rderr=0 ax=56 ay=-72 az=1123
1788556690.328811 [PWR] pm=0x1 drift=0 rderr=0
1788556690.332923 [DWT] ok=1 cyc=2362511024 cyc_per_ms=799977
1788556691.348041 [HB] up_ms=1024203 frames=46338 inf=46338 hazard=5945 canary_err=0 q=0 qovr=0
1788556691.359461 [I2C] init=0 gate=0 whoami=0x140e0 wr=0 wrseen=0x27 addr=0x5a ok=282564 err=0 tmo=0 recov=4 pclk1=200000000 sysclk=400000000
1788556691.360658 [NAK] nacks=0
1788556691.365375 [CLK] cpu=800000000 sysb=400000000 pclk1=200000000
1788556691.369776 [TOF] res=0 step=0 id=0xeacc blk=0xeacc10 ctl=0x0
1788556691.376012 [RNG] init=0 step=99 id=0xeacc boot=1 calls=93 xerr=0 dm=1 tb=15
1788556691.382645 [RNG] osc=41 imp=881 imprb=881 mstart=0x40 cfg=91 cfgfail=0x0 vhv=0 vpolls=0
1788556691.388920 [PRT] calls=185469 xerr=0 ler=1 lidx=0x0 perr=0 maxcnt=17 addr8=0x52
1788556691.392945 [RTY] wr=0 wmax=0 wref=0  rd=0 rmax=0 rref=0
1788556691.400909 [RNG] frames=46338 last=46 min=28 max=58 nrdy=2 dxfer=0 dstat=0 lst=0 nrdyerr=0 dclr=0
1788556691.407035 [DRV] init=0 id=7 mode=0x1 lib=0x2 seq=0x1 odc=0x8b sts=0xe0 armed=1
1788556691.412542 [TRG] pulses=437 suppressed=5508 cyc=1600 rst=1 rstmode=0x40
1788556691.415899 [HLT] polls=926 faults=0x0 cfglost=0
1788556691.421769 [EFF] n=5 last=58539 min=58421 max=58540 late=0 stuck=0 rderr=0
1788556691.432049 [IMU] init=0 addr=0x68 who=0x68 rst=1 pmrb0=0x40 pmrb=0x1 sr=19 cfg=4 gcfg=0x0 acfg=0x8 icfg=0x30 ien=0x1 armed=1
1788556691.437291 [ACC] reads=46342 stale=46293 rderr=0 ax=49 ay=-73 az=1122
1788556691.439995 [PWR] pm=0x1 drift=0 rderr=0
1788556691.443913 [DWT] ok=1 cyc=3244911612 cyc_per_ms=800000
1788556692.459557 [HB] up_ms=1025306 frames=46388 inf=46388 hazard=5945 canary_err=0 q=0 qovr=0
1788556692.470766 [I2C] init=0 gate=0 whoami=0x140e0 wr=0 wrseen=0x27 addr=0x5a ok=282866 err=0 tmo=0 recov=4 pclk1=200000000 sysclk=400000000
1788556692.472154 [NAK] nacks=0
1788556692.476844 [CLK] cpu=800000000 sysb=400000000 pclk1=200000000
1788556692.481275 [TOF] res=0 step=0 id=0xeacc blk=0xeacc10 ctl=0x0
1788556692.487166 [RNG] init=0 step=99 id=0xeacc boot=1 calls=93 xerr=0 dm=1 tb=15
1788556692.494182 [RNG] osc=41 imp=881 imprb=881 mstart=0x40 cfg=91 cfgfail=0x0 vhv=0 vpolls=0
1788556692.500394 [PRT] calls=185669 xerr=0 ler=1 lidx=0x0 perr=0 maxcnt=17 addr8=0x52
1788556692.504399 [RTY] wr=0 wmax=0 wref=0  rd=0 rmax=0 rref=0
1788556692.512408 [RNG] frames=46388 last=43 min=28 max=58 nrdy=2 dxfer=0 dstat=0 lst=0 nrdyerr=0 dclr=0
1788556692.518539 [DRV] init=0 id=7 mode=0x1 lib=0x2 seq=0x1 odc=0x8b sts=0xe0 armed=1
1788556692.524030 [TRG] pulses=437 suppressed=5508 cyc=1600 rst=1 rstmode=0x40
1788556692.527420 [HLT] polls=927 faults=0x0 cfglost=0
1788556692.533189 [EFF] n=5 last=58539 min=58421 max=58540 late=0 stuck=0 rderr=0
1788556692.543684 [IMU] init=0 addr=0x68 who=0x68 rst=1 pmrb0=0x40 pmrb=0x1 sr=19 cfg=4 gcfg=0x0 acfg=0x8 icfg=0x30 ien=0x1 armed=1
1788556692.548782 [ACC] reads=46392 stale=46343 rderr=0 ax=52 ay=-73 az=1122
1788556692.551402 [PWR] pm=0x1 drift=0 rderr=0
1788556692.555389 [DWT] ok=1 cyc=4127311216 cyc_per_ms=799999
1788556693.571027 [HB] up_ms=1026409 frames=46438 inf=46438 hazard=5945 canary_err=0 q=0 qovr=0
1788556693.582409 [I2C] init=0 gate=0 whoami=0x140e0 wr=0 wrseen=0x27 addr=0x5a ok=283168 err=0 tmo=0 recov=4 pclk1=200000000 sysclk=400000000
1788556693.583648 [NAK] nacks=0
1788556693.588273 [CLK] cpu=800000000 sysb=400000000 pclk1=200000000
1788556693.592778 [TOF] res=0 step=0 id=0xeacc blk=0xeacc10 ctl=0x0
1788556693.598638 [RNG] init=0 step=99 id=0xeacc boot=1 calls=93 xerr=0 dm=1 tb=15
1788556693.605630 [RNG] osc=41 imp=881 imprb=881 mstart=0x40 cfg=91 cfgfail=0x0 vhv=0 vpolls=0
1788556693.611913 [PRT] calls=185869 xerr=0 ler=1 lidx=0x0 perr=0 maxcnt=17 addr8=0x52
1788556693.615924 [RTY] wr=0 wmax=0 wref=0  rd=0 rmax=0 rref=0
1788556693.623769 [RNG] frames=46438 last=48 min=28 max=58 nrdy=2 dxfer=0 dstat=0 lst=0 nrdyerr=0 dclr=0
1788556693.630187 [DRV] init=0 id=7 mode=0x1 lib=0x2 seq=0x1 odc=0x8b sts=0xe0 armed=1
1788556693.635530 [TRG] pulses=437 suppressed=5508 cyc=1600 rst=1 rstmode=0x40
1788556693.638881 [HLT] polls=928 faults=0x0 cfglost=0
1788556693.644690 [EFF] n=5 last=58539 min=58421 max=58540 late=0 stuck=0 rderr=0
1788556693.655010 [IMU] init=0 addr=0x68 who=0x68 rst=1 pmrb0=0x40 pmrb=0x1 sr=19 cfg=4 gcfg=0x0 acfg=0x8 icfg=0x30 ien=0x1 armed=1
1788556693.660269 [ACC] reads=46442 stale=46393 rderr=0 ax=52 ay=-75 az=1126
1788556693.662879 [PWR] pm=0x1 drift=0 rderr=0
1788556693.666754 [DWT] ok=1 cyc=714744088 cyc_per_ms=800000
1788556694.681201 [HB] up_ms=1027511 frames=46488 inf=46488 hazard=5945 canary_err=0 q=0 qovr=0
1788556694.692433 [I2C] init=0 gate=0 whoami=0x140e0 wr=0 wrseen=0x27 addr=0x5a ok=283470 err=0 tmo=0 recov=4 pclk1=200000000 sysclk=400000000
1788556694.693753 [NAK] nacks=0
1788556694.698398 [CLK] cpu=800000000 sysb=400000000 pclk1=200000000
1788556694.702888 [TOF] res=0 step=0 id=0xeacc blk=0xeacc10 ctl=0x0
1788556694.708858 [RNG] init=0 step=99 id=0xeacc boot=1 calls=93 xerr=0 dm=1 tb=15
1788556694.715782 [RNG] osc=41 imp=881 imprb=881 mstart=0x40 cfg=91 cfgfail=0x0 vhv=0 vpolls=0
1788556694.721895 [PRT] calls=186069 xerr=0 ler=1 lidx=0x0 perr=0 maxcnt=17 addr8=0x52
1788556694.726028 [RTY] wr=0 wmax=0 wref=0  rd=0 rmax=0 rref=0
1788556694.733775 [RNG] frames=46488 last=48 min=28 max=58 nrdy=2 dxfer=0 dstat=0 lst=0 nrdyerr=0 dclr=0
1788556694.740163 [DRV] init=0 id=7 mode=0x1 lib=0x2 seq=0x1 odc=0x8b sts=0xe0 armed=1
1788556694.745659 [TRG] pulses=437 suppressed=5508 cyc=1600 rst=1 rstmode=0x40
1788556694.749016 [HLT] polls=929 faults=0x0 cfglost=0
1788556694.754758 [EFF] n=5 last=58539 min=58421 max=58540 late=0 stuck=0 rderr=0
1788556694.765012 [IMU] init=0 addr=0x68 who=0x68 rst=1 pmrb0=0x40 pmrb=0x1 sr=19 cfg=4 gcfg=0x0 acfg=0x8 icfg=0x30 ien=0x1 armed=1
1788556694.770402 [ACC] reads=46492 stale=46443 rderr=0 ax=53 ay=-75 az=1125
1788556694.773014 [PWR] pm=0x1 drift=0 rderr=0
1788556694.777107 [DWT] ok=1 cyc=1596343684 cyc_per_ms=799999
1788556695.792048 [HB] up_ms=1028614 frames=46538 inf=46538 hazard=5963 canary_err=0 q=0 qovr=0
1788556695.803392 [I2C] init=0 gate=0 whoami=0x140e0 wr=0 wrseen=0x27 addr=0x5a ok=283772 err=0 tmo=0 recov=4 pclk1=200000000 sysclk=400000000
1788556695.804611 [NAK] nacks=0
1788556695.809375 [CLK] cpu=800000000 sysb=400000000 pclk1=200000000
1788556695.813772 [TOF] res=0 step=0 id=0xeacc blk=0xeacc10 ctl=0x0
1788556695.819615 [RNG] init=0 step=99 id=0xeacc boot=1 calls=93 xerr=0 dm=1 tb=15
1788556695.826641 [RNG] osc=41 imp=881 imprb=881 mstart=0x40 cfg=91 cfgfail=0x0 vhv=0 vpolls=0
1788556695.832868 [PRT] calls=186269 xerr=0 ler=1 lidx=0x0 perr=0 maxcnt=17 addr8=0x52
1788556695.836890 [RTY] wr=0 wmax=0 wref=0  rd=0 rmax=0 rref=0
1788556695.844665 [RNG] frames=46538 last=42 min=28 max=58 nrdy=2 dxfer=0 dstat=0 lst=0 nrdyerr=0 dclr=0
1788556695.851025 [DRV] init=0 id=7 mode=0x1 lib=0x2 seq=0x1 odc=0x8b sts=0xe0 armed=1
1788556695.856492 [TRG] pulses=439 suppressed=5527 cyc=1600 rst=1 rstmode=0x40
1788556695.859883 [HLT] polls=930 faults=0x0 cfglost=0
1788556695.865641 [EFF] n=5 last=58539 min=58421 max=58540 late=0 stuck=0 rderr=0
1788556695.876055 [IMU] init=0 addr=0x68 who=0x68 rst=1 pmrb0=0x40 pmrb=0x1 sr=19 cfg=4 gcfg=0x0 acfg=0x8 icfg=0x30 ien=0x1 armed=1
1788556695.881352 [ACC] reads=46542 stale=46493 rderr=0 ax=51 ay=-72 az=1120
1788556695.883892 [PWR] pm=0x1 drift=0 rderr=0
1788556695.887864 [DWT] ok=1 cyc=2478747312 cyc_per_ms=800003
1788556696.902742 [HB] up_ms=1029717 frames=46588 inf=46588 hazard=5986 canary_err=0 q=0 qovr=0
1788556696.914000 [I2C] init=0 gate=0 whoami=0x140e0 wr=0 wrseen=0x27 addr=0x5a ok=284074 err=0 tmo=0 recov=4 pclk1=200000000 sysclk=400000000
1788556696.915377 [NAK] nacks=0
1788556696.920012 [CLK] cpu=800000000 sysb=400000000 pclk1=200000000
1788556696.924528 [TOF] res=0 step=0 id=0xeacc blk=0xeacc10 ctl=0x0
1788556696.930261 [RNG] init=0 step=99 id=0xeacc boot=1 calls=93 xerr=0 dm=1 tb=15
1788556696.937390 [RNG] osc=41 imp=881 imprb=881 mstart=0x40 cfg=91 cfgfail=0x0 vhv=0 vpolls=0
1788556696.943526 [PRT] calls=186469 xerr=0 ler=1 lidx=0x0 perr=0 maxcnt=17 addr8=0x52
1788556696.947643 [RTY] wr=0 wmax=0 wref=0  rd=0 rmax=0 rref=0
1788556696.955379 [RNG] frames=46588 last=39 min=28 max=58 nrdy=2 dxfer=0 dstat=0 lst=0 nrdyerr=0 dclr=0
1788556696.961778 [DRV] init=0 id=7 mode=0x1 lib=0x2 seq=0x1 odc=0x8b sts=0xe0 armed=1
1788556696.967263 [TRG] pulses=440 suppressed=5546 cyc=1600 rst=1 rstmode=0x40
1788556696.970488 [HLT] polls=931 faults=0x0 cfglost=0
1788556696.976286 [EFF] n=5 last=58539 min=58421 max=58540 late=0 stuck=0 rderr=0
1788556696.986680 [IMU] init=0 addr=0x68 who=0x68 rst=1 pmrb0=0x40 pmrb=0x1 sr=19 cfg=4 gcfg=0x0 acfg=0x8 icfg=0x30 ien=0x1 armed=1
1788556696.991891 [ACC] reads=46592 stale=46543 rderr=0 ax=54 ay=-71 az=1125
1788556696.994521 [PWR] pm=0x1 drift=0 rderr=0
1788556696.998511 [DWT] ok=1 cyc=3361143980 cyc_per_ms=799996
1788556698.013618 [HB] up_ms=1030820 frames=46638 inf=46638 hazard=5986 canary_err=0 q=0 qovr=0
1788556698.024907 [I2C] init=0 gate=0 whoami=0x140e0 wr=0 wrseen=0x27 addr=0x5a ok=284376 err=0 tmo=0 recov=4 pclk1=200000000 sysclk=400000000
1788556698.026336 [NAK] nacks=0
1788556698.030892 [CLK] cpu=800000000 sysb=400000000 pclk1=200000000
1788556698.035367 [TOF] res=0 step=0 id=0xeacc blk=0xeacc10 ctl=0x0
1788556698.041129 [RNG] init=0 step=99 id=0xeacc boot=1 calls=93 xerr=0 dm=1 tb=15
1788556698.048147 [RNG] osc=41 imp=881 imprb=881 mstart=0x40 cfg=91 cfgfail=0x0 vhv=0 vpolls=0
1788556698.054370 [PRT] calls=186667 xerr=0 ler=1 lidx=0x0 perr=0 maxcnt=17 addr8=0x52
1788556698.058492 [RTY] wr=0 wmax=0 wref=0  rd=0 rmax=0 rref=0
1788556698.066281 [RNG] frames=46638 last=40 min=28 max=58 nrdy=2 dxfer=0 dstat=0 lst=0 nrdyerr=0 dclr=0
1788556698.072611 [DRV] init=0 id=7 mode=0x1 lib=0x2 seq=0x1 odc=0x8b sts=0xe0 armed=1
1788556698.078182 [TRG] pulses=440 suppressed=5546 cyc=1600 rst=1 rstmode=0x40
1788556698.081381 [HLT] polls=932 faults=0x0 cfglost=0
1788556698.087150 [EFF] n=5 last=58539 min=58421 max=58540 late=0 stuck=0 rderr=0
1788556698.097514 [IMU] init=0 addr=0x68 who=0x68 rst=1 pmrb0=0x40 pmrb=0x1 sr=19 cfg=4 gcfg=0x0 acfg=0x8 icfg=0x30 ien=0x1 armed=1
1788556698.102753 [ACC] reads=46642 stale=46593 rderr=0 ax=51 ay=-73 az=1124
1788556698.105503 [PWR] pm=0x1 drift=0 rderr=0
1788556698.109408 [DWT] ok=1 cyc=4243544144 cyc_per_ms=800000
1788556699.124382 [HB] up_ms=1031923 frames=46688 inf=46688 hazard=5986 canary_err=0 q=0 qovr=0
1788556699.135486 [I2C] init=0 gate=0 whoami=0x140e0 wr=0 wrseen=0x27 addr=0x5a ok=284678 err=0 tmo=0 recov=4 pclk1=200000000 sysclk=400000000
1788556699.136874 [NAK] nacks=0
1788556699.141495 [CLK] cpu=800000000 sysb=400000000 pclk1=200000000
1788556699.146008 [TOF] res=0 step=0 id=0xeacc blk=0xeacc10 ctl=0x0
1788556699.151886 [RNG] init=0 step=99 id=0xeacc boot=1 calls=93 xerr=0 dm=1 tb=15
1788556699.158736 [RNG] osc=41 imp=881 imprb=881 mstart=0x40 cfg=91 cfgfail=0x0 vhv=0 vpolls=0
1788556699.165127 [PRT] calls=186865 xerr=0 ler=1 lidx=0x0 perr=0 maxcnt=17 addr8=0x52
1788556699.169243 [RTY] wr=0 wmax=0 wref=0  rd=0 rmax=0 rref=0
1788556699.177124 [RNG] frames=46688 last=40 min=28 max=58 nrdy=2 dxfer=0 dstat=0 lst=0 nrdyerr=0 dclr=0
1788556699.183252 [DRV] init=0 id=7 mode=0x1 lib=0x2 seq=0x1 odc=0x8b sts=0xe0 armed=1
1788556699.188740 [TRG] pulses=440 suppressed=5546 cyc=1600 rst=1 rstmode=0x40
1788556699.192209 [HLT] polls=933 faults=0x0 cfglost=0
1788556699.197894 [EFF] n=5 last=58539 min=58421 max=58540 late=0 stuck=0 rderr=0
1788556699.208260 [IMU] init=0 addr=0x68 who=0x68 rst=1 pmrb0=0x40 pmrb=0x1 sr=19 cfg=4 gcfg=0x0 acfg=0x8 icfg=0x30 ien=0x1 armed=1
1788556699.213496 [ACC] reads=46692 stale=46643 rderr=0 ax=51 ay=-74 az=1123
1788556699.216190 [PWR] pm=0x1 drift=0 rderr=0
1788556699.219993 [DWT] ok=1 cyc=830976840 cyc_per_ms=799999
1788556700.234358 [HB] up_ms=1033025 frames=46738 inf=46738 hazard=5986 canary_err=0 q=0 qovr=0
1788556700.245519 [I2C] init=0 gate=0 whoami=0x140e0 wr=0 wrseen=0x27 addr=0x5a ok=284980 err=0 tmo=0 recov=4 pclk1=200000000 sysclk=400000000
1788556700.246858 [NAK] nacks=0
1788556700.251496 [CLK] cpu=800000000 sysb=400000000 pclk1=200000000
1788556700.255994 [TOF] res=0 step=0 id=0xeacc blk=0xeacc10 ctl=0x0
1788556700.261878 [RNG] init=0 step=99 id=0xeacc boot=1 calls=93 xerr=0 dm=1 tb=15
1788556700.268769 [RNG] osc=41 imp=881 imprb=881 mstart=0x40 cfg=91 cfgfail=0x0 vhv=0 vpolls=0
1788556700.275133 [PRT] calls=187065 xerr=0 ler=1 lidx=0x0 perr=0 maxcnt=17 addr8=0x52
1788556700.279263 [RTY] wr=0 wmax=0 wref=0  rd=0 rmax=0 rref=0
1788556700.286996 [RNG] frames=46738 last=40 min=28 max=58 nrdy=2 dxfer=0 dstat=0 lst=0 nrdyerr=0 dclr=0
