[HB] up_ms=1359 frames=45 inf=45 hazard=0 canary_err=0 q=0 qovr=0
[I2C] init=0 gate=0 whoami=0x140e0 wr=0 wrseen=0x27 addr=0x5a ok=434 err=0 tmo=0 recov=0 pclk1=200000000 sysclk=400000000
[NAK] nacks=0
[CLK] cpu=800000000 sysb=400000000 pclk1=200000000
[TOF] res=0 step=0 id=0xeacc blk=0xeacc10 ctl=0x0
[RNG] init=0 step=99 id=0xeacc boot=1 calls=93 xerr=0 dm=1 tb=15
[RNG] osc=41 imp=881 imprb=881 mstart=0x40 cfg=91 cfgfail=0x0 vhv=0 vpolls=0
[PRT] calls=301 xerr=0 ler=1 lidx=0x0 perr=0 maxcnt=17 addr8=0x52
[RTY] wr=0 wmax=0 wref=0  rd=0 rmax=0 rref=0
[RNG] frames=48 last=27 min=18 max=34 nrdy=0 dxfer=0 dstat=0 lst=0 nrdyerr=0 dclr=0
[DRV] init=0 id=7 mode=0x1 lib=0x2 seq=0x1 odc=0x8b sts=0xe0 armed=1
[TRG] pulses=0 suppressed=0 cyc=1600 rst=1 rstmode=0x40
[HLT] polls=0 faults=0x0 cfglost=0
[IMU] init=0 addr=0x68 who=0x68 rst=1 pmrb0=0x40 pmrb=0x1 sr=19 cfg=4 gcfg=0x0 acfg=0x8 icfg=0x30 ien=0x1 armed=1
[ACC] reads=49 stale=49 rderr=0 ax=37 ay=-26 az=1130
[PWR] pm=0x1 drift=0 rderr=0
[DWT] ok=1 cyc=1006563910 cyc_per_ms=0
[HB] up_ms=2452 frames=95 inf=95 hazard=0 canary_err=0 q=0 qovr=0
[I2C] init=0 gate=0 whoami=0x140e0 wr=0 wrseen=0x27 addr=0x5a ok=730 err=0 tmo=0 recov=0 pclk1=200000000 sysclk=400000000
[NAK] nacks=0
[CLK] cpu=800000000 sysb=400000000 pclk1=200000000
[TOF] res=0 step=0 id=0xeacc blk=0xeacc10 ctl=0x0
[RNG] init=0 step=99 id=0xeacc boot=1 calls=93 xerr=0 dm=1 tb=15
[RNG] osc=41 imp=881 imprb=881 mstart=0x40 cfg=91 cfgfail=0x0 vhv=0 vpolls=0
[PRT] calls=501 xerr=0 ler=1 lidx=0x0 perr=0 maxcnt=17 addr8=0x52
[RTY] wr=0 wmax=0 wref=0  rd=0 rmax=0 rref=0
[RNG] frames=97 last=30 min=18 max=35 nrdy=0 dxfer=0 dstat=0 lst=0 nrdyerr=0 dclr=0
[DRV] init=0 id=7 mode=0x1 lib=0x2 seq=0x1 odc=0x8b sts=0xe0 armed=1
[TRG] pulses=0 suppressed=0 cyc=1600 rst=1 rstmode=0x40
[HLT] polls=1 faults=0x0 cfglost=0
[IMU] init=0 addr=0x68 who=0x68 rst=1 pmrb0=0x40 pmrb=0x1 sr=19 cfg=4 gcfg=0x0 acfg=0x8 icfg=0x30 ien=0x1 armed=1
[ACC] reads=98 stale=97 rderr=0 ax=37 ay=-24 az=1128
[PWR] pm=0x1 drift=0 rderr=0
[DWT] ok=1 cyc=1880963782 cyc_per_ms=799999
[HB] up_ms=3546 frames=144 inf=144 hazard=0 canary_err=0 q=0 qovr=0
[I2C] init=0 gate=0 whoami=0x140e0 wr=0 wrseen=0x27 addr=0x5a ok=1032 err=0 tmo=0 recov=0 pclk1=200000000 sysclk=400000000
[NAK] nacks=0
[CLK] cpu=800000000 sysb=400000000 pclk1=200000000
[TOF] res=0 step=0 id=0xeacc blk=0xeacc10 ctl=0x0
[RNG] init=0 step=99 id=0xeacc boot=1 calls=93 xerr=0 dm=1 tb=15
[RNG] osc=41 imp=881 imprb=881 mstart=0x40 cfg=91 cfgfail=0x0 vhv=0 vpolls=0
[PRT] calls=697 xerr=0 ler=1 lidx=0x0 perr=0 maxcnt=17 addr8=0x52
[RTY] wr=0 wmax=0 wref=0  rd=0 rmax=0 rref=0
[RNG] frames=147 last=27 min=18 max=35 nrdy=0 dxfer=0 dstat=0 lst=0 nrdyerr=0 dclr=0
[DRV] init=0 id=7 mode=0x1 lib=0x2 seq=0x1 odc=0x8b sts=0xe0 armed=1
[TRG] pulses=0 suppressed=0 cyc=1600 rst=1 rstmode=0x40
[HLT] polls=2 faults=0x0 cfglost=0
[IMU] init=0 addr=0x68 who=0x68 rst=1 pmrb0=0x40 pmrb=0x1 sr=19 cfg=4 gcfg=0x0 acfg=0x8 icfg=0x30 ien=0x1 armed=1
[ACC] reads=148 stale=147 rderr=0 ax=35 ay=-24 az=1130
[PWR] pm=0x1 drift=0 rderr=0
[DWT] ok=1 cyc=2756582878 cyc_per_ms=800383
[HB] up_ms=4641 frames=194 inf=194 hazard=0 canary_err=0 q=0 qovr=0
[I2C] init=0 gate=0 whoami=0x140e0 wr=0 wrseen=0x27 addr=0x5a ok=1328 err=0 tmo=0 recov=0 pclk1=200000000 sysclk=400000000
[NAK] nacks=0
[CLK] cpu=800000000 sysb=400000000 pclk1=200000000
[TOF] res=0 step=0 id=0xeacc blk=0xeacc10 ctl=0x0
[RNG] init=0 step=99 id=0xeacc boot=1 calls=93 xerr=0 dm=1 tb=15
[RNG] osc=41 imp=881 imprb=881 mstart=0x40 cfg=91 cfgfail=0x0 vhv=0 vpolls=0
[PRT] calls=897 xerr=0 ler=1 lidx=0x0 perr=0 maxcnt=17 addr8=0x52
[RTY] wr=0 wmax=0 wref=0  rd=0 rmax=0 rref=0
[RNG] frames=196 last=29 min=17 max=36 nrdy=0 dxfer=0 dstat=0 lst=0 nrdyerr=0 dclr=0
[DRV] init=0 id=7 mode=0x1 lib=0x2 seq=0x1 odc=0x8b sts=0xe0 armed=1
[TRG] pulses=0 suppressed=0 cyc=1600 rst=1 rstmode=0x40
[HLT] polls=3 faults=0x0 cfglost=0
[IMU] init=0 addr=0x68 who=0x68 rst=1 pmrb0=0x40 pmrb=0x1 sr=19 cfg=4 gcfg=0x0 acfg=0x8 icfg=0x30 ien=0x1 armed=1
[ACC] reads=198 stale=197 rderr=0 ax=36 ay=-25 az=1127
[PWR] pm=0x1 drift=0 rderr=0
[DWT] ok=1 cyc=3632583622 cyc_per_ms=800000
[HB] up_ms=5735 frames=244 inf=244 hazard=0 canary_err=0 q=0 qovr=0
[I2C] init=0 gate=0 whoami=0x140e0 wr=0 wrseen=0x27 addr=0x5a ok=1630 err=0 tmo=0 recov=0 pclk1=200000000 sysclk=400000000
[NAK] nacks=0
[CLK] cpu=800000000 sysb=400000000 pclk1=200000000
[TOF] res=0 step=0 id=0xeacc blk=0xeacc10 ctl=0x0
[RNG] init=0 step=99 id=0xeacc boot=1 calls=93 xerr=0 dm=1 tb=15
[RNG] osc=41 imp=881 imprb=881 mstart=0x40 cfg=91 cfgfail=0x0 vhv=0 vpolls=0
[PRT] calls=1093 xerr=0 ler=1 lidx=0x0 perr=0 maxcnt=17 addr8=0x52
[RTY] wr=0 wmax=0 wref=0  rd=0 rmax=0 rref=0
[RNG] frames=246 last=25 min=17 max=37 nrdy=0 dxfer=0 dstat=0 lst=0 nrdyerr=0 dclr=0
[DRV] init=0 id=7 mode=0x1 lib=0x2 seq=0x1 odc=0x8b sts=0xe0 armed=1
[TRG] pulses=0 suppressed=0 cyc=1600 rst=1 rstmode=0x40
[HLT] polls=4 faults=0x0 cfglost=0
[IMU] init=0 addr=0x68 who=0x68 rst=1 pmrb0=0x40 pmrb=0x1 sr=19 cfg=4 gcfg=0x0 acfg=0x8 icfg=0x30 ien=0x1 armed=1
[ACC] reads=247 stale=246 rderr=0 ax=36 ay=-24 az=1126
[PWR] pm=0x1 drift=0 rderr=0
[DWT] ok=1 cyc=212797936 cyc_per_ms=799983
[HB] up_ms=6829 frames=293 inf=293 hazard=0 canary_err=0 q=0 qovr=0
[I2C] init=0 gate=0 whoami=0x140e0 wr=0 wrseen=0x27 addr=0x5a ok=1926 err=0 tmo=0 recov=0 pclk1=200000000 sysclk=400000000
[NAK] nacks=0
[CLK] cpu=800000000 sysb=400000000 pclk1=200000000
[TOF] res=0 step=0 id=0xeacc blk=0xeacc10 ctl=0x0
[RNG] init=0 step=99 id=0xeacc boot=1 calls=93 xerr=0 dm=1 tb=15
[RNG] osc=41 imp=881 imprb=881 mstart=0x40 cfg=91 cfgfail=0x0 vhv=0 vpolls=0
[PRT] calls=1293 xerr=0 ler=1 lidx=0x0 perr=0 maxcnt=17 addr8=0x52
[RTY] wr=0 wmax=0 wref=0  rd=0 rmax=0 rref=0
[RNG] frames=295 last=29 min=17 max=37 nrdy=0 dxfer=0 dstat=0 lst=0 nrdyerr=0 dclr=0
[DRV] init=0 id=7 mode=0x1 lib=0x2 seq=0x1 odc=0x8b sts=0xe0 armed=1
[TRG] pulses=0 suppressed=0 cyc=1600 rst=1 rstmode=0x40
[HLT] polls=5 faults=0x0 cfglost=0
[IMU] init=0 addr=0x68 who=0x68 rst=1 pmrb0=0x40 pmrb=0x1 sr=19 cfg=4 gcfg=0x0 acfg=0x8 icfg=0x30 ien=0x1 armed=1
[ACC] reads=297 stale=296 rderr=0 ax=36 ay=-24 az=1129
[PWR] pm=0x1 drift=0 rderr=0
[DWT] ok=1 cyc=1088087100 cyc_per_ms=800081
[HB] up_ms=7923 frames=343 inf=343 hazard=0 canary_err=0 q=0 qovr=0
[I2C] init=0 gate=0 whoami=0x140e0 wr=0 wrseen=0x27 addr=0x5a ok=2228 err=0 tmo=0 recov=0 pclk1=200000000 sysclk=400000000
[NAK] nacks=0
[CLK] cpu=800000000 sysb=400000000 pclk1=200000000
[TOF] res=0 step=0 id=0xeacc blk=0xeacc10 ctl=0x0
[RNG] init=0 step=99 id=0xeacc boot=1 calls=93 xerr=0 dm=1 tb=15
[RNG] osc=41 imp=881 imprb=881 mstart=0x40 cfg=91 cfgfail=0x0 vhv=0 vpolls=0
[PRT] calls=1489 xerr=0 ler=1 lidx=0x0 perr=0 maxcnt=17 addr8=0x52
[RTY] wr=0 wmax=0 wref=0  rd=0 rmax=0 rref=0
[RNG] frames=345 last=31 min=17 max=37 nrdy=0 dxfer=0 dstat=0 lst=0 nrdyerr=0 dclr=0
[DRV] init=0 id=7 mode=0x1 lib=0x2 seq=0x1 odc=0x8b sts=0xe0 armed=1
[TRG] pulses=0 suppressed=0 cyc=1600 rst=1 rstmode=0x40
[HLT] polls=6 faults=0x0 cfglost=0
[IMU] init=0 addr=0x68 who=0x68 rst=1 pmrb0=0x40 pmrb=0x1 sr=19 cfg=4 gcfg=0x0 acfg=0x8 icfg=0x30 ien=0x1 armed=1
[ACC] reads=346 stale=345 rderr=0 ax=36 ay=-24 az=1128
[PWR] pm=0x1 drift=0 rderr=0
[DWT] ok=1 cyc=1963287032 cyc_per_ms=799999
[HB] up_ms=9017 frames=392 inf=392 hazard=0 canary_err=0 q=0 qovr=0
[I2C] init=0 gate=0 whoami=0x140e0 wr=0 wrseen=0x27 addr=0x5a ok=2524 err=0 tmo=0 recov=0 pclk1=200000000 sysclk=400000000
[NAK] nacks=0
[CLK] cpu=800000000 sysb=400000000 pclk1=200000000
[TOF] res=0 step=0 id=0xeacc blk=0xeacc10 ctl=0x0
[RNG] init=0 step=99 id=0xeacc boot=1 calls=93 xerr=0 dm=1 tb=15
[RNG] osc=41 imp=881 imprb=881 mstart=0x40 cfg=91 cfgfail=0x0 vhv=0 vpolls=0
[PRT] calls=1689 xerr=0 ler=1 lidx=0x0 perr=0 maxcnt=17 addr8=0x52
[RTY] wr=0 wmax=0 wref=0  rd=0 rmax=0 rref=0
[RNG] frames=394 last=24 min=17 max=37 nrdy=0 dxfer=0 dstat=0 lst=0 nrdyerr=0 dclr=0
[DRV] init=0 id=7 mode=0x1 lib=0x2 seq=0x1 odc=0x8b sts=0xe0 armed=1
[TRG] pulses=0 suppressed=0 cyc=1600 rst=1 rstmode=0x40
[HLT] polls=7 faults=0x0 cfglost=0
[IMU] init=0 addr=0x68 who=0x68 rst=1 pmrb0=0x40 pmrb=0x1 sr=19 cfg=4 gcfg=0x0 acfg=0x8 icfg=0x30 ien=0x1 armed=1
[ACC] reads=396 stale=395 rderr=0 ax=36 ay=-23 az=1125
[PWR] pm=0x1 drift=0 rderr=0
[DWT] ok=1 cyc=2838487168 cyc_per_ms=800000
[HB] up_ms=10111 frames=442 inf=442 hazard=0 canary_err=0 q=0 qovr=0
[I2C] init=0 gate=0 whoami=0x140e0 wr=0 wrseen=0x27 addr=0x5a ok=2826 err=0 tmo=0 recov=0 pclk1=200000000 sysclk=400000000
[NAK] nacks=0
[CLK] cpu=800000000 sysb=400000000 pclk1=200000000
[TOF] res=0 step=0 id=0xeacc blk=0xeacc10 ctl=0x0
[RNG] init=0 step=99 id=0xeacc boot=1 calls=93 xerr=0 dm=1 tb=15
[RNG] osc=41 imp=881 imprb=881 mstart=0x40 cfg=91 cfgfail=0x0 vhv=0 vpolls=0
[PRT] calls=1889 xerr=0 ler=1 lidx=0x0 perr=0 maxcnt=17 addr8=0x52
[RTY] wr=0 wmax=0 wref=0  rd=0 rmax=0 rref=0
[RNG] frames=444 last=30 min=17 max=37 nrdy=0 dxfer=0 dstat=0 lst=0 nrdyerr=0 dclr=0
[DRV] init=0 id=7 mode=0x1 lib=0x2 seq=0x1 odc=0x8b sts=0xe0 armed=1
[TRG] pulses=0 suppressed=0 cyc=1600 rst=1 rstmode=0x40
[HLT] polls=8 faults=0x0 cfglost=0
[IMU] init=0 addr=0x68 who=0x68 rst=1 pmrb0=0x40 pmrb=0x1 sr=19 cfg=4 gcfg=0x0 acfg=0x8 icfg=0x30 ien=0x1 armed=1
[ACC] reads=445 stale=444 rderr=0 ax=37 ay=-24 az=1128
[PWR] pm=0x1 drift=0 rderr=0
[DWT] ok=1 cyc=3713757096 cyc_per_ms=800063
[HB] up_ms=11206 frames=491 inf=491 hazard=0 canary_err=0 q=0 qovr=0
[I2C] init=0 gate=0 whoami=0x140e0 wr=0 wrseen=0x27 addr=0x5a ok=3128 err=0 tmo=0 recov=0 pclk1=200000000 sysclk=400000000
[NAK] nacks=0
[CLK] cpu=800000000 sysb=400000000 pclk1=200000000
[TOF] res=0 step=0 id=0xeacc blk=0xeacc10 ctl=0x0
[RNG] init=0 step=99 id=0xeacc boot=1 calls=93 xerr=0 dm=1 tb=15
[RNG] osc=41 imp=881 imprb=881 mstart=0x40 cfg=91 cfgfail=0x0 vhv=0 vpolls=0
[PRT] calls=2085 xerr=0 ler=1 lidx=0x0 perr=0 maxcnt=17 addr8=0x52
[RTY] wr=0 wmax=0 wref=0  rd=0 rmax=0 rref=0
[RNG] frames=493 last=27 min=17 max=37 nrdy=0 dxfer=0 dstat=0 lst=0 nrdyerr=0 dclr=0
[DRV] init=0 id=7 mode=0x1 lib=0x2 seq=0x1 odc=0x8b sts=0xe0 armed=1
[TRG] pulses=0 suppressed=0 cyc=1600 rst=1 rstmode=0x40
[HLT] polls=9 faults=0x0 cfglost=0
[IMU] init=0 addr=0x68 who=0x68 rst=1 pmrb0=0x40 pmrb=0x1 sr=19 cfg=4 gcfg=0x0 acfg=0x8 icfg=0x30 ien=0x1 armed=1
[ACC] reads=495 stale=494 rderr=0 ax=36 ay=-24 az=1129
[PWR] pm=0x1 drift=0 rderr=0
[DWT] ok=1 cyc=294789764 cyc_per_ms=799999
[HB] up_ms=12300 frames=541 inf=541 hazard=0 canary_err=0 q=0 qovr=0
[I2C] init=0 gate=0 whoami=0x140e0 wr=0 wrseen=0x27 addr=0x5a ok=3424 err=0 tmo=0 recov=0 pclk1=200000000 sysclk=400000000
[NAK] nacks=0
[CLK] cpu=800000000 sysb=400000000 pclk1=200000000
[TOF] res=0 step=0 id=0xeacc blk=0xeacc10 ctl=0x0
[RNG] init=0 step=99 id=0xeacc boot=1 calls=93 xerr=0 dm=1 tb=15
[RNG] osc=41 imp=881 imprb=881 mstart=0x40 cfg=91 cfgfail=0x0 vhv=0 vpolls=0
[PRT] calls=2285 xerr=0 ler=1 lidx=0x0 perr=0 maxcnt=17 addr8=0x52
[RTY] wr=0 wmax=0 wref=0  rd=0 rmax=0 rref=0
[RNG] frames=543 last=24 min=17 max=37 nrdy=0 dxfer=0 dstat=0 lst=0 nrdyerr=0 dclr=0
[DRV] init=0 id=7 mode=0x1 lib=0x2 seq=0x1 odc=0x8b sts=0xe0 armed=1
[TRG] pulses=0 suppressed=0 cyc=1600 rst=1 rstmode=0x40
[HLT] polls=10 faults=0x0 cfglost=0
[IMU] init=0 addr=0x68 who=0x68 rst=1 pmrb0=0x40 pmrb=0x1 sr=19 cfg=4 gcfg=0x0 acfg=0x8 icfg=0x30 ien=0x1 armed=1
[ACC] reads=544 stale=543 rderr=0 ax=36 ay=-27 az=1130
[PWR] pm=0x1 drift=0 rderr=0
[DWT] ok=1 cyc=1170059682 cyc_per_ms=800063
[HB] up_ms=13395 frames=590 inf=590 hazard=0 canary_err=0 q=0 qovr=0
[I2C] init=0 gate=0 whoami=0x140e0 wr=0 wrseen=0x27 addr=0x5a ok=3726 err=0 tmo=0 recov=0 pclk1=200000000 sysclk=400000000
[NAK] nacks=0
[CLK] cpu=800000000 sysb=400000000 pclk1=200000000
[TOF] res=0 step=0 id=0xeacc blk=0xeacc10 ctl=0x0
[RNG] init=0 step=99 id=0xeacc boot=1 calls=93 xerr=0 dm=1 tb=15
[RNG] osc=41 imp=881 imprb=881 mstart=0x40 cfg=91 cfgfail=0x0 vhv=0 vpolls=0
[PRT] calls=2481 xerr=0 ler=1 lidx=0x0 perr=0 maxcnt=17 addr8=0x52
[RTY] wr=0 wmax=0 wref=0  rd=0 rmax=0 rref=0
[RNG] frames=593 last=22 min=16 max=37 nrdy=0 dxfer=0 dstat=0 lst=0 nrdyerr=0 dclr=0
[DRV] init=0 id=7 mode=0x1 lib=0x2 seq=0x1 odc=0x8b sts=0xe0 armed=1
[TRG] pulses=0 suppressed=0 cyc=1600 rst=1 rstmode=0x40
[HLT] polls=11 faults=0x0 cfglost=0
[IMU] init=0 addr=0x68 who=0x68 rst=1 pmrb0=0x40 pmrb=0x1 sr=19 cfg=4 gcfg=0x0 acfg=0x8 icfg=0x30 ien=0x1 armed=1
[ACC] reads=594 stale=592 rderr=0 ax=33 ay=-24 az=1129
[PWR] pm=0x1 drift=0 rderr=0
[DWT] ok=1 cyc=2046059026 cyc_per_ms=799999
[HB] up_ms=14490 frames=640 inf=640 hazard=0 canary_err=0 q=0 qovr=0
[I2C] init=0 gate=0 whoami=0x140e0 wr=0 wrseen=0x27 addr=0x5a ok=4022 err=0 tmo=0 recov=0 pclk1=200000000 sysclk=400000000
[NAK] nacks=0
[CLK] cpu=800000000 sysb=400000000 pclk1=200000000
[TOF] res=0 step=0 id=0xeacc blk=0xeacc10 ctl=0x0
[RNG] init=0 step=99 id=0xeacc boot=1 calls=93 xerr=0 dm=1 tb=15
[RNG] osc=41 imp=881 imprb=881 mstart=0x40 cfg=91 cfgfail=0x0 vhv=0 vpolls=0
[PRT] calls=2681 xerr=0 ler=1 lidx=0x0 perr=0 maxcnt=17 addr8=0x52
[RTY] wr=0 wmax=0 wref=0  rd=0 rmax=0 rref=0
[RNG] frames=642 last=27 min=16 max=37 nrdy=0 dxfer=0 dstat=0 lst=0 nrdyerr=0 dclr=0
[DRV] init=0 id=7 mode=0x1 lib=0x2 seq=0x1 odc=0x8b sts=0xe0 armed=1
[TRG] pulses=0 suppressed=0 cyc=1600 rst=1 rstmode=0x40
[HLT] polls=12 faults=0x0 cfglost=0
[IMU] init=0 addr=0x68 who=0x68 rst=1 pmrb0=0x40 pmrb=0x1 sr=19 cfg=4 gcfg=0x0 acfg=0x8 icfg=0x30 ien=0x1 armed=1
[ACC] reads=644 stale=642 rderr=0 ax=35 ay=-26 az=1128
[PWR] pm=0x1 drift=0 rderr=0
[DWT] ok=1 cyc=2922059870 cyc_per_ms=800000
[HB] up_ms=15585 frames=690 inf=690 hazard=0 canary_err=0 q=0 qovr=0
[I2C] init=0 gate=0 whoami=0x140e0 wr=0 wrseen=0x27 addr=0x5a ok=4324 err=0 tmo=0 recov=0 pclk1=200000000 sysclk=400000000
[NAK] nacks=0
[CLK] cpu=800000000 sysb=400000000 pclk1=200000000
[TOF] res=0 step=0 id=0xeacc blk=0xeacc10 ctl=0x0
[RNG] init=0 step=99 id=0xeacc boot=1 calls=93 xerr=0 dm=1 tb=15
[RNG] osc=41 imp=881 imprb=881 mstart=0x40 cfg=91 cfgfail=0x0 vhv=0 vpolls=0
[PRT] calls=2877 xerr=0 ler=1 lidx=0x0 perr=0 maxcnt=17 addr8=0x52
[RTY] wr=0 wmax=0 wref=0  rd=0 rmax=0 rref=0
[RNG] frames=692 last=26 min=16 max=37 nrdy=0 dxfer=0 dstat=0 lst=0 nrdyerr=0 dclr=0
[DRV] init=0 id=7 mode=0x1 lib=0x2 seq=0x1 odc=0x8b sts=0xe0 armed=1
[TRG] pulses=0 suppressed=0 cyc=1600 rst=1 rstmode=0x40
[HLT] polls=13 faults=0x0 cfglost=0
[IMU] init=0 addr=0x68 who=0x68 rst=1 pmrb0=0x40 pmrb=0x1 sr=19 cfg=4 gcfg=0x0 acfg=0x8 icfg=0x30 ien=0x1 armed=1
[ACC] reads=693 stale=691 rderr=0 ax=36 ay=-25 az=1130
[PWR] pm=0x1 drift=0 rderr=0
[DWT] ok=1 cyc=3798035840 cyc_per_ms=799978
[HB] up_ms=16680 frames=739 inf=739 hazard=0 canary_err=0 q=0 qovr=0
[I2C] init=0 gate=0 whoami=0x140e0 wr=0 wrseen=0x27 addr=0x5a ok=4620 err=0 tmo=0 recov=0 pclk1=200000000 sysclk=400000000
[NAK] nacks=0
[CLK] cpu=800000000 sysb=400000000 pclk1=200000000
[TOF] res=0 step=0 id=0xeacc blk=0xeacc10 ctl=0x0
[RNG] init=0 step=99 id=0xeacc boot=1 calls=93 xerr=0 dm=1 tb=15
[RNG] osc=41 imp=881 imprb=881 mstart=0x40 cfg=91 cfgfail=0x0 vhv=0 vpolls=0
[PRT] calls=3077 xerr=0 ler=1 lidx=0x0 perr=0 maxcnt=17 addr8=0x52
[RTY] wr=0 wmax=0 wref=0  rd=0 rmax=0 rref=0
[RNG] frames=741 last=31 min=16 max=37 nrdy=0 dxfer=0 dstat=0 lst=0 nrdyerr=0 dclr=0
[DRV] init=0 id=7 mode=0x1 lib=0x2 seq=0x1 odc=0x8b sts=0xe0 armed=1
[TRG] pulses=0 suppressed=0 cyc=1600 rst=1 rstmode=0x40
[HLT] polls=14 faults=0x0 cfglost=0
[IMU] init=0 addr=0x68 who=0x68 rst=1 pmrb0=0x40 pmrb=0x1 sr=19 cfg=4 gcfg=0x0 acfg=0x8 icfg=0x30 ien=0x1 armed=1
[ACC] reads=743 stale=741 rderr=0 ax=37 ay=-25 az=1125
[PWR] pm=0x1 drift=0 rderr=0
[DWT] ok=1 cyc=379092470 cyc_per_ms=800021
[HB] up_ms=17775 frames=789 inf=789 hazard=0 canary_err=0 q=0 qovr=0
[I2C] init=0 gate=0 whoami=0x140e0 wr=0 wrseen=0x27 addr=0x5a ok=4922 err=0 tmo=0 recov=0 pclk1=200000000 sysclk=400000000
[NAK] nacks=0
[CLK] cpu=800000000 sysb=400000000 pclk1=200000000
[TOF] res=0 step=0 id=0xeacc blk=0xeacc10 ctl=0x0
[RNG] init=0 step=99 id=0xeacc boot=1 calls=93 xerr=0 dm=1 tb=15
[RNG] osc=41 imp=881 imprb=881 mstart=0x40 cfg=91 cfgfail=0x0 vhv=0 vpolls=0
[PRT] calls=3277 xerr=0 ler=1 lidx=0x0 perr=0 maxcnt=17 addr8=0x52
[RTY] wr=0 wmax=0 wref=0  rd=0 rmax=0 rref=0
[RNG] frames=791 last=29 min=16 max=37 nrdy=0 dxfer=0 dstat=0 lst=0 nrdyerr=0 dclr=0
[DRV] init=0 id=7 mode=0x1 lib=0x2 seq=0x1 odc=0x8b sts=0xe0 armed=1
[TRG] pulses=0 suppressed=0 cyc=1600 rst=1 rstmode=0x40
[HLT] polls=15 faults=0x0 cfglost=0
[IMU] init=0 addr=0x68 who=0x68 rst=1 pmrb0=0x40 pmrb=0x1 sr=19 cfg=4 gcfg=0x0 acfg=0x8 icfg=0x30 ien=0x1 armed=1
[ACC] reads=792 stale=790 rderr=0 ax=35 ay=-25 az=1126
[PWR] pm=0x1 drift=0 rderr=0
[DWT] ok=1 cyc=1255092422 cyc_per_ms=799999
[HB] up_ms=18870 frames=838 inf=838 hazard=0 canary_err=0 q=0 qovr=0
[I2C] init=0 gate=0 whoami=0x140e0 wr=0 wrseen=0x27 addr=0x5a ok=5224 err=0 tmo=0 recov=0 pclk1=200000000 sysclk=400000000
[NAK] nacks=0
[CLK] cpu=800000000 sysb=400000000 pclk1=200000000
[TOF] res=0 step=0 id=0xeacc blk=0xeacc10 ctl=0x0
[RNG] init=0 step=99 id=0xeacc boot=1 calls=93 xerr=0 dm=1 tb=15
[RNG] osc=41 imp=881 imprb=881 mstart=0x40 cfg=91 cfgfail=0x0 vhv=0 vpolls=0
[PRT] calls=3473 xerr=0 ler=1 lidx=0x0 perr=0 maxcnt=17 addr8=0x52
[RTY] wr=0 wmax=0 wref=0  rd=0 rmax=0 rref=0
[RNG] frames=841 last=36 min=16 max=43 nrdy=0 dxfer=0 dstat=0 lst=0 nrdyerr=0 dclr=0
[DRV] init=0 id=7 mode=0x1 lib=0x2 seq=0x1 odc=0x8b sts=0xe0 armed=1
[TRG] pulses=0 suppressed=0 cyc=1600 rst=1 rstmode=0x40
[HLT] polls=16 faults=0x0 cfglost=0
[IMU] init=0 addr=0x68 who=0x68 rst=1 pmrb0=0x40 pmrb=0x1 sr=19 cfg=4 gcfg=0x0 acfg=0x8 icfg=0x30 ien=0x1 armed=1
[ACC] reads=842 stale=840 rderr=0 ax=38 ay=-24 az=1126
[PWR] pm=0x1 drift=0 rderr=0
[DWT] ok=1 cyc=2131092598 cyc_per_ms=800000
[HB] up_ms=19965 frames=888 inf=888 hazard=0 canary_err=0 q=0 qovr=0
[I2C] init=0 gate=0 whoami=0x140e0 wr=0 wrseen=0x27 addr=0x5a ok=5520 err=0 tmo=0 recov=0 pclk1=200000000 sysclk=400000000
[NAK] nacks=0
[CLK] cpu=800000000 sysb=400000000 pclk1=200000000
[TOF] res=0 step=0 id=0xeacc blk=0xeacc10 ctl=0x0
[RNG] init=0 step=99 id=0xeacc boot=1 calls=93 xerr=0 dm=1 tb=15
[RNG] osc=41 imp=881 imprb=881 mstart=0x40 cfg=91 cfgfail=0x0 vhv=0 vpolls=0
[PRT] calls=3673 xerr=0 ler=1 lidx=0x0 perr=0 maxcnt=17 addr8=0x52
[RTY] wr=0 wmax=0 wref=0  rd=0 rmax=0 rref=0
[RNG] frames=890 last=30 min=16 max=43 nrdy=0 dxfer=0 dstat=0 lst=0 nrdyerr=0 dclr=0
[DRV] init=0 id=7 mode=0x1 lib=0x2 seq=0x1 odc=0x8b sts=0xe0 armed=1
[TRG] pulses=0 suppressed=0 cyc=1600 rst=1 rstmode=0x40
[HLT] polls=17 faults=0x0 cfglost=0
[IMU] init=0 addr=0x68 who=0x68 rst=1 pmrb0=0x40 pmrb=0x1 sr=19 cfg=4 gcfg=0x0 acfg=0x8 icfg=0x30 ien=0x1 armed=1
[ACC] reads=892 stale=890 rderr=0 ax=36 ay=-25 az=1127
[PWR] pm=0x1 drift=0 rderr=0
[DWT] ok=1 cyc=3007092498 cyc_per_ms=799999
[HB] up_ms=21060 frames=938 inf=938 hazard=0 canary_err=0 q=0 qovr=0
[I2C] init=0 gate=0 whoami=0x140e0 wr=0 wrseen=0x27 addr=0x5a ok=5822 err=0 tmo=0 recov=0 pclk1=200000000 sysclk=400000000
[NAK] nacks=0
[CLK] cpu=800000000 sysb=400000000 pclk1=200000000
[TOF] res=0 step=0 id=0xeacc blk=0xeacc10 ctl=0x0
[RNG] init=0 step=99 id=0xeacc boot=1 calls=93 xerr=0 dm=1 tb=15
[RNG] osc=41 imp=881 imprb=881 mstart=0x40 cfg=91 cfgfail=0x0 vhv=0 vpolls=0
[PRT] calls=3869 xerr=0 ler=1 lidx=0x0 perr=0 maxcnt=17 addr8=0x52
[RTY] wr=0 wmax=0 wref=0  rd=0 rmax=0 rref=0
[RNG] frames=940 last=24 min=16 max=43 nrdy=0 dxfer=0 dstat=0 lst=0 nrdyerr=0 dclr=0
[DRV] init=0 id=7 mode=0x1 lib=0x2 seq=0x1 odc=0x8b sts=0xe0 armed=1
[TRG] pulses=0 suppressed=0 cyc=1600 rst=1 rstmode=0x40
[HLT] polls=18 faults=0x0 cfglost=0
[IMU] init=0 addr=0x68 who=0x68 rst=1 pmrb0=0x40 pmrb=0x1 sr=19 cfg=4 gcfg=0x0 acfg=0x8 icfg=0x30 ien=0x1 armed=1
[ACC] reads=941 stale=939 rderr=0 ax=36 ay=-25 az=1129
[PWR] pm=0x1 drift=0 rderr=0
[DWT] ok=1 cyc=3883004076 cyc_per_ms=799919
[HB] up_ms=22155 frames=987 inf=987 hazard=0 canary_err=0 q=0 qovr=0
[I2C] init=0 gate=0 whoami=0x140e0 wr=0 wrseen=0x27 addr=0x5a ok=6118 err=0 tmo=0 recov=0 pclk1=200000000 sysclk=400000000
[NAK] nacks=0
[CLK] cpu=800000000 sysb=400000000 pclk1=200000000
[TOF] res=0 step=0 id=0xeacc blk=0xeacc10 ctl=0x0
[RNG] init=0 step=99 id=0xeacc boot=1 calls=93 xerr=0 dm=1 tb=15
[RNG] osc=41 imp=881 imprb=881 mstart=0x40 cfg=91 cfgfail=0x0 vhv=0 vpolls=0
[PRT] calls=4069 xerr=0 ler=1 lidx=0x0 perr=0 maxcnt=17 addr8=0x52
[RTY] wr=0 wmax=0 wref=0  rd=0 rmax=0 rref=0
[RNG] frames=989 last=30 min=16 max=43 nrdy=0 dxfer=0 dstat=0 lst=0 nrdyerr=0 dclr=0
[DRV] init=0 id=7 mode=0x1 lib=0x2 seq=0x1 odc=0x8b sts=0xe0 armed=1
[TRG] pulses=0 suppressed=0 cyc=1600 rst=1 rstmode=0x40
[HLT] polls=19 faults=0x0 cfglost=0
[IMU] init=0 addr=0x68 who=0x68 rst=1 pmrb0=0x40 pmrb=0x1 sr=19 cfg=4 gcfg=0x0 acfg=0x8 icfg=0x30 ien=0x1 armed=1
[ACC] reads=991 stale=989 rderr=0 ax=35 ay=-26 az=1126
[PWR] pm=0x1 drift=0 rderr=0
[DWT] ok=1 cyc=464125218 cyc_per_ms=800080
[HB] up_ms=23250 frames=1037 inf=1037 hazard=0 canary_err=0 q=0 qovr=0
[I2C] init=0 gate=0 whoami=0x140e0 wr=0 wrseen=0x27 addr=0x5a ok=6420 err=0 tmo=0 recov=0 pclk1=200000000 sysclk=400000000
[NAK] nacks=0
[CLK] cpu=800000000 sysb=400000000 pclk1=200000000
[TOF] res=0 step=0 id=0xeacc blk=0xeacc10 ctl=0x0
[RNG] init=0 step=99 id=0xeacc boot=1 calls=93 xerr=0 dm=1 tb=15
[RNG] osc=41 imp=881 imprb=881 mstart=0x40 cfg=91 cfgfail=0x0 vhv=0 vpolls=0
[PRT] calls=4269 xerr=0 ler=1 lidx=0x0 perr=0 maxcnt=17 addr8=0x52
[RTY] wr=0 wmax=0 wref=0  rd=0 rmax=0 rref=0
[RNG] frames=1039 last=27 min=16 max=43 nrdy=0 dxfer=0 dstat=0 lst=0 nrdyerr=0 dclr=0
[DRV] init=0 id=7 mode=0x1 lib=0x2 seq=0x1 odc=0x8b sts=0xe0 armed=1
[TRG] pulses=0 suppressed=0 cyc=1600 rst=1 rstmode=0x40
[HLT] polls=20 faults=0x0 cfglost=0
[IMU] init=0 addr=0x68 who=0x68 rst=1 pmrb0=0x40 pmrb=0x1 sr=19 cfg=4 gcfg=0x0 acfg=0x8 icfg=0x30 ien=0x1 armed=1
[ACC] reads=1040 stale=1038 rderr=0 ax=36 ay=-26 az=1127
[PWR] pm=0x1 drift=0 rderr=0
[DWT] ok=1 cyc=1340475054 cyc_per_ms=800319
[HB] up_ms=24345 frames=1086 inf=1086 hazard=0 canary_err=0 q=0 qovr=0
[I2C] init=0 gate=0 whoami=0x140e0 wr=0 wrseen=0x27 addr=0x5a ok=6722 err=0 tmo=0 recov=0 pclk1=200000000 sysclk=400000000
[NAK] nacks=0
[CLK] cpu=800000000 sysb=400000000 pclk1=200000000
[TOF] res=0 step=0 id=0xeacc blk=0xeacc10 ctl=0x0
[RNG] init=0 step=99 id=0xeacc boot=1 calls=93 xerr=0 dm=1 tb=15
[RNG] osc=41 imp=881 imprb=881 mstart=0x40 cfg=91 cfgfail=0x0 vhv=0 vpolls=0
[PRT] calls=4465 xerr=0 ler=1 lidx=0x0 perr=0 maxcnt=17 addr8=0x52
[RTY] wr=0 wmax=0 wref=0  rd=0 rmax=0 rref=0
[RNG] frames=1089 last=27 min=16 max=43 nrdy=0 dxfer=0 dstat=0 lst=0 nrdyerr=0 dclr=0
[DRV] init=0 id=7 mode=0x1 lib=0x2 seq=0x1 odc=0x8b sts=0xe0 armed=1
[TRG] pulses=0 suppressed=0 cyc=1600 rst=1 rstmode=0x40
[HLT] polls=21 faults=0x0 cfglost=0
[IMU] init=0 addr=0x68 who=0x68 rst=1 pmrb0=0x40 pmrb=0x1 sr=19 cfg=4 gcfg=0x0 acfg=0x8 icfg=0x30 ien=0x1 armed=1
[ACC] reads=1090 stale=1088 rderr=0 ax=37 ay=-24 az=1125
[PWR] pm=0x1 drift=0 rderr=0
[DWT] ok=1 cyc=2216475038 cyc_per_ms=799999
[HB] up_ms=25440 frames=1136 inf=1136 hazard=0 canary_err=0 q=0 qovr=0
[I2C] init=0 gate=0 whoami=0x140e0 wr=0 wrseen=0x27 addr=0x5a ok=7018 err=0 tmo=0 recov=0 pclk1=200000000 sysclk=400000000
[NAK] nacks=0
[CLK] cpu=800000000 sysb=400000000 pclk1=200000000
[TOF] res=0 step=0 id=0xeacc blk=0xeacc10 ctl=0x0
[RNG] init=0 step=99 id=0xeacc boot=1 calls=93 xerr=0 dm=1 tb=15
[RNG] osc=41 imp=881 imprb=881 mstart=0x40 cfg=91 cfgfail=0x0 vhv=0 vpolls=0
[PRT] calls=4665 xerr=0 ler=1 lidx=0x0 perr=0 maxcnt=17 addr8=0x52
[RTY] wr=0 wmax=0 wref=0  rd=0 rmax=0 rref=0
[RNG] frames=1138 last=27 min=16 max=43 nrdy=0 dxfer=0 dstat=0 lst=0 nrdyerr=0 dclr=0
[DRV] init=0 id=7 mode=0x1 lib=0x2 seq=0x1 odc=0x8b sts=0xe0 armed=1
[TRG] pulses=0 suppressed=0 cyc=1600 rst=1 rstmode=0x40
[HLT] polls=22 faults=0x0 cfglost=0
[IMU] init=0 addr=0x68 who=0x68 rst=1 pmrb0=0x40 pmrb=0x1 sr=19 cfg=4 gcfg=0x0 acfg=0x8 icfg=0x30 ien=0x1 armed=1
[ACC] reads=1139 stale=1138 rderr=0 ax=35 ay=-25 az=1127
[PWR] pm=0x1 drift=0 rderr=0
[DWT] ok=1 cyc=3092475058 cyc_per_ms=800000
[HB] up_ms=26535 frames=1185 inf=1185 hazard=0 canary_err=0 q=0 qovr=0
[I2C] init=0 gate=0 whoami=0x140e0 wr=0 wrseen=0x27 addr=0x5a ok=7320 err=0 tmo=0 recov=0 pclk1=200000000 sysclk=400000000
[NAK] nacks=0
[CLK] cpu=800000000 sysb=400000000 pclk1=200000000
[TOF] res=0 step=0 id=0xeacc blk=0xeacc10 ctl=0x0
[RNG] init=0 step=99 id=0xeacc boot=1 calls=93 xerr=0 dm=1 tb=15
[RNG] osc=41 imp=881 imprb=881 mstart=0x40 cfg=91 cfgfail=0x0 vhv=0 vpolls=0
[PRT] calls=4861 xerr=0 ler=1 lidx=0x0 perr=0 maxcnt=17 addr8=0x52
[RTY] wr=0 wmax=0 wref=0  rd=0 rmax=0 rref=0
[RNG] frames=1188 last=26 min=16 max=43 nrdy=0 dxfer=0 dstat=0 lst=0 nrdyerr=0 dclr=0
[DRV] init=0 id=7 mode=0x1 lib=0x2 seq=0x1 odc=0x8b sts=0xe0 armed=1
[TRG] pulses=0 suppressed=0 cyc=1600 rst=1 rstmode=0x40
[HLT] polls=23 faults=0x0 cfglost=0
[IMU] init=0 addr=0x68 who=0x68 rst=1 pmrb0=0x40 pmrb=0x1 sr=19 cfg=4 gcfg=0x0 acfg=0x8 icfg=0x30 ien=0x1 armed=1
[ACC] reads=1189 stale=1187 rderr=0 ax=37 ay=-26 az=1126
[PWR] pm=0x1 drift=0 rderr=0
[DWT] ok=1 cyc=3968409102 cyc_per_ms=799939
[HB] up_ms=27630 frames=1235 inf=1235 hazard=0 canary_err=0 q=0 qovr=0
[I2C] init=0 gate=0 whoami=0x140e0 wr=0 wrseen=0x27 addr=0x5a ok=7616 err=0 tmo=0 recov=0 pclk1=200000000 sysclk=400000000
[NAK] nacks=0
[CLK] cpu=800000000 sysb=400000000 pclk1=200000000
[TOF] res=0 step=0 id=0xeacc blk=0xeacc10 ctl=0x0
[RNG] init=0 step=99 id=0xeacc boot=1 calls=93 xerr=0 dm=1 tb=15
[RNG] osc=41 imp=881 imprb=881 mstart=0x40 cfg=91 cfgfail=0x0 vhv=0 vpolls=0
[PRT] calls=5061 xerr=0 ler=1 lidx=0x0 perr=0 maxcnt=17 addr8=0x52
[RTY] wr=0 wmax=0 wref=0  rd=0 rmax=0 rref=0
[RNG] frames=1237 last=25 min=16 max=43 nrdy=0 dxfer=0 dstat=0 lst=0 nrdyerr=0 dclr=0
[DRV] init=0 id=7 mode=0x1 lib=0x2 seq=0x1 odc=0x8b sts=0xe0 armed=1
[TRG] pulses=0 suppressed=0 cyc=1600 rst=1 rstmode=0x40
[HLT] polls=24 faults=0x0 cfglost=0
[IMU] init=0 addr=0x68 who=0x68 rst=1 pmrb0=0x40 pmrb=0x1 sr=19 cfg=4 gcfg=0x0 acfg=0x8 icfg=0x30 ien=0x1 armed=1
[ACC] reads=1239 stale=1237 rderr=0 ax=36 ay=-26 az=1129
[PWR] pm=0x1 drift=0 rderr=0
[DWT] ok=1 cyc=549507818 cyc_per_ms=800060
[HB] up_ms=28725 frames=1285 inf=1285 hazard=0 canary_err=0 q=0 qovr=0
[I2C] init=0 gate=0 whoami=0x140e0 wr=0 wrseen=0x27 addr=0x5a ok=7918 err=0 tmo=0 recov=0 pclk1=200000000 sysclk=400000000
[NAK] nacks=0
[CLK] cpu=800000000 sysb=400000000 pclk1=200000000
[TOF] res=0 step=0 id=0xeacc blk=0xeacc10 ctl=0x0
[RNG] init=0 step=99 id=0xeacc boot=1 calls=93 xerr=0 dm=1 tb=15
[RNG] osc=41 imp=881 imprb=881 mstart=0x40 cfg=91 cfgfail=0x0 vhv=0 vpolls=0
[PRT] calls=5258 xerr=0 ler=1 lidx=0x0 perr=0 maxcnt=17 addr8=0x52
[RTY] wr=0 wmax=0 wref=0  rd=0 rmax=0 rref=0
[RNG] frames=1287 last=32 min=16 max=43 nrdy=0 dxfer=0 dstat=0 lst=0 nrdyerr=0 dclr=0
[DRV] init=0 id=7 mode=0x1 lib=0x2 seq=0x1 odc=0x8b sts=0xe0 armed=1
[TRG] pulses=0 suppressed=0 cyc=1600 rst=1 rstmode=0x40
[HLT] polls=25 faults=0x0 cfglost=0
[IMU] init=0 addr=0x68 who=0x68 rst=1 pmrb0=0x40 pmrb=0x1 sr=19 cfg=4 gcfg=0x0 acfg=0x8 icfg=0x30 ien=0x1 armed=1
[ACC] reads=1288 stale=1286 rderr=0 ax=35 ay=-23 az=1126
[PWR] pm=0x1 drift=0 rderr=0
[DWT] ok=1 cyc=1425508110 cyc_per_ms=800000
[HB] up_ms=29820 frames=1334 inf=1334 hazard=0 canary_err=0 q=0 qovr=0
[I2C] init=0 gate=0 whoami=0x140e0 wr=0 wrseen=0x27 addr=0x5a ok=8220 err=0 tmo=0 recov=0 pclk1=200000000 sysclk=400000000
[NAK] nacks=0
[CLK] cpu=800000000 sysb=400000000 pclk1=200000000
[TOF] res=0 step=0 id=0xeacc blk=0xeacc10 ctl=0x0
[RNG] init=0 step=99 id=0xeacc boot=1 calls=93 xerr=0 dm=1 tb=15
[RNG] osc=41 imp=881 imprb=881 mstart=0x40 cfg=91 cfgfail=0x0 vhv=0 vpolls=0
[PRT] calls=5457 xerr=0 ler=1 lidx=0x0 perr=0 maxcnt=17 addr8=0x52
[RTY] wr=0 wmax=0 wref=0  rd=0 rmax=0 rref=0
[RNG] frames=1336 last=26 min=16 max=43 nrdy=0 dxfer=0 dstat=0 lst=0 nrdyerr=0 dclr=0
[DRV] init=0 id=7 mode=0x1 lib=0x2 seq=0x1 odc=0x8b sts=0xe0 armed=1
[TRG] pulses=0 suppressed=0 cyc=1600 rst=1 rstmode=0x40
[HLT] polls=26 faults=0x0 cfglost=0
[IMU] init=0 addr=0x68 who=0x68 rst=1 pmrb0=0x40 pmrb=0x1 sr=19 cfg=4 gcfg=0x0 acfg=0x8 icfg=0x30 ien=0x1 armed=1
[ACC] reads=1338 stale=1336 rderr=0 ax=35 ay=-26 az=1131
[PWR] pm=0x1 drift=0 rderr=0
[DWT] ok=1 cyc=2301507806 cyc_per_ms=799999
[HB] up_ms=30915 frames=1384 inf=1384 hazard=0 canary_err=0 q=0 qovr=0
[I2C] init=0 gate=0 whoami=0x140e0 wr=0 wrseen=0x27 addr=0x5a ok=8516 err=0 tmo=0 recov=0 pclk1=200000000 sysclk=400000000
[NAK] nacks=0
[CLK] cpu=800000000 sysb=400000000 pclk1=200000000
[TOF] res=0 step=0 id=0xeacc blk=0xeacc10 ctl=0x0
[RNG] init=0 step=99 id=0xeacc boot=1 calls=93 xerr=0 dm=1 tb=15
[RNG] osc=41 imp=881 imprb=881 mstart=0x40 cfg=91 cfgfail=0x0 vhv=0 vpolls=0
[PRT] calls=5657 xerr=0 ler=1 lidx=0x0 perr=0 maxcnt=17 addr8=0x52
[RTY] wr=0 wmax=0 wref=0  rd=0 rmax=0 rref=0
[RNG] frames=1386 last=29 min=16 max=43 nrdy=0 dxfer=0 dstat=0 lst=0 nrdyerr=0 dclr=0
[DRV] init=0 id=7 mode=0x1 lib=0x2 seq=0x1 odc=0x8b sts=0xe0 armed=1
[TRG] pulses=0 suppressed=0 cyc=1600 rst=1 rstmode=0x40
[HLT] polls=27 faults=0x0 cfglost=0
[IMU] init=0 addr=0x68 who=0x68 rst=1 pmrb0=0x40 pmrb=0x1 sr=19 cfg=4 gcfg=0x0 acfg=0x8 icfg=0x30 ien=0x1 armed=1
[ACC] reads=1387 stale=1385 rderr=0 ax=36 ay=-25 az=1130
[PWR] pm=0x1 drift=0 rderr=0
[DWT] ok=1 cyc=3177507802 cyc_per_ms=799999
[HB] up_ms=32010 frames=1433 inf=1433 hazard=0 canary_err=0 q=0 qovr=0
[I2C] init=0 gate=0 whoami=0x140e0 wr=0 wrseen=0x27 addr=0x5a ok=8818 err=0 tmo=0 recov=0 pclk1=200000000 sysclk=400000000
[NAK] nacks=0
[CLK] cpu=800000000 sysb=400000000 pclk1=200000000
[TOF] res=0 step=0 id=0xeacc blk=0xeacc10 ctl=0x0
[RNG] init=0 step=99 id=0xeacc boot=1 calls=93 xerr=0 dm=1 tb=15
[RNG] osc=41 imp=881 imprb=881 mstart=0x40 cfg=91 cfgfail=0x0 vhv=0 vpolls=0
[PRT] calls=5853 xerr=0 ler=1 lidx=0x0 perr=0 maxcnt=17 addr8=0x52
[RTY] wr=0 wmax=0 wref=0  rd=0 rmax=0 rref=0
[RNG] frames=1436 last=28 min=16 max=43 nrdy=0 dxfer=0 dstat=0 lst=0 nrdyerr=0 dclr=0
[DRV] init=0 id=7 mode=0x1 lib=0x2 seq=0x1 odc=0x8b sts=0xe0 armed=1
[TRG] pulses=0 suppressed=0 cyc=1600 rst=1 rstmode=0x40
[HLT] polls=28 faults=0x0 cfglost=0
[IMU] init=0 addr=0x68 who=0x68 rst=1 pmrb0=0x40 pmrb=0x1 sr=19 cfg=4 gcfg=0x0 acfg=0x8 icfg=0x30 ien=0x1 armed=1
[ACC] reads=1437 stale=1435 rderr=0 ax=35 ay=-25 az=1128
[PWR] pm=0x1 drift=0 rderr=0
[DWT] ok=1 cyc=4053507026 cyc_per_ms=799999
[HB] up_ms=33105 frames=1483 inf=1483 hazard=0 canary_err=0 q=0 qovr=0
[I2C] init=0 gate=0 whoami=0x140e0 wr=0 wrseen=0x27 addr=0x5a ok=9114 err=0 tmo=0 recov=0 pclk1=200000000 sysclk=400000000
[NAK] nacks=0
[CLK] cpu=800000000 sysb=400000000 pclk1=200000000
[TOF] res=0 step=0 id=0xeacc blk=0xeacc10 ctl=0x0
[RNG] init=0 step=99 id=0xeacc boot=1 calls=93 xerr=0 dm=1 tb=15
[RNG] osc=41 imp=881 imprb=881 mstart=0x40 cfg=91 cfgfail=0x0 vhv=0 vpolls=0
[PRT] calls=6053 xerr=0 ler=1 lidx=0x0 perr=0 maxcnt=17 addr8=0x52
[RTY] wr=0 wmax=0 wref=0  rd=0 rmax=0 rref=0
[RNG] frames=1485 last=29 min=16 max=43 nrdy=0 dxfer=0 dstat=0 lst=0 nrdyerr=0 dclr=0
[DRV] init=0 id=7 mode=0x1 lib=0x2 seq=0x1 odc=0x8b sts=0xe0 armed=1
[TRG] pulses=0 suppressed=0 cyc=1600 rst=1 rstmode=0x40
[HLT] polls=29 faults=0x0 cfglost=0
[IMU] init=0 addr=0x68 who=0x68 rst=1 pmrb0=0x40 pmrb=0x1 sr=19 cfg=4 gcfg=0x0 acfg=0x8 icfg=0x30 ien=0x1 armed=1
[ACC] reads=1487 stale=1485 rderr=0 ax=37 ay=-24 az=1128
[PWR] pm=0x1 drift=0 rderr=0
[DWT] ok=1 cyc=634540450 cyc_per_ms=800000
[HB] up_ms=34200 frames=1533 inf=1533 hazard=0 canary_err=0 q=0 qovr=0
[I2C] init=0 gate=0 whoami=0x140e0 wr=0 wrseen=0x27 addr=0x5a ok=9416 err=0 tmo=0 recov=0 pclk1=200000000 sysclk=400000000
[NAK] nacks=0
[CLK] cpu=800000000 sysb=400000000 pclk1=200000000
[TOF] res=0 step=0 id=0xeacc blk=0xeacc10 ctl=0x0
[RNG] init=0 step=99 id=0xeacc boot=1 calls=93 xerr=0 dm=1 tb=15
[RNG] osc=41 imp=881 imprb=881 mstart=0x40 cfg=91 cfgfail=0x0 vhv=0 vpolls=0
[PRT] calls=6249 xerr=0 ler=1 lidx=0x0 perr=0 maxcnt=17 addr8=0x52
[RTY] wr=0 wmax=0 wref=0  rd=0 rmax=0 rref=0
[RNG] frames=1535 last=29 min=16 max=43 nrdy=0 dxfer=0 dstat=0 lst=0 nrdyerr=0 dclr=0
[DRV] init=0 id=7 mode=0x1 lib=0x2 seq=0x1 odc=0x8b sts=0xe0 armed=1
[TRG] pulses=0 suppressed=0 cyc=1600 rst=1 rstmode=0x40
[HLT] polls=30 faults=0x0 cfglost=0
[IMU] init=0 addr=0x68 who=0x68 rst=1 pmrb0=0x40 pmrb=0x1 sr=19 cfg=4 gcfg=0x0 acfg=0x8 icfg=0x30 ien=0x1 armed=1
[ACC] reads=1536 stale=1534 rderr=0 ax=37 ay=-26 az=1129
[PWR] pm=0x1 drift=0 rderr=0
[DWT] ok=1 cyc=1510540502 cyc_per_ms=800000
[HB] up_ms=35295 frames=1582 inf=1582 hazard=0 canary_err=0 q=0 qovr=0
[I2C] init=0 gate=0 whoami=0x140e0 wr=0 wrseen=0x27 addr=0x5a ok=9712 err=0 tmo=0 recov=0 pclk1=200000000 sysclk=400000000
[NAK] nacks=0
[CLK] cpu=800000000 sysb=400000000 pclk1=200000000
[TOF] res=0 step=0 id=0xeacc blk=0xeacc10 ctl=0x0
[RNG] init=0 step=99 id=0xeacc boot=1 calls=93 xerr=0 dm=1 tb=15
[RNG] osc=41 imp=881 imprb=881 mstart=0x40 cfg=91 cfgfail=0x0 vhv=0 vpolls=0
[PRT] calls=6449 xerr=0 ler=1 lidx=0x0 perr=0 maxcnt=17 addr8=0x52
[RTY] wr=0 wmax=0 wref=0  rd=0 rmax=0 rref=0
[RNG] frames=1584 last=27 min=16 max=43 nrdy=0 dxfer=0 dstat=0 lst=0 nrdyerr=0 dclr=0
[DRV] init=0 id=7 mode=0x1 lib=0x2 seq=0x1 odc=0x8b sts=0xe0 armed=1
[TRG] pulses=0 suppressed=0 cyc=1600 rst=1 rstmode=0x40
[HLT] polls=31 faults=0x0 cfglost=0
[IMU] init=0 addr=0x68 who=0x68 rst=1 pmrb0=0x40 pmrb=0x1 sr=19 cfg=4 gcfg=0x0 acfg=0x8 icfg=0x30 ien=0x1 armed=1
[ACC] reads=1586 stale=1584 rderr=0 ax=36 ay=-24 az=1129
[PWR] pm=0x1 drift=0 rderr=0
[DWT] ok=1 cyc=2386540490 cyc_per_ms=799999
[HB] up_ms=36390 frames=1632 inf=1632 hazard=0 canary_err=0 q=0 qovr=0
[I2C] init=0 gate=0 whoami=0x140e0 wr=0 wrseen=0x27 addr=0x5a ok=10014 err=0 tmo=0 recov=0 pclk1=200000000 sysclk=400000000
[NAK] nacks=0
[CLK] cpu=800000000 sysb=400000000 pclk1=200000000
[TOF] res=0 step=0 id=0xeacc blk=0xeacc10 ctl=0x0
[RNG] init=0 step=99 id=0xeacc boot=1 calls=93 xerr=0 dm=1 tb=15
[RNG] osc=41 imp=881 imprb=881 mstart=0x40 cfg=91 cfgfail=0x0 vhv=0 vpolls=0
[PRT] calls=6649 xerr=0 ler=1 lidx=0x0 perr=0 maxcnt=17 addr8=0x52
[RTY] wr=0 wmax=0 wref=0  rd=0 rmax=0 rref=0
[RNG] frames=1634 last=31 min=16 max=43 nrdy=0 dxfer=0 dstat=0 lst=0 nrdyerr=0 dclr=0
[DRV] init=0 id=7 mode=0x1 lib=0x2 seq=0x1 odc=0x8b sts=0xe0 armed=1
[TRG] pulses=0 suppressed=0 cyc=1600 rst=1 rstmode=0x40
[HLT] polls=32 faults=0x0 cfglost=0
[IMU] init=0 addr=0x68 who=0x68 rst=1 pmrb0=0x40 pmrb=0x1 sr=19 cfg=4 gcfg=0x0 acfg=0x8 icfg=0x30 ien=0x1 armed=1
[ACC] reads=1635 stale=1633 rderr=0 ax=36 ay=-27 az=1126
[PWR] pm=0x1 drift=0 rderr=0
[DWT] ok=1 cyc=3262610602 cyc_per_ms=800064
[HB] up_ms=37485 frames=1681 inf=1681 hazard=0 canary_err=0 q=0 qovr=0
[I2C] init=0 gate=0 whoami=0x140e0 wr=0 wrseen=0x27 addr=0x5a ok=10316 err=0 tmo=0 recov=0 pclk1=200000000 sysclk=400000000
[NAK] nacks=0
[CLK] cpu=800000000 sysb=400000000 pclk1=200000000
[TOF] res=0 step=0 id=0xeacc blk=0xeacc10 ctl=0x0
[RNG] init=0 step=99 id=0xeacc boot=1 calls=93 xerr=0 dm=1 tb=15
[RNG] osc=41 imp=881 imprb=881 mstart=0x40 cfg=91 cfgfail=0x0 vhv=0 vpolls=0
[PRT] calls=6845 xerr=0 ler=1 lidx=0x0 perr=0 maxcnt=17 addr8=0x52
[RTY] wr=0 wmax=0 wref=0  rd=0 rmax=0 rref=0
[RNG] frames=1684 last=27 min=16 max=43 nrdy=0 dxfer=0 dstat=0 lst=0 nrdyerr=0 dclr=0
[DRV] init=0 id=7 mode=0x1 lib=0x2 seq=0x1 odc=0x8b sts=0xe0 armed=1
[TRG] pulses=0 suppressed=0 cyc=1600 rst=1 rstmode=0x40
[HLT] polls=33 faults=0x0 cfglost=0
[IMU] init=0 addr=0x68 who=0x68 rst=1 pmrb0=0x40 pmrb=0x1 sr=19 cfg=4 gcfg=0x0 acfg=0x8 icfg=0x30 ien=0x1 armed=1
[ACC] reads=1685 stale=1683 rderr=0 ax=37 ay=-24 az=1127
[PWR] pm=0x1 drift=0 rderr=0
[DWT] ok=1 cyc=4138610646 cyc_per_ms=800000
[HB] up_ms=38580 frames=1731 inf=1731 hazard=0 canary_err=0 q=0 qovr=0
[I2C] init=0 gate=0 whoami=0x140e0 wr=0 wrseen=0x27 addr=0x5a ok=10612 err=0 tmo=0 recov=0 pclk1=200000000 sysclk=400000000
[NAK] nacks=0
[CLK] cpu=800000000 sysb=400000000 pclk1=200000000
[TOF] res=0 step=0 id=0xeacc blk=0xeacc10 ctl=0x0
[RNG] init=0 step=99 id=0xeacc boot=1 calls=93 xerr=0 dm=1 tb=15
[RNG] osc=41 imp=881 imprb=881 mstart=0x40 cfg=91 cfgfail=0x0 vhv=0 vpolls=0
[PRT] calls=7045 xerr=0 ler=1 lidx=0x0 perr=0 maxcnt=17 addr8=0x52
[RTY] wr=0 wmax=0 wref=0  rd=0 rmax=0 rref=0
[RNG] frames=1733 last=28 min=16 max=43 nrdy=0 dxfer=0 dstat=0 lst=0 nrdyerr=0 dclr=0
[DRV] init=0 id=7 mode=0x1 lib=0x2 seq=0x1 odc=0x8b sts=0xe0 armed=1
[TRG] pulses=0 suppressed=0 cyc=1600 rst=1 rstmode=0x40
[HLT] polls=34 faults=0x0 cfglost=0
[IMU] init=0 addr=0x68 who=0x68 rst=1 pmrb0=0x40 pmrb=0x1 sr=19 cfg=4 gcfg=0x0 acfg=0x8 icfg=0x30 ien=0x1 armed=1
[ACC] reads=1735 stale=1733 rderr=0 ax=36 ay=-25 az=1129
[PWR] pm=0x1 drift=0 rderr=0
[DWT] ok=1 cyc=719643134 cyc_per_ms=799999
[HB] up_ms=39675 frames=1781 inf=1781 hazard=0 canary_err=0 q=0 qovr=0
[I2C] init=0 gate=0 whoami=0x140e0 wr=0 wrseen=0x27 addr=0x5a ok=10914 err=0 tmo=0 recov=0 pclk1=200000000 sysclk=400000000
[NAK] nacks=0
[CLK] cpu=800000000 sysb=400000000 pclk1=200000000
[TOF] res=0 step=0 id=0xeacc blk=0xeacc10 ctl=0x0
[RNG] init=0 step=99 id=0xeacc boot=1 calls=93 xerr=0 dm=1 tb=15
[RNG] osc=41 imp=881 imprb=881 mstart=0x40 cfg=91 cfgfail=0x0 vhv=0 vpolls=0
[PRT] calls=7241 xerr=0 ler=1 lidx=0x0 perr=0 maxcnt=17 addr8=0x52
[RTY] wr=0 wmax=0 wref=0  rd=0 rmax=0 rref=0
[RNG] frames=1783 last=29 min=16 max=43 nrdy=0 dxfer=0 dstat=0 lst=0 nrdyerr=0 dclr=0
[DRV] init=0 id=7 mode=0x1 lib=0x2 seq=0x1 odc=0x8b sts=0xe0 armed=1
[TRG] pulses=0 suppressed=0 cyc=1600 rst=1 rstmode=0x40
[HLT] polls=35 faults=0x0 cfglost=0
[IMU] init=0 addr=0x68 who=0x68 rst=1 pmrb0=0x40 pmrb=0x1 sr=19 cfg=4 gcfg=0x0 acfg=0x8 icfg=0x30 ien=0x1 armed=1
[ACC] reads=1784 stale=1782 rderr=0 ax=38 ay=-24 az=1127
[PWR] pm=0x1 drift=0 rderr=0
[DWT] ok=1 cyc=1595603158 cyc_per_ms=799963
[HB] up_ms=40770 frames=1830 inf=1830 hazard=0 canary_err=0 q=0 qovr=0
[I2C] init=0 gate=0 whoami=0x140e0 wr=0 wrseen=0x27 addr=0x5a ok=11210 err=0 tmo=0 recov=0 pclk1=200000000 sysclk=400000000
[NAK] nacks=0
[CLK] cpu=800000000 sysb=400000000 pclk1=200000000
[TOF] res=0 step=0 id=0xeacc blk=0xeacc10 ctl=0x0
[RNG] init=0 step=99 id=0xeacc boot=1 calls=93 xerr=0 dm=1 tb=15
[RNG] osc=41 imp=881 imprb=881 mstart=0x40 cfg=91 cfgfail=0x0 vhv=0 vpolls=0
[PRT] calls=7441 xerr=0 ler=1 lidx=0x0 perr=0 maxcnt=17 addr8=0x52
[RTY] wr=0 wmax=0 wref=0  rd=0 rmax=0 rref=0
[RNG] frames=1832 last=29 min=16 max=43 nrdy=0 dxfer=0 dstat=0 lst=0 nrdyerr=0 dclr=0
[DRV] init=0 id=7 mode=0x1 lib=0x2 seq=0x1 odc=0x8b sts=0xe0 armed=1
[TRG] pulses=0 suppressed=0 cyc=1600 rst=1 rstmode=0x40
[HLT] polls=36 faults=0x0 cfglost=0
[IMU] init=0 addr=0x68 who=0x68 rst=1 pmrb0=0x40 pmrb=0x1 sr=19 cfg=4 gcfg=0x0 acfg=0x8 icfg=0x30 ien=0x1 armed=1
[ACC] reads=1834 stale=1832 rderr=0 ax=36 ay=-26 az=1125
[PWR] pm=0x1 drift=0 rderr=0
[DWT] ok=1 cyc=2471643214 cyc_per_ms=800036
[HB] up_ms=41865 frames=1880 inf=1880 hazard=0 canary_err=0 q=0 qovr=0
[I2C] init=0 gate=0 whoami=0x140e0 wr=0 wrseen=0x27 addr=0x5a ok=11512 err=0 tmo=0 recov=0 pclk1=200000000 sysclk=400000000
[NAK] nacks=0
[CLK] cpu=800000000 sysb=400000000 pclk1=200000000
[TOF] res=0 step=0 id=0xeacc blk=0xeacc10 ctl=0x0
[RNG] init=0 step=99 id=0xeacc boot=1 calls=93 xerr=0 dm=1 tb=15
[RNG] osc=41 imp=881 imprb=881 mstart=0x40 cfg=91 cfgfail=0x0 vhv=0 vpolls=0
[PRT] calls=7641 xerr=0 ler=1 lidx=0x0 perr=0 maxcnt=17 addr8=0x52
[RTY] wr=0 wmax=0 wref=0  rd=0 rmax=0 rref=0
[RNG] frames=1882 last=26 min=16 max=43 nrdy=0 dxfer=0 dstat=0 lst=0 nrdyerr=0 dclr=0
[DRV] init=0 id=7 mode=0x1 lib=0x2 seq=0x1 odc=0x8b sts=0xe0 armed=1
[TRG] pulses=0 suppressed=0 cyc=1600 rst=1 rstmode=0x40
[HLT] polls=37 faults=0x0 cfglost=0
[IMU] init=0 addr=0x68 who=0x68 rst=1 pmrb0=0x40 pmrb=0x1 sr=19 cfg=4 gcfg=0x0 acfg=0x8 icfg=0x30 ien=0x1 armed=1
[ACC] reads=1883 stale=1881 rderr=0 ax=35 ay=-26 az=1127
[PWR] pm=0x1 drift=0 rderr=0
[DWT] ok=1 cyc=3347643378 cyc_per_ms=800000
[HB] up_ms=42960 frames=1929 inf=1929 hazard=0 canary_err=0 q=0 qovr=0
[I2C] init=0 gate=0 whoami=0x140e0 wr=0 wrseen=0x27 addr=0x5a ok=11814 err=0 tmo=0 recov=0 pclk1=200000000 sysclk=400000000
[NAK] nacks=0
[CLK] cpu=800000000 sysb=400000000 pclk1=200000000
[TOF] res=0 step=0 id=0xeacc blk=0xeacc10 ctl=0x0
[RNG] init=0 step=99 id=0xeacc boot=1 calls=93 xerr=0 dm=1 tb=15
[RNG] osc=41 imp=881 imprb=881 mstart=0x40 cfg=91 cfgfail=0x0 vhv=0 vpolls=0
[PRT] calls=7837 xerr=0 ler=1 lidx=0x0 perr=0 maxcnt=17 addr8=0x52
[RTY] wr=0 wmax=0 wref=0  rd=0 rmax=0 rref=0
[RNG] frames=1932 last=24 min=16 max=43 nrdy=0 dxfer=0 dstat=0 lst=0 nrdyerr=0 dclr=0
[DRV] init=0 id=7 mode=0x1 lib=0x2 seq=0x1 odc=0x8b sts=0xe0 armed=1
[TRG] pulses=0 suppressed=0 cyc=1600 rst=1 rstmode=0x40
[HLT] polls=38 faults=0x0 cfglost=0
[IMU] init=0 addr=0x68 who=0x68 rst=1 pmrb0=0x40 pmrb=0x1 sr=19 cfg=4 gcfg=0x0 acfg=0x8 icfg=0x30 ien=0x1 armed=1
[ACC] reads=1933 stale=1931 rderr=0 ax=35 ay=-23 az=1129
[PWR] pm=0x1 drift=0 rderr=0
[DWT] ok=1 cyc=4223643130 cyc_per_ms=799999
[HB] up_ms=44055 frames=1979 inf=1979 hazard=0 canary_err=0 q=0 qovr=0
[I2C] init=0 gate=0 whoami=0x140e0 wr=0 wrseen=0x27 addr=0x5a ok=12110 err=0 tmo=0 recov=0 pclk1=200000000 sysclk=400000000
[NAK] nacks=0
[CLK] cpu=800000000 sysb=400000000 pclk1=200000000
[TOF] res=0 step=0 id=0xeacc blk=0xeacc10 ctl=0x0
[RNG] init=0 step=99 id=0xeacc boot=1 calls=93 xerr=0 dm=1 tb=15
[RNG] osc=41 imp=881 imprb=881 mstart=0x40 cfg=91 cfgfail=0x0 vhv=0 vpolls=0
[PRT] calls=8037 xerr=0 ler=1 lidx=0x0 perr=0 maxcnt=17 addr8=0x52
[RTY] wr=0 wmax=0 wref=0  rd=0 rmax=0 rref=0
[RNG] frames=1981 last=24 min=16 max=43 nrdy=0 dxfer=0 dstat=0 lst=0 nrdyerr=0 dclr=0
[DRV] init=0 id=7 mode=0x1 lib=0x2 seq=0x1 odc=0x8b sts=0xe0 armed=1
[TRG] pulses=0 suppressed=0 cyc=1600 rst=1 rstmode=0x40
[HLT] polls=39 faults=0x0 cfglost=0
[IMU] init=0 addr=0x68 who=0x68 rst=1 pmrb0=0x40 pmrb=0x1 sr=19 cfg=4 gcfg=0x0 acfg=0x8 icfg=0x30 ien=0x1 armed=1
[ACC] reads=1982 stale=1981 rderr=0 ax=35 ay=-23 az=1125
[PWR] pm=0x1 drift=0 rderr=0
[DWT] ok=1 cyc=804675894 cyc_per_ms=800000
[HB] up_ms=45150 frames=2028 inf=2028 hazard=0 canary_err=0 q=0 qovr=0
[I2C] init=0 gate=0 whoami=0x140e0 wr=0 wrseen=0x27 addr=0x5a ok=12412 err=0 tmo=0 recov=0 pclk1=200000000 sysclk=400000000
[NAK] nacks=0
[CLK] cpu=800000000 sysb=400000000 pclk1=200000000
[TOF] res=0 step=0 id=0xeacc blk=0xeacc10 ctl=0x0
[RNG] init=0 step=99 id=0xeacc boot=1 calls=93 xerr=0 dm=1 tb=15
[RNG] osc=41 imp=881 imprb=881 mstart=0x40 cfg=91 cfgfail=0x0 vhv=0 vpolls=0
[PRT] calls=8233 xerr=0 ler=1 lidx=0x0 perr=0 maxcnt=17 addr8=0x52
[RTY] wr=0 wmax=0 wref=0  rd=0 rmax=0 rref=0
[RNG] frames=2031 last=30 min=16 max=43 nrdy=0 dxfer=0 dstat=0 lst=0 nrdyerr=0 dclr=0
[DRV] init=0 id=7 mode=0x1 lib=0x2 seq=0x1 odc=0x8b sts=0xe0 armed=1
[TRG] pulses=0 suppressed=0 cyc=1600 rst=1 rstmode=0x40
[HLT] polls=40 faults=0x0 cfglost=0
[IMU] init=0 addr=0x68 who=0x68 rst=1 pmrb0=0x40 pmrb=0x1 sr=19 cfg=4 gcfg=0x0 acfg=0x8 icfg=0x30 ien=0x1 armed=1
[ACC] reads=2032 stale=2030 rderr=0 ax=36 ay=-25 az=1127
[PWR] pm=0x1 drift=0 rderr=0
[DWT] ok=1 cyc=1680624928 cyc_per_ms=799953
[HB] up_ms=46245 frames=2078 inf=2078 hazard=0 canary_err=0 q=0 qovr=0
[I2C] init=0 gate=0 whoami=0x140e0 wr=0 wrseen=0x27 addr=0x5a ok=12708 err=0 tmo=0 recov=0 pclk1=200000000 sysclk=400000000
[NAK] nacks=0
[CLK] cpu=800000000 sysb=400000000 pclk1=200000000
[TOF] res=0 step=0 id=0xeacc blk=0xeacc10 ctl=0x0
[RNG] init=0 step=99 id=0xeacc boot=1 calls=93 xerr=0 dm=1 tb=15
[RNG] osc=41 imp=881 imprb=881 mstart=0x40 cfg=91 cfgfail=0x0 vhv=0 vpolls=0
[PRT] calls=8433 xerr=0 ler=1 lidx=0x0 perr=0 maxcnt=17 addr8=0x52
[RTY] wr=0 wmax=0 wref=0  rd=0 rmax=0 rref=0
[RNG] frames=2080 last=25 min=16 max=43 nrdy=0 dxfer=0 dstat=0 lst=0 nrdyerr=0 dclr=0
[DRV] init=0 id=7 mode=0x1 lib=0x2 seq=0x1 odc=0x8b sts=0xe0 armed=1
[TRG] pulses=0 suppressed=0 cyc=1600 rst=1 rstmode=0x40
[HLT] polls=41 faults=0x0 cfglost=0
[IMU] init=0 addr=0x68 who=0x68 rst=1 pmrb0=0x40 pmrb=0x1 sr=19 cfg=4 gcfg=0x0 acfg=0x8 icfg=0x30 ien=0x1 armed=1
[ACC] reads=2082 stale=2079 rderr=0 ax=35 ay=-25 az=1127
[PWR] pm=0x1 drift=0 rderr=0
[DWT] ok=1 cyc=2556675890 cyc_per_ms=800046
[HB] up_ms=47340 frames=2128 inf=2128 hazard=0 canary_err=0 q=0 qovr=0
[I2C] init=0 gate=0 whoami=0x140e0 wr=0 wrseen=0x27 addr=0x5a ok=13010 err=0 tmo=0 recov=0 pclk1=200000000 sysclk=400000000
[NAK] nacks=0
[CLK] cpu=800000000 sysb=400000000 pclk1=200000000
[TOF] res=0 step=0 id=0xeacc blk=0xeacc10 ctl=0x0
[RNG] init=0 step=99 id=0xeacc boot=1 calls=93 xerr=0 dm=1 tb=15
[RNG] osc=41 imp=881 imprb=881 mstart=0x40 cfg=91 cfgfail=0x0 vhv=0 vpolls=0
[PRT] calls=8631 xerr=0 ler=1 lidx=0x0 perr=0 maxcnt=17 addr8=0x52
[RTY] wr=0 wmax=0 wref=0  rd=0 rmax=0 rref=0
[RNG] frames=2130 last=31 min=16 max=43 nrdy=0 dxfer=0 dstat=0 lst=0 nrdyerr=0 dclr=0
[DRV] init=0 id=7 mode=0x1 lib=0x2 seq=0x1 odc=0x8b sts=0xe0 armed=1
[TRG] pulses=0 suppressed=0 cyc=1600 rst=1 rstmode=0x40
[HLT] polls=42 faults=0x0 cfglost=0
[IMU] init=0 addr=0x68 who=0x68 rst=1 pmrb0=0x40 pmrb=0x1 sr=19 cfg=4 gcfg=0x0 acfg=0x8 icfg=0x30 ien=0x1 armed=1
[ACC] reads=2131 stale=2128 rderr=0 ax=37 ay=-25 az=1126
[PWR] pm=0x1 drift=0 rderr=0
[DWT] ok=1 cyc=3432676038 cyc_per_ms=800000
[HB] up_ms=48435 frames=2177 inf=2177 hazard=0 canary_err=0 q=0 qovr=0
[I2C] init=0 gate=0 whoami=0x140e0 wr=0 wrseen=0x27 addr=0x5a ok=13312 err=0 tmo=0 recov=0 pclk1=200000000 sysclk=400000000
[NAK] nacks=0
[CLK] cpu=800000000 sysb=400000000 pclk1=200000000
[TOF] res=0 step=0 id=0xeacc blk=0xeacc10 ctl=0x0
[RNG] init=0 step=99 id=0xeacc boot=1 calls=93 xerr=0 dm=1 tb=15
[RNG] osc=41 imp=881 imprb=881 mstart=0x40 cfg=91 cfgfail=0x0 vhv=0 vpolls=0
[PRT] calls=8829 xerr=0 ler=1 lidx=0x0 perr=0 maxcnt=17 addr8=0x52
[RTY] wr=0 wmax=0 wref=0  rd=0 rmax=0 rref=0
[RNG] frames=2179 last=29 min=16 max=43 nrdy=0 dxfer=0 dstat=0 lst=0 nrdyerr=0 dclr=0
[DRV] init=0 id=7 mode=0x1 lib=0x2 seq=0x1 odc=0x8b sts=0xe0 armed=1
[TRG] pulses=0 suppressed=0 cyc=1600 rst=1 rstmode=0x40
[HLT] polls=43 faults=0x0 cfglost=0
[IMU] init=0 addr=0x68 who=0x68 rst=1 pmrb0=0x40 pmrb=0x1 sr=19 cfg=4 gcfg=0x0 acfg=0x8 icfg=0x30 ien=0x1 armed=1
[ACC] reads=2181 stale=2178 rderr=0 ax=37 ay=-24 az=1126
[PWR] pm=0x1 drift=0 rderr=0
[DWT] ok=1 cyc=13708606 cyc_per_ms=799999
[HB] up_ms=49530 frames=2227 inf=2227 hazard=0 canary_err=0 q=0 qovr=0
[I2C] init=0 gate=0 whoami=0x140e0 wr=0 wrseen=0x27 addr=0x5a ok=13608 err=0 tmo=0 recov=0 pclk1=200000000 sysclk=400000000
[NAK] nacks=0
[CLK] cpu=800000000 sysb=400000000 pclk1=200000000
[TOF] res=0 step=0 id=0xeacc blk=0xeacc10 ctl=0x0
[RNG] init=0 step=99 id=0xeacc boot=1 calls=93 xerr=0 dm=1 tb=15
[RNG] osc=41 imp=881 imprb=881 mstart=0x40 cfg=91 cfgfail=0x0 vhv=0 vpolls=0
[PRT] calls=9029 xerr=0 ler=1 lidx=0x0 perr=0 maxcnt=17 addr8=0x52
[RTY] wr=0 wmax=0 wref=0  rd=0 rmax=0 rref=0
[RNG] frames=2229 last=29 min=16 max=43 nrdy=0 dxfer=0 dstat=0 lst=0 nrdyerr=0 dclr=0
[DRV] init=0 id=7 mode=0x1 lib=0x2 seq=0x1 odc=0x8b sts=0xe0 armed=1
[TRG] pulses=0 suppressed=0 cyc=1600 rst=1 rstmode=0x40
[HLT] polls=44 faults=0x0 cfglost=0
[IMU] init=0 addr=0x68 who=0x68 rst=1 pmrb0=0x40 pmrb=0x1 sr=19 cfg=4 gcfg=0x0 acfg=0x8 icfg=0x30 ien=0x1 armed=1
[ACC] reads=2230 stale=2227 rderr=0 ax=35 ay=-25 az=1128
[PWR] pm=0x1 drift=0 rderr=0
[DWT] ok=1 cyc=889708510 cyc_per_ms=799999
[HB] up_ms=50625 frames=2276 inf=2276 hazard=0 canary_err=0 q=0 qovr=0
[I2C] init=0 gate=0 whoami=0x140e0 wr=0 wrseen=0x27 addr=0x5a ok=13910 err=0 tmo=0 recov=0 pclk1=200000000 sysclk=400000000
[NAK] nacks=0
[CLK] cpu=800000000 sysb=400000000 pclk1=200000000
[TOF] res=0 step=0 id=0xeacc blk=0xeacc10 ctl=0x0
[RNG] init=0 step=99 id=0xeacc boot=1 calls=93 xerr=0 dm=1 tb=15
[RNG] osc=41 imp=881 imprb=881 mstart=0x40 cfg=91 cfgfail=0x0 vhv=0 vpolls=0
[PRT] calls=9225 xerr=0 ler=1 lidx=0x0 perr=0 maxcnt=17 addr8=0x52
[RTY] wr=0 wmax=0 wref=0  rd=0 rmax=0 rref=0
[RNG] frames=2279 last=26 min=16 max=43 nrdy=0 dxfer=0 dstat=0 lst=0 nrdyerr=0 dclr=0
[DRV] init=0 id=7 mode=0x1 lib=0x2 seq=0x1 odc=0x8b sts=0xe0 armed=1
[TRG] pulses=0 suppressed=0 cyc=1600 rst=1 rstmode=0x40
[HLT] polls=45 faults=0x0 cfglost=0
[IMU] init=0 addr=0x68 who=0x68 rst=1 pmrb0=0x40 pmrb=0x1 sr=19 cfg=4 gcfg=0x0 acfg=0x8 icfg=0x30 ien=0x1 armed=1
[ACC] reads=2280 stale=2277 rderr=0 ax=37 ay=-26 az=1131
[PWR] pm=0x1 drift=0 rderr=0
[DWT] ok=1 cyc=1765707802 cyc_per_ms=799999
[HB] up_ms=51720 frames=2326 inf=2326 hazard=0 canary_err=0 q=0 qovr=0
[I2C] init=0 gate=0 whoami=0x140e0 wr=0 wrseen=0x27 addr=0x5a ok=14206 err=0 tmo=0 recov=0 pclk1=200000000 sysclk=400000000
[NAK] nacks=0
[CLK] cpu=800000000 sysb=400000000 pclk1=200000000
[TOF] res=0 step=0 id=0xeacc blk=0xeacc10 ctl=0x0
[RNG] init=0 step=99 id=0xeacc boot=1 calls=93 xerr=0 dm=1 tb=15
[RNG] osc=41 imp=881 imprb=881 mstart=0x40 cfg=91 cfgfail=0x0 vhv=0 vpolls=0
[PRT] calls=9425 xerr=0 ler=1 lidx=0x0 perr=0 maxcnt=17 addr8=0x52
[RTY] wr=0 wmax=0 wref=0  rd=0 rmax=0 rref=0
[RNG] frames=2328 last=32 min=16 max=43 nrdy=0 dxfer=0 dstat=0 lst=0 nrdyerr=0 dclr=0
[DRV] init=0 id=7 mode=0x1 lib=0x2 seq=0x1 odc=0x8b sts=0xe0 armed=1
[TRG] pulses=0 suppressed=0 cyc=1600 rst=1 rstmode=0x40
[HLT] polls=46 faults=0x0 cfglost=0
[IMU] init=0 addr=0x68 who=0x68 rst=1 pmrb0=0x40 pmrb=0x1 sr=19 cfg=4 gcfg=0x0 acfg=0x8 icfg=0x30 ien=0x1 armed=1
[ACC] reads=2330 stale=2327 rderr=0 ax=36 ay=-23 az=1124
[PWR] pm=0x1 drift=0 rderr=0
[DWT] ok=1 cyc=2641708586 cyc_per_ms=800000
[HB] up_ms=52815 frames=2376 inf=2376 hazard=0 canary_err=0 q=0 qovr=0
[I2C] init=0 gate=0 whoami=0x140e0 wr=0 wrseen=0x27 addr=0x5a ok=14508 err=0 tmo=0 recov=0 pclk1=200000000 sysclk=400000000
[NAK] nacks=0
[CLK] cpu=800000000 sysb=400000000 pclk1=200000000
[TOF] res=0 step=0 id=0xeacc blk=0xeacc10 ctl=0x0
[RNG] init=0 step=99 id=0xeacc boot=1 calls=93 xerr=0 dm=1 tb=15
[RNG] osc=41 imp=881 imprb=881 mstart=0x40 cfg=91 cfgfail=0x0 vhv=0 vpolls=0
[PRT] calls=9621 xerr=0 ler=1 lidx=0x0 perr=0 maxcnt=17 addr8=0x52
[RTY] wr=0 wmax=0 wref=0  rd=0 rmax=0 rref=0
[RNG] frames=2378 last=25 min=16 max=43 nrdy=0 dxfer=0 dstat=0 lst=0 nrdyerr=0 dclr=0
[DRV] init=0 id=7 mode=0x1 lib=0x2 seq=0x1 odc=0x8b sts=0xe0 armed=1
[TRG] pulses=0 suppressed=0 cyc=1600 rst=1 rstmode=0x40
[HLT] polls=47 faults=0x0 cfglost=0
[IMU] init=0 addr=0x68 who=0x68 rst=1 pmrb0=0x40 pmrb=0x1 sr=19 cfg=4 gcfg=0x0 acfg=0x8 icfg=0x30 ien=0x1 armed=1
[ACC] reads=2379 stale=2376 rderr=0 ax=38 ay=-25 az=1126
[PWR] pm=0x1 drift=0 rderr=0
[DWT] ok=1 cyc=3517708558 cyc_per_ms=799999
[HB] up_ms=53910 frames=2425 inf=2425 hazard=0 canary_err=0 q=0 qovr=0
[I2C] init=0 gate=0 whoami=0x140e0 wr=0 wrseen=0x27 addr=0x5a ok=14804 err=0 tmo=0 recov=0 pclk1=200000000 sysclk=400000000
[NAK] nacks=0
[CLK] cpu=800000000 sysb=400000000 pclk1=200000000
[TOF] res=0 step=0 id=0xeacc blk=0xeacc10 ctl=0x0
[RNG] init=0 step=99 id=0xeacc boot=1 calls=93 xerr=0 dm=1 tb=15
[RNG] osc=41 imp=881 imprb=881 mstart=0x40 cfg=91 cfgfail=0x0 vhv=0 vpolls=0
[PRT] calls=9821 xerr=0 ler=1 lidx=0x0 perr=0 maxcnt=17 addr8=0x52
[RTY] wr=0 wmax=0 wref=0  rd=0 rmax=0 rref=0
[RNG] frames=2427 last=21 min=16 max=43 nrdy=0 dxfer=0 dstat=0 lst=0 nrdyerr=0 dclr=0
[DRV] init=0 id=7 mode=0x1 lib=0x2 seq=0x1 odc=0x8b sts=0xe0 armed=1
[TRG] pulses=0 suppressed=0 cyc=1600 rst=1 rstmode=0x40
[HLT] polls=48 faults=0x0 cfglost=0
[IMU] init=0 addr=0x68 who=0x68 rst=1 pmrb0=0x40 pmrb=0x1 sr=19 cfg=4 gcfg=0x0 acfg=0x8 icfg=0x30 ien=0x1 armed=1
[ACC] reads=2429 stale=2426 rderr=0 ax=38 ay=-26 az=1125
[PWR] pm=0x1 drift=0 rderr=0
[DWT] ok=1 cyc=98741266 cyc_per_ms=800000
[HB] up_ms=55005 frames=2475 inf=2475 hazard=0 canary_err=0 q=0 qovr=0
[I2C] init=0 gate=0 whoami=0x140e0 wr=0 wrseen=0x27 addr=0x5a ok=15106 err=0 tmo=0 recov=0 pclk1=200000000 sysclk=400000000
[NAK] nacks=0
[CLK] cpu=800000000 sysb=400000000 pclk1=200000000
[TOF] res=0 step=0 id=0xeacc blk=0xeacc10 ctl=0x0
[RNG] init=0 step=99 id=0xeacc boot=1 calls=93 xerr=0 dm=1 tb=15
[RNG] osc=41 imp=881 imprb=881 mstart=0x40 cfg=91 cfgfail=0x0 vhv=0 vpolls=0
[PRT] calls=10021 xerr=0 ler=1 lidx=0x0 perr=0 maxcnt=17 addr8=0x52
[RTY] wr=0 wmax=0 wref=0  rd=0 rmax=0 rref=0
[RNG] frames=2477 last=23 min=16 max=43 nrdy=0 dxfer=0 dstat=0 lst=0 nrdyerr=0 dclr=0
[DRV] init=0 id=7 mode=0x1 lib=0x2 seq=0x1 odc=0x8b sts=0xe0 armed=1
[TRG] pulses=0 suppressed=0 cyc=1600 rst=1 rstmode=0x40
[HLT] polls=49 faults=0x0 cfglost=0
[IMU] init=0 addr=0x68 who=0x68 rst=1 pmrb0=0x40 pmrb=0x1 sr=19 cfg=4 gcfg=0x0 acfg=0x8 icfg=0x30 ien=0x1 armed=1
[ACC] reads=2478 stale=2475 rderr=0 ax=35 ay=-26 az=1125
[PWR] pm=0x1 drift=0 rderr=0
[DWT] ok=1 cyc=974811310 cyc_per_ms=800063
[HB] up_ms=56100 frames=2524 inf=2524 hazard=0 canary_err=0 q=0 qovr=0
[I2C] init=0 gate=0 whoami=0x140e0 wr=0 wrseen=0x27 addr=0x5a ok=15408 err=0 tmo=0 recov=0 pclk1=200000000 sysclk=400000000
[NAK] nacks=0
[CLK] cpu=800000000 sysb=400000000 pclk1=200000000
[TOF] res=0 step=0 id=0xeacc blk=0xeacc10 ctl=0x0
[RNG] init=0 step=99 id=0xeacc boot=1 calls=93 xerr=0 dm=1 tb=15
[RNG] osc=41 imp=881 imprb=881 mstart=0x40 cfg=91 cfgfail=0x0 vhv=0 vpolls=0
[PRT] calls=10217 xerr=0 ler=1 lidx=0x0 perr=0 maxcnt=17 addr8=0x52
[RTY] wr=0 wmax=0 wref=0  rd=0 rmax=0 rref=0
[RNG] frames=2527 last=28 min=16 max=43 nrdy=0 dxfer=0 dstat=0 lst=0 nrdyerr=0 dclr=0
[DRV] init=0 id=7 mode=0x1 lib=0x2 seq=0x1 odc=0x8b sts=0xe0 armed=1
[TRG] pulses=0 suppressed=0 cyc=1600 rst=1 rstmode=0x40
[HLT] polls=50 faults=0x0 cfglost=0
[IMU] init=0 addr=0x68 who=0x68 rst=1 pmrb0=0x40 pmrb=0x1 sr=19 cfg=4 gcfg=0x0 acfg=0x8 icfg=0x30 ien=0x1 armed=1
[ACC] reads=2528 stale=2525 rderr=0 ax=36 ay=-25 az=1127
[PWR] pm=0x1 drift=0 rderr=0
[DWT] ok=1 cyc=1850811406 cyc_per_ms=800000
[HB] up_ms=57195 frames=2574 inf=2574 hazard=0 canary_err=0 q=0 qovr=0
[I2C] init=0 gate=0 whoami=0x140e0 wr=0 wrseen=0x27 addr=0x5a ok=15704 err=0 tmo=0 recov=0 pclk1=200000000 sysclk=400000000
[NAK] nacks=0
[CLK] cpu=800000000 sysb=400000000 pclk1=200000000
[TOF] res=0 step=0 id=0xeacc blk=0xeacc10 ctl=0x0
[RNG] init=0 step=99 id=0xeacc boot=1 calls=93 xerr=0 dm=1 tb=15
[RNG] osc=41 imp=881 imprb=881 mstart=0x40 cfg=91 cfgfail=0x0 vhv=0 vpolls=0
[PRT] calls=10417 xerr=0 ler=1 lidx=0x0 perr=0 maxcnt=17 addr8=0x52
[RTY] wr=0 wmax=0 wref=0  rd=0 rmax=0 rref=0
[RNG] frames=2576 last=25 min=16 max=43 nrdy=0 dxfer=0 dstat=0 lst=0 nrdyerr=0 dclr=0
[DRV] init=0 id=7 mode=0x1 lib=0x2 seq=0x1 odc=0x8b sts=0xe0 armed=1
[TRG] pulses=0 suppressed=0 cyc=1600 rst=1 rstmode=0x40
[HLT] polls=51 faults=0x0 cfglost=0
[IMU] init=0 addr=0x68 who=0x68 rst=1 pmrb0=0x40 pmrb=0x1 sr=19 cfg=4 gcfg=0x0 acfg=0x8 icfg=0x30 ien=0x1 armed=1
[ACC] reads=2578 stale=2575 rderr=0 ax=36 ay=-24 az=1127
[PWR] pm=0x1 drift=0 rderr=0
[DWT] ok=1 cyc=2726811278 cyc_per_ms=799999
[HB] up_ms=58290 frames=2624 inf=2624 hazard=0 canary_err=0 q=0 qovr=0
[I2C] init=0 gate=0 whoami=0x140e0 wr=0 wrseen=0x27 addr=0x5a ok=16006 err=0 tmo=0 recov=0 pclk1=200000000 sysclk=400000000
[NAK] nacks=0
[CLK] cpu=800000000 sysb=400000000 pclk1=200000000
[TOF] res=0 step=0 id=0xeacc blk=0xeacc10 ctl=0x0
[RNG] init=0 step=99 id=0xeacc boot=1 calls=93 xerr=0 dm=1 tb=15
[RNG] osc=41 imp=881 imprb=881 mstart=0x40 cfg=91 cfgfail=0x0 vhv=0 vpolls=0
[PRT] calls=10613 xerr=0 ler=1 lidx=0x0 perr=0 maxcnt=17 addr8=0x52
[RTY] wr=0 wmax=0 wref=0  rd=0 rmax=0 rref=0
[RNG] frames=2626 last=26 min=16 max=43 nrdy=0 dxfer=0 dstat=0 lst=0 nrdyerr=0 dclr=0
[DRV] init=0 id=7 mode=0x1 lib=0x2 seq=0x1 odc=0x8b sts=0xe0 armed=1
[TRG] pulses=0 suppressed=0 cyc=1600 rst=1 rstmode=0x40
[HLT] polls=52 faults=0x0 cfglost=0
[IMU] init=0 addr=0x68 who=0x68 rst=1 pmrb0=0x40 pmrb=0x1 sr=19 cfg=4 gcfg=0x0 acfg=0x8 icfg=0x30 ien=0x1 armed=1
[ACC] reads=2627 stale=2624 rderr=0 ax=36 ay=-27 az=1126
[PWR] pm=0x1 drift=0 rderr=0
[DWT] ok=1 cyc=3602785386 cyc_per_ms=799976
[HB] up_ms=59385 frames=2673 inf=2673 hazard=0 canary_err=0 q=0 qovr=0
[I2C] init=0 gate=0 whoami=0x140e0 wr=0 wrseen=0x27 addr=0x5a ok=16302 err=0 tmo=0 recov=0 pclk1=200000000 sysclk=400000000
[NAK] nacks=0
[CLK] cpu=800000000 sysb=400000000 pclk1=200000000
[TOF] res=0 step=0 id=0xeacc blk=0xeacc10 ctl=0x0
[RNG] init=0 step=99 id=0xeacc boot=1 calls=93 xerr=0 dm=1 tb=15
[RNG] osc=41 imp=881 imprb=881 mstart=0x40 cfg=91 cfgfail=0x0 vhv=0 vpolls=0
[PRT] calls=10813 xerr=0 ler=1 lidx=0x0 perr=0 maxcnt=17 addr8=0x52
[RTY] wr=0 wmax=0 wref=0  rd=0 rmax=0 rref=0
[RNG] frames=2675 last=29 min=16 max=43 nrdy=0 dxfer=0 dstat=0 lst=0 nrdyerr=0 dclr=0
[DRV] init=0 id=7 mode=0x1 lib=0x2 seq=0x1 odc=0x8b sts=0xe0 armed=1
[TRG] pulses=0 suppressed=0 cyc=1600 rst=1 rstmode=0x40
[HLT] polls=53 faults=0x0 cfglost=0
[IMU] init=0 addr=0x68 who=0x68 rst=1 pmrb0=0x40 pmrb=0x1 sr=19 cfg=4 gcfg=0x0 acfg=0x8 icfg=0x30 ien=0x1 armed=1
[ACC] reads=2677 stale=2674 rderr=0 ax=35 ay=-25 az=1126
[PWR] pm=0x1 drift=0 rderr=0
[DWT] ok=1 cyc=183844050 cyc_per_ms=800023
[HB] up_ms=60480 frames=2723 inf=2723 hazard=0 canary_err=0 q=0 qovr=0
[I2C] init=0 gate=0 whoami=0x140e0 wr=0 wrseen=0x27 addr=0x5a ok=16604 err=0 tmo=0 recov=0 pclk1=200000000 sysclk=400000000
[NAK] nacks=0
[CLK] cpu=800000000 sysb=400000000 pclk1=200000000
[TOF] res=0 step=0 id=0xeacc blk=0xeacc10 ctl=0x0
[RNG] init=0 step=99 id=0xeacc boot=1 calls=93 xerr=0 dm=1 tb=15
[RNG] osc=41 imp=881 imprb=881 mstart=0x40 cfg=91 cfgfail=0x0 vhv=0 vpolls=0
[PRT] calls=11013 xerr=0 ler=1 lidx=0x0 perr=0 maxcnt=17 addr8=0x52
[RTY] wr=0 wmax=0 wref=0  rd=0 rmax=0 rref=0
[RNG] frames=2725 last=26 min=16 max=43 nrdy=0 dxfer=0 dstat=0 lst=0 nrdyerr=0 dclr=0
[DRV] init=0 id=7 mode=0x1 lib=0x2 seq=0x1 odc=0x8b sts=0xe0 armed=1
[TRG] pulses=0 suppressed=0 cyc=1600 rst=1 rstmode=0x40
[HLT] polls=54 faults=0x0 cfglost=0
[IMU] init=0 addr=0x68 who=0x68 rst=1 pmrb0=0x40 pmrb=0x1 sr=19 cfg=4 gcfg=0x0 acfg=0x8 icfg=0x30 ien=0x1 armed=1
[ACC] reads=2726 stale=2723 rderr=0 ax=38 ay=-25 az=1127
[PWR] pm=0x1 drift=0 rderr=0
[DWT] ok=1 cyc=1059844410 cyc_per_ms=800000
[HB] up_ms=61575 frames=2772 inf=2772 hazard=0 canary_err=0 q=0 qovr=0
[I2C] init=0 gate=0 whoami=0x140e0 wr=0 wrseen=0x27 addr=0x5a ok=16906 err=0 tmo=0 recov=0 pclk1=200000000 sysclk=400000000
[NAK] nacks=0
[CLK] cpu=800000000 sysb=400000000 pclk1=200000000
[TOF] res=0 step=0 id=0xeacc blk=0xeacc10 ctl=0x0
[RNG] init=0 step=99 id=0xeacc boot=1 calls=93 xerr=0 dm=1 tb=15
[RNG] osc=41 imp=881 imprb=881 mstart=0x40 cfg=91 cfgfail=0x0 vhv=0 vpolls=0
[PRT] calls=11209 xerr=0 ler=1 lidx=0x0 perr=0 maxcnt=17 addr8=0x52
[RTY] wr=0 wmax=0 wref=0  rd=0 rmax=0 rref=0
[RNG] frames=2775 last=26 min=16 max=43 nrdy=0 dxfer=0 dstat=0 lst=0 nrdyerr=0 dclr=0
[DRV] init=0 id=7 mode=0x1 lib=0x2 seq=0x1 odc=0x8b sts=0xe0 armed=1
[TRG] pulses=0 suppressed=0 cyc=1600 rst=1 rstmode=0x40
[HLT] polls=55 faults=0x0 cfglost=0
[IMU] init=0 addr=0x68 who=0x68 rst=1 pmrb0=0x40 pmrb=0x1 sr=19 cfg=4 gcfg=0x0 acfg=0x8 icfg=0x30 ien=0x1 armed=1
[ACC] reads=2776 stale=2773 rderr=0 ax=35 ay=-24 az=1125
[PWR] pm=0x1 drift=0 rderr=0
[DWT] ok=1 cyc=1935844010 cyc_per_ms=799999
[HB] up_ms=62670 frames=2822 inf=2822 hazard=0 canary_err=0 q=0 qovr=0
[I2C] init=0 gate=0 whoami=0x140e0 wr=0 wrseen=0x27 addr=0x5a ok=17202 err=0 tmo=0 recov=0 pclk1=200000000 sysclk=400000000
[NAK] nacks=0
[CLK] cpu=800000000 sysb=400000000 pclk1=200000000
[TOF] res=0 step=0 id=0xeacc blk=0xeacc10 ctl=0x0
[RNG] init=0 step=99 id=0xeacc boot=1 calls=93 xerr=0 dm=1 tb=15
[RNG] osc=41 imp=881 imprb=881 mstart=0x40 cfg=91 cfgfail=0x0 vhv=0 vpolls=0
[PRT] calls=11409 xerr=0 ler=1 lidx=0x0 perr=0 maxcnt=17 addr8=0x52
[RTY] wr=0 wmax=0 wref=0  rd=0 rmax=0 rref=0
[RNG] frames=2824 last=28 min=16 max=43 nrdy=0 dxfer=0 dstat=0 lst=0 nrdyerr=0 dclr=0
[DRV] init=0 id=7 mode=0x1 lib=0x2 seq=0x1 odc=0x8b sts=0xe0 armed=1
[TRG] pulses=0 suppressed=0 cyc=1600 rst=1 rstmode=0x40
[HLT] polls=56 faults=0x0 cfglost=0
[IMU] init=0 addr=0x68 who=0x68 rst=1 pmrb0=0x40 pmrb=0x1 sr=19 cfg=4 gcfg=0x0 acfg=0x8 icfg=0x30 ien=0x1 armed=1
[ACC] reads=2825 stale=2823 rderr=0 ax=36 ay=-25 az=1127
[PWR] pm=0x1 drift=0 rderr=0
[DWT] ok=1 cyc=2811843986 cyc_per_ms=799999
[HB] up_ms=63765 frames=2871 inf=2871 hazard=0 canary_err=0 q=0 qovr=0
[I2C] init=0 gate=0 whoami=0x140e0 wr=0 wrseen=0x27 addr=0x5a ok=17504 err=0 tmo=0 recov=0 pclk1=200000000 sysclk=400000000
[NAK] nacks=0
[CLK] cpu=800000000 sysb=400000000 pclk1=200000000
[TOF] res=0 step=0 id=0xeacc blk=0xeacc10 ctl=0x0
[RNG] init=0 step=99 id=0xeacc boot=1 calls=93 xerr=0 dm=1 tb=15
[RNG] osc=41 imp=881 imprb=881 mstart=0x40 cfg=91 cfgfail=0x0 vhv=0 vpolls=0
[PRT] calls=11605 xerr=0 ler=1 lidx=0x0 perr=0 maxcnt=17 addr8=0x52
[RTY] wr=0 wmax=0 wref=0  rd=0 rmax=0 rref=0
[RNG] frames=2874 last=23 min=16 max=43 nrdy=0 dxfer=0 dstat=0 lst=0 nrdyerr=0 dclr=0
[DRV] init=0 id=7 mode=0x1 lib=0x2 seq=0x1 odc=0x8b sts=0xe0 armed=1
[TRG] pulses=0 suppressed=0 cyc=1600 rst=1 rstmode=0x40
[HLT] polls=57 faults=0x0 cfglost=0
[IMU] init=0 addr=0x68 who=0x68 rst=1 pmrb0=0x40 pmrb=0x1 sr=19 cfg=4 gcfg=0x0 acfg=0x8 icfg=0x30 ien=0x1 armed=1
[ACC] reads=2875 stale=2872 rderr=0 ax=34 ay=-25 az=1128
[PWR] pm=0x1 drift=0 rderr=0
[DWT] ok=1 cyc=3687793738 cyc_per_ms=799954
[HB] up_ms=64860 frames=2921 inf=2921 hazard=0 canary_err=0 q=0 qovr=0
[I2C] init=0 gate=0 whoami=0x140e0 wr=0 wrseen=0x27 addr=0x5a ok=17800 err=0 tmo=0 recov=0 pclk1=200000000 sysclk=400000000
[NAK] nacks=0
[CLK] cpu=800000000 sysb=400000000 pclk1=200000000
[TOF] res=0 step=0 id=0xeacc blk=0xeacc10 ctl=0x0
[RNG] init=0 step=99 id=0xeacc boot=1 calls=93 xerr=0 dm=1 tb=15
[RNG] osc=41 imp=881 imprb=881 mstart=0x40 cfg=91 cfgfail=0x0 vhv=0 vpolls=0
[PRT] calls=11805 xerr=0 ler=1 lidx=0x0 perr=0 maxcnt=17 addr8=0x52
[RTY] wr=0 wmax=0 wref=0  rd=0 rmax=0 rref=0
[RNG] frames=2923 last=31 min=16 max=43 nrdy=0 dxfer=0 dstat=0 lst=0 nrdyerr=0 dclr=0
[DRV] init=0 id=7 mode=0x1 lib=0x2 seq=0x1 odc=0x8b sts=0xe0 armed=1
[TRG] pulses=0 suppressed=0 cyc=1600 rst=1 rstmode=0x40
[HLT] polls=58 faults=0x0 cfglost=0
[IMU] init=0 addr=0x68 who=0x68 rst=1 pmrb0=0x40 pmrb=0x1 sr=19 cfg=4 gcfg=0x0 acfg=0x8 icfg=0x30 ien=0x1 armed=1
[ACC] reads=2925 stale=2922 rderr=0 ax=37 ay=-25 az=1126
[PWR] pm=0x1 drift=0 rderr=0
[DWT] ok=1 cyc=268876690 cyc_per_ms=800045
[HB] up_ms=65955 frames=2971 inf=2971 hazard=0 canary_err=0 q=0 qovr=0
[I2C] init=0 gate=0 whoami=0x140e0 wr=0 wrseen=0x27 addr=0x5a ok=18102 err=0 tmo=0 recov=0 pclk1=200000000 sysclk=400000000
[NAK] nacks=0
[CLK] cpu=800000000 sysb=400000000 pclk1=200000000
[TOF] res=0 step=0 id=0xeacc blk=0xeacc10 ctl=0x0
[RNG] init=0 step=99 id=0xeacc boot=1 calls=93 xerr=0 dm=1 tb=15
[RNG] osc=41 imp=881 imprb=881 mstart=0x40 cfg=91 cfgfail=0x0 vhv=0 vpolls=0
[PRT] calls=12003 xerr=0 ler=1 lidx=0x0 perr=0 maxcnt=17 addr8=0x52
[RTY] wr=0 wmax=0 wref=0  rd=0 rmax=0 rref=0
[RNG] frames=2973 last=26 min=16 max=43 nrdy=0 dxfer=0 dstat=0 lst=0 nrdyerr=0 dclr=0
[DRV] init=0 id=7 mode=0x1 lib=0x2 seq=0x1 odc=0x8b sts=0xe0 armed=1
[TRG] pulses=0 suppressed=0 cyc=1600 rst=1 rstmode=0x40
[HLT] polls=59 faults=0x0 cfglost=0
[IMU] init=0 addr=0x68 who=0x68 rst=1 pmrb0=0x40 pmrb=0x1 sr=19 cfg=4 gcfg=0x0 acfg=0x8 icfg=0x30 ien=0x1 armed=1
[ACC] reads=2974 stale=2971 rderr=0 ax=37 ay=-24 az=1130
[PWR] pm=0x1 drift=0 rderr=0
[DWT] ok=1 cyc=1144876922 cyc_per_ms=800000
[HB] up_ms=67050 frames=3020 inf=3020 hazard=0 canary_err=0 q=0 qovr=0
[I2C] init=0 gate=0 whoami=0x140e0 wr=0 wrseen=0x27 addr=0x5a ok=18404 err=0 tmo=0 recov=0 pclk1=200000000 sysclk=400000000
[NAK] nacks=0
[CLK] cpu=800000000 sysb=400000000 pclk1=200000000
[TOF] res=0 step=0 id=0xeacc blk=0xeacc10 ctl=0x0
[RNG] init=0 step=99 id=0xeacc boot=1 calls=93 xerr=0 dm=1 tb=15
[RNG] osc=41 imp=881 imprb=881 mstart=0x40 cfg=91 cfgfail=0x0 vhv=0 vpolls=0
[PRT] calls=12201 xerr=0 ler=1 lidx=0x0 perr=0 maxcnt=17 addr8=0x52
[RTY] wr=0 wmax=0 wref=0  rd=0 rmax=0 rref=0
[RNG] frames=3022 last=22 min=16 max=43 nrdy=0 dxfer=0 dstat=0 lst=0 nrdyerr=0 dclr=0
[DRV] init=0 id=7 mode=0x1 lib=0x2 seq=0x1 odc=0x8b sts=0xe0 armed=1
[TRG] pulses=0 suppressed=0 cyc=1600 rst=1 rstmode=0x40
[HLT] polls=60 faults=0x0 cfglost=0
[IMU] init=0 addr=0x68 who=0x68 rst=1 pmrb0=0x40 pmrb=0x1 sr=19 cfg=4 gcfg=0x0 acfg=0x8 icfg=0x30 ien=0x1 armed=1
[ACC] reads=3024 stale=3021 rderr=0 ax=35 ay=-25 az=1127
[PWR] pm=0x1 drift=0 rderr=0
[DWT] ok=1 cyc=2020876658 cyc_per_ms=799999
[HB] up_ms=68145 frames=3070 inf=3070 hazard=0 canary_err=0 q=0 qovr=0
[I2C] init=0 gate=0 whoami=0x140e0 wr=0 wrseen=0x27 addr=0x5a ok=18700 err=0 tmo=0 recov=0 pclk1=200000000 sysclk=400000000
[NAK] nacks=0
[CLK] cpu=800000000 sysb=400000000 pclk1=200000000
[TOF] res=0 step=0 id=0xeacc blk=0xeacc10 ctl=0x0
[RNG] init=0 step=99 id=0xeacc boot=1 calls=93 xerr=0 dm=1 tb=15
[RNG] osc=41 imp=881 imprb=881 mstart=0x40 cfg=91 cfgfail=0x0 vhv=0 vpolls=0
[PRT] calls=12401 xerr=0 ler=1 lidx=0x0 perr=0 maxcnt=17 addr8=0x52
[RTY] wr=0 wmax=0 wref=0  rd=0 rmax=0 rref=0
[RNG] frames=3072 last=25 min=16 max=43 nrdy=0 dxfer=0 dstat=0 lst=0 nrdyerr=0 dclr=0
[DRV] init=0 id=7 mode=0x1 lib=0x2 seq=0x1 odc=0x8b sts=0xe0 armed=1
[TRG] pulses=0 suppressed=0 cyc=1600 rst=1 rstmode=0x40
[HLT] polls=61 faults=0x0 cfglost=0
[IMU] init=0 addr=0x68 who=0x68 rst=1 pmrb0=0x40 pmrb=0x1 sr=19 cfg=4 gcfg=0x0 acfg=0x8 icfg=0x30 ien=0x1 armed=1
[ACC] reads=3073 stale=3070 rderr=0 ax=39 ay=-25 az=1127
[PWR] pm=0x1 drift=0 rderr=0
[DWT] ok=1 cyc=2896876602 cyc_per_ms=799999
[HB] up_ms=69240 frames=3119 inf=3119 hazard=0 canary_err=0 q=0 qovr=0
[I2C] init=0 gate=0 whoami=0x140e0 wr=0 wrseen=0x27 addr=0x5a ok=19002 err=0 tmo=0 recov=0 pclk1=200000000 sysclk=400000000
[NAK] nacks=0
[CLK] cpu=800000000 sysb=400000000 pclk1=200000000
[TOF] res=0 step=0 id=0xeacc blk=0xeacc10 ctl=0x0
[RNG] init=0 step=99 id=0xeacc boot=1 calls=93 xerr=0 dm=1 tb=15
[RNG] osc=41 imp=881 imprb=881 mstart=0x40 cfg=91 cfgfail=0x0 vhv=0 vpolls=0
[PRT] calls=12597 xerr=0 ler=1 lidx=0x0 perr=0 maxcnt=17 addr8=0x52
[RTY] wr=0 wmax=0 wref=0  rd=0 rmax=0 rref=0
[RNG] frames=3122 last=29 min=16 max=43 nrdy=0 dxfer=0 dstat=0 lst=0 nrdyerr=0 dclr=0
[DRV] init=0 id=7 mode=0x1 lib=0x2 seq=0x1 odc=0x8b sts=0xe0 armed=1
[TRG] pulses=0 suppressed=0 cyc=1600 rst=1 rstmode=0x40
[HLT] polls=62 faults=0x0 cfglost=0
[IMU] init=0 addr=0x68 who=0x68 rst=1 pmrb0=0x40 pmrb=0x1 sr=19 cfg=4 gcfg=0x0 acfg=0x8 icfg=0x30 ien=0x1 armed=1
[ACC] reads=3123 stale=3120 rderr=0 ax=36 ay=-28 az=1126
[PWR] pm=0x1 drift=0 rderr=0
[DWT] ok=1 cyc=3772875926 cyc_per_ms=799999
[HB] up_ms=70336 frames=3166 inf=3166 hazard=1 canary_err=0 q=0 qovr=0
[I2C] init=0 gate=0 whoami=0x140e0 wr=0 wrseen=0x27 addr=0x5a ok=19794 err=0 tmo=0 recov=0 pclk1=200000000 sysclk=400000000
[NAK] nacks=0
[CLK] cpu=800000000 sysb=400000000 pclk1=200000000
[TOF] res=0 step=0 id=0xeacc blk=0xeacc10 ctl=0x0
[RNG] init=0 step=99 id=0xeacc boot=1 calls=93 xerr=0 dm=1 tb=15
[RNG] osc=41 imp=881 imprb=881 mstart=0x40 cfg=91 cfgfail=0x0 vhv=0 vpolls=0
[PRT] calls=12785 xerr=0 ler=1 lidx=0x0 perr=0 maxcnt=17 addr8=0x52
[RTY] wr=0 wmax=0 wref=0  rd=0 rmax=0 rref=0
[RNG] frames=3169 last=32 min=16 max=43 nrdy=0 dxfer=0 dstat=0 lst=0 nrdyerr=0 dclr=0
[DRV] init=0 id=7 mode=0x1 lib=0x2 seq=0x1 odc=0x8b sts=0xe0 armed=1
[TRG] pulses=1 suppressed=0 cyc=1600 rst=1 rstmode=0x40
[HLT] polls=63 faults=0x0 cfglost=0
[EFF] n=1 last=58541 min=58541 max=58541 late=0 stuck=0 rderr=0
[IMU] init=0 addr=0x68 who=0x68 rst=1 pmrb0=0x40 pmrb=0x1 sr=19 cfg=4 gcfg=0x0 acfg=0x8 icfg=0x30 ien=0x1 armed=1
[ACC] reads=3170 stale=3167 rderr=0 ax=36 ay=-25 az=1126
[PWR] pm=0x1 drift=0 rderr=0
[DWT] ok=1 cyc=359406210 cyc_per_ms=804286
[HB] up_ms=71437 frames=3216 inf=3216 hazard=1 canary_err=0 q=0 qovr=0
[I2C] init=0 gate=0 whoami=0x140e0 wr=0 wrseen=0x27 addr=0x5a ok=20093 err=0 tmo=0 recov=0 pclk1=200000000 sysclk=400000000
[NAK] nacks=0
[CLK] cpu=800000000 sysb=400000000 pclk1=200000000
[TOF] res=0 step=0 id=0xeacc blk=0xeacc10 ctl=0x0
[RNG] init=0 step=99 id=0xeacc boot=1 calls=93 xerr=0 dm=1 tb=15
[RNG] osc=41 imp=881 imprb=881 mstart=0x40 cfg=91 cfgfail=0x0 vhv=0 vpolls=0
[PRT] calls=12985 xerr=0 ler=1 lidx=0x0 perr=0 maxcnt=17 addr8=0x52
[RTY] wr=0 wmax=0 wref=0  rd=0 rmax=0 rref=0
[RNG] frames=3218 last=29 min=16 max=43 nrdy=0 dxfer=0 dstat=0 lst=0 nrdyerr=0 dclr=0
[DRV] init=0 id=7 mode=0x1 lib=0x2 seq=0x1 odc=0x8b sts=0xe0 armed=1
[TRG] pulses=1 suppressed=0 cyc=1600 rst=1 rstmode=0x40
[HLT] polls=64 faults=0x0 cfglost=0
[EFF] n=1 last=58541 min=58541 max=58541 late=0 stuck=0 rderr=0
[IMU] init=0 addr=0x68 who=0x68 rst=1 pmrb0=0x40 pmrb=0x1 sr=19 cfg=4 gcfg=0x0 acfg=0x8 icfg=0x30 ien=0x1 armed=1
[ACC] reads=3220 stale=3216 rderr=0 ax=38 ay=-24 az=1128
[PWR] pm=0x1 drift=0 rderr=0
[DWT] ok=1 cyc=1240070194 cyc_per_ms=799876
[HB] up_ms=72538 frames=3266 inf=3266 hazard=1 canary_err=0 q=0 qovr=0
[I2C] init=0 gate=0 whoami=0x140e0 wr=0 wrseen=0x27 addr=0x5a ok=20392 err=0 tmo=0 recov=0 pclk1=200000000 sysclk=400000000
[NAK] nacks=0
[CLK] cpu=800000000 sysb=400000000 pclk1=200000000
[TOF] res=0 step=0 id=0xeacc blk=0xeacc10 ctl=0x0
[RNG] init=0 step=99 id=0xeacc boot=1 calls=93 xerr=0 dm=1 tb=15
[RNG] osc=41 imp=881 imprb=881 mstart=0x40 cfg=91 cfgfail=0x0 vhv=0 vpolls=0
[PRT] calls=13185 xerr=0 ler=1 lidx=0x0 perr=0 maxcnt=17 addr8=0x52
[RTY] wr=0 wmax=0 wref=0  rd=0 rmax=0 rref=0
[RNG] frames=3268 last=28 min=16 max=43 nrdy=0 dxfer=0 dstat=0 lst=0 nrdyerr=0 dclr=0
[DRV] init=0 id=7 mode=0x1 lib=0x2 seq=0x1 odc=0x8b sts=0xe0 armed=1
[TRG] pulses=1 suppressed=0 cyc=1600 rst=1 rstmode=0x40
[HLT] polls=65 faults=0x0 cfglost=0
[EFF] n=1 last=58541 min=58541 max=58541 late=0 stuck=0 rderr=0
[IMU] init=0 addr=0x68 who=0x68 rst=1 pmrb0=0x40 pmrb=0x1 sr=19 cfg=4 gcfg=0x0 acfg=0x8 icfg=0x30 ien=0x1 armed=1
[ACC] reads=3270 stale=3266 rderr=0 ax=36 ay=-27 az=1127
[PWR] pm=0x1 drift=0 rderr=0
[DWT] ok=1 cyc=2120870134 cyc_per_ms=799999
[HB] up_ms=73639 frames=3316 inf=3316 hazard=1 canary_err=0 q=0 qovr=0
[I2C] init=0 gate=0 whoami=0x140e0 wr=0 wrseen=0x27 addr=0x5a ok=20694 err=0 tmo=0 recov=0 pclk1=200000000 sysclk=400000000
[NAK] nacks=0
[CLK] cpu=800000000 sysb=400000000 pclk1=200000000
[TOF] res=0 step=0 id=0xeacc blk=0xeacc10 ctl=0x0
[RNG] init=0 step=99 id=0xeacc boot=1 calls=93 xerr=0 dm=1 tb=15
[RNG] osc=41 imp=881 imprb=881 mstart=0x40 cfg=91 cfgfail=0x0 vhv=0 vpolls=0
[PRT] calls=13385 xerr=0 ler=1 lidx=0x0 perr=0 maxcnt=17 addr8=0x52
[RTY] wr=0 wmax=0 wref=0  rd=0 rmax=0 rref=0
[RNG] frames=3318 last=26 min=16 max=43 nrdy=0 dxfer=0 dstat=0 lst=0 nrdyerr=0 dclr=0
[DRV] init=0 id=7 mode=0x1 lib=0x2 seq=0x1 odc=0x8b sts=0xe0 armed=1
[TRG] pulses=1 suppressed=0 cyc=1600 rst=1 rstmode=0x40
[HLT] polls=66 faults=0x0 cfglost=0
[EFF] n=1 last=58541 min=58541 max=58541 late=0 stuck=0 rderr=0
[IMU] init=0 addr=0x68 who=0x68 rst=1 pmrb0=0x40 pmrb=0x1 sr=19 cfg=4 gcfg=0x0 acfg=0x8 icfg=0x30 ien=0x1 armed=1
[ACC] reads=3320 stale=3316 rderr=0 ax=35 ay=-23 az=1126
[PWR] pm=0x1 drift=0 rderr=0
[DWT] ok=1 cyc=3001670102 cyc_per_ms=799999
[HB] up_ms=74740 frames=3366 inf=3366 hazard=1 canary_err=0 q=0 qovr=0
[I2C] init=0 gate=0 whoami=0x140e0 wr=0 wrseen=0x27 addr=0x5a ok=20996 err=0 tmo=0 recov=0 pclk1=200000000 sysclk=400000000
[NAK] nacks=0
[CLK] cpu=800000000 sysb=400000000 pclk1=200000000
[TOF] res=0 step=0 id=0xeacc blk=0xeacc10 ctl=0x0
[RNG] init=0 step=99 id=0xeacc boot=1 calls=93 xerr=0 dm=1 tb=15
[RNG] osc=41 imp=881 imprb=881 mstart=0x40 cfg=91 cfgfail=0x0 vhv=0 vpolls=0
[PRT] calls=13585 xerr=0 ler=1 lidx=0x0 perr=0 maxcnt=17 addr8=0x52
[RTY] wr=0 wmax=0 wref=0  rd=0 rmax=0 rref=0
[RNG] frames=3368 last=22 min=16 max=43 nrdy=0 dxfer=0 dstat=0 lst=0 nrdyerr=0 dclr=0
[DRV] init=0 id=7 mode=0x1 lib=0x2 seq=0x1 odc=0x8b sts=0xe0 armed=1
[TRG] pulses=1 suppressed=0 cyc=1600 rst=1 rstmode=0x40
[HLT] polls=67 faults=0x0 cfglost=0
[EFF] n=1 last=58541 min=58541 max=58541 late=0 stuck=0 rderr=0
[IMU] init=0 addr=0x68 who=0x68 rst=1 pmrb0=0x40 pmrb=0x1 sr=19 cfg=4 gcfg=0x0 acfg=0x8 icfg=0x30 ien=0x1 armed=1
[ACC] reads=3370 stale=3366 rderr=0 ax=36 ay=-26 az=1127
[PWR] pm=0x1 drift=0 rderr=0
[DWT] ok=1 cyc=3882470134 cyc_per_ms=800000
[HB] up_ms=75841 frames=3416 inf=3416 hazard=1 canary_err=0 q=0 qovr=0
[I2C] init=0 gate=0 whoami=0x140e0 wr=0 wrseen=0x27 addr=0x5a ok=21298 err=0 tmo=0 recov=0 pclk1=200000000 sysclk=400000000
[NAK] nacks=0
[CLK] cpu=800000000 sysb=400000000 pclk1=200000000
[TOF] res=0 step=0 id=0xeacc blk=0xeacc10 ctl=0x0
[RNG] init=0 step=99 id=0xeacc boot=1 calls=93 xerr=0 dm=1 tb=15
[RNG] osc=41 imp=881 imprb=881 mstart=0x40 cfg=91 cfgfail=0x0 vhv=0 vpolls=0
[PRT] calls=13781 xerr=0 ler=1 lidx=0x0 perr=0 maxcnt=17 addr8=0x52
[RTY] wr=0 wmax=0 wref=0  rd=0 rmax=0 rref=0
[RNG] frames=3418 last=30 min=16 max=43 nrdy=0 dxfer=0 dstat=0 lst=0 nrdyerr=0 dclr=0
[DRV] init=0 id=7 mode=0x1 lib=0x2 seq=0x1 odc=0x8b sts=0xe0 armed=1
[TRG] pulses=1 suppressed=0 cyc=1600 rst=1 rstmode=0x40
[HLT] polls=68 faults=0x0 cfglost=0
[EFF] n=1 last=58541 min=58541 max=58541 late=0 stuck=0 rderr=0
[IMU] init=0 addr=0x68 who=0x68 rst=1 pmrb0=0x40 pmrb=0x1 sr=19 cfg=4 gcfg=0x0 acfg=0x8 icfg=0x30 ien=0x1 armed=1
[ACC] reads=3419 stale=3415 rderr=0 ax=35 ay=-24 az=1128
[PWR] pm=0x1 drift=0 rderr=0
[DWT] ok=1 cyc=468302898 cyc_per_ms=800000
[HB] up_ms=76942 frames=3465 inf=3465 hazard=1 canary_err=0 q=0 qovr=0
[I2C] init=0 gate=0 whoami=0x140e0 wr=0 wrseen=0x27 addr=0x5a ok=21600 err=0 tmo=0 recov=0 pclk1=200000000 sysclk=400000000
[NAK] nacks=0
[CLK] cpu=800000000 sysb=400000000 pclk1=200000000
[TOF] res=0 step=0 id=0xeacc blk=0xeacc10 ctl=0x0
[RNG] init=0 step=99 id=0xeacc boot=1 calls=93 xerr=0 dm=1 tb=15
[RNG] osc=41 imp=881 imprb=881 mstart=0x40 cfg=91 cfgfail=0x0 vhv=0 vpolls=0
[PRT] calls=13981 xerr=0 ler=1 lidx=0x0 perr=0 maxcnt=17 addr8=0x52
[RTY] wr=0 wmax=0 wref=0  rd=0 rmax=0 rref=0
[RNG] frames=3468 last=24 min=16 max=43 nrdy=0 dxfer=0 dstat=0 lst=0 nrdyerr=0 dclr=0
[DRV] init=0 id=7 mode=0x1 lib=0x2 seq=0x1 odc=0x8b sts=0xe0 armed=1
[TRG] pulses=1 suppressed=0 cyc=1600 rst=1 rstmode=0x40
[HLT] polls=69 faults=0x0 cfglost=0
[EFF] n=1 last=58541 min=58541 max=58541 late=0 stuck=0 rderr=0
[IMU] init=0 addr=0x68 who=0x68 rst=1 pmrb0=0x40 pmrb=0x1 sr=19 cfg=4 gcfg=0x0 acfg=0x8 icfg=0x30 ien=0x1 armed=1
[ACC] reads=3469 stale=3465 rderr=0 ax=35 ay=-25 az=1128
[PWR] pm=0x1 drift=0 rderr=0
[DWT] ok=1 cyc=1349142902 cyc_per_ms=800036
[HB] up_ms=78043 frames=3515 inf=3515 hazard=1 canary_err=0 q=0 qovr=0
[I2C] init=0 gate=0 whoami=0x140e0 wr=0 wrseen=0x27 addr=0x5a ok=21902 err=0 tmo=0 recov=0 pclk1=200000000 sysclk=400000000
[NAK] nacks=0
[CLK] cpu=800000000 sysb=400000000 pclk1=200000000
[TOF] res=0 step=0 id=0xeacc blk=0xeacc10 ctl=0x0
[RNG] init=0 step=99 id=0xeacc boot=1 calls=93 xerr=0 dm=1 tb=15
[RNG] osc=41 imp=881 imprb=881 mstart=0x40 cfg=91 cfgfail=0x0 vhv=0 vpolls=0
[PRT] calls=14181 xerr=0 ler=1 lidx=0x0 perr=0 maxcnt=17 addr8=0x52
[RTY] wr=0 wmax=0 wref=0  rd=0 rmax=0 rref=0
[RNG] frames=3518 last=33 min=16 max=43 nrdy=0 dxfer=0 dstat=0 lst=0 nrdyerr=0 dclr=0
[DRV] init=0 id=7 mode=0x1 lib=0x2 seq=0x1 odc=0x8b sts=0xe0 armed=1
[TRG] pulses=1 suppressed=0 cyc=1600 rst=1 rstmode=0x40
[HLT] polls=70 faults=0x0 cfglost=0
[EFF] n=1 last=58541 min=58541 max=58541 late=0 stuck=0 rderr=0
[IMU] init=0 addr=0x68 who=0x68 rst=1 pmrb0=0x40 pmrb=0x1 sr=19 cfg=4 gcfg=0x0 acfg=0x8 icfg=0x30 ien=0x1 armed=1
[ACC] reads=3519 stale=3515 rderr=0 ax=35 ay=-25 az=1125
[PWR] pm=0x1 drift=0 rderr=0
[DWT] ok=1 cyc=2230039122 cyc_per_ms=800087
[HB] up_ms=79144 frames=3565 inf=3565 hazard=1 canary_err=0 q=0 qovr=0
[I2C] init=0 gate=0 whoami=0x140e0 wr=0 wrseen=0x27 addr=0x5a ok=22198 err=0 tmo=0 recov=0 pclk1=200000000 sysclk=400000000
[NAK] nacks=0
[CLK] cpu=800000000 sysb=400000000 pclk1=200000000
[TOF] res=0 step=0 id=0xeacc blk=0xeacc10 ctl=0x0
[RNG] init=0 step=99 id=0xeacc boot=1 calls=93 xerr=0 dm=1 tb=15
[RNG] osc=41 imp=881 imprb=881 mstart=0x40 cfg=91 cfgfail=0x0 vhv=0 vpolls=0
[PRT] calls=14381 xerr=0 ler=1 lidx=0x0 perr=0 maxcnt=17 addr8=0x52
[RTY] wr=0 wmax=0 wref=0  rd=0 rmax=0 rref=0
[RNG] frames=3567 last=24 min=16 max=43 nrdy=0 dxfer=0 dstat=0 lst=0 nrdyerr=0 dclr=0
[DRV] init=0 id=7 mode=0x1 lib=0x2 seq=0x1 odc=0x8b sts=0xe0 armed=1
[TRG] pulses=1 suppressed=0 cyc=1600 rst=1 rstmode=0x40
[HLT] polls=71 faults=0x0 cfglost=0
[EFF] n=1 last=58541 min=58541 max=58541 late=0 stuck=0 rderr=0
[IMU] init=0 addr=0x68 who=0x68 rst=1 pmrb0=0x40 pmrb=0x1 sr=19 cfg=4 gcfg=0x0 acfg=0x8 icfg=0x30 ien=0x1 armed=1
[ACC] reads=3569 stale=3564 rderr=0 ax=36 ay=-24 az=1128
[PWR] pm=0x1 drift=0 rderr=0
[DWT] ok=1 cyc=3110702802 cyc_per_ms=799876
[HB] up_ms=80245 frames=3615 inf=3615 hazard=1 canary_err=0 q=0 qovr=0
[I2C] init=0 gate=0 whoami=0x140e0 wr=0 wrseen=0x27 addr=0x5a ok=22500 err=0 tmo=0 recov=0 pclk1=200000000 sysclk=400000000
[NAK] nacks=0
[CLK] cpu=800000000 sysb=400000000 pclk1=200000000
[TOF] res=0 step=0 id=0xeacc blk=0xeacc10 ctl=0x0
[RNG] init=0 step=99 id=0xeacc boot=1 calls=93 xerr=0 dm=1 tb=15
[RNG] osc=41 imp=881 imprb=881 mstart=0x40 cfg=91 cfgfail=0x0 vhv=0 vpolls=0
[PRT] calls=14581 xerr=0 ler=1 lidx=0x0 perr=0 maxcnt=17 addr8=0x52
[RTY] wr=0 wmax=0 wref=0  rd=0 rmax=0 rref=0
[RNG] frames=3617 last=22 min=16 max=43 nrdy=0 dxfer=0 dstat=0 lst=0 nrdyerr=0 dclr=0
[DRV] init=0 id=7 mode=0x1 lib=0x2 seq=0x1 odc=0x8b sts=0xe0 armed=1
[TRG] pulses=1 suppressed=0 cyc=1600 rst=1 rstmode=0x40
[HLT] polls=72 faults=0x0 cfglost=0
[EFF] n=1 last=58541 min=58541 max=58541 late=0 stuck=0 rderr=0
[IMU] init=0 addr=0x68 who=0x68 rst=1 pmrb0=0x40 pmrb=0x1 sr=19 cfg=4 gcfg=0x0 acfg=0x8 icfg=0x30 ien=0x1 armed=1
[ACC] reads=3619 stale=3613 rderr=0 ax=36 ay=-26 az=1126
[PWR] pm=0x1 drift=0 rderr=0
[DWT] ok=1 cyc=3991502974 cyc_per_ms=800000
[HB] up_ms=81346 frames=3665 inf=3665 hazard=1 canary_err=0 q=0 qovr=0
[I2C] init=0 gate=0 whoami=0x140e0 wr=0 wrseen=0x27 addr=0x5a ok=22802 err=0 tmo=0 recov=0 pclk1=200000000 sysclk=400000000
[NAK] nacks=0
[CLK] cpu=800000000 sysb=400000000 pclk1=200000000
[TOF] res=0 step=0 id=0xeacc blk=0xeacc10 ctl=0x0
[RNG] init=0 step=99 id=0xeacc boot=1 calls=93 xerr=0 dm=1 tb=15
[RNG] osc=41 imp=881 imprb=881 mstart=0x40 cfg=91 cfgfail=0x0 vhv=0 vpolls=0
[PRT] calls=14781 xerr=0 ler=1 lidx=0x0 perr=0 maxcnt=17 addr8=0x52
[RTY] wr=0 wmax=0 wref=0  rd=0 rmax=0 rref=0
[RNG] frames=3667 last=24 min=16 max=43 nrdy=0 dxfer=0 dstat=0 lst=0 nrdyerr=0 dclr=0
[DRV] init=0 id=7 mode=0x1 lib=0x2 seq=0x1 odc=0x8b sts=0xe0 armed=1
[TRG] pulses=1 suppressed=0 cyc=1600 rst=1 rstmode=0x40
[HLT] polls=73 faults=0x0 cfglost=0
[EFF] n=1 last=58541 min=58541 max=58541 late=0 stuck=0 rderr=0
[IMU] init=0 addr=0x68 who=0x68 rst=1 pmrb0=0x40 pmrb=0x1 sr=19 cfg=4 gcfg=0x0 acfg=0x8 icfg=0x30 ien=0x1 armed=1
[ACC] reads=3669 stale=3663 rderr=0 ax=36 ay=-26 az=1127
[PWR] pm=0x1 drift=0 rderr=0
[DWT] ok=1 cyc=577335514 cyc_per_ms=799999
[HB] up_ms=82447 frames=3715 inf=3715 hazard=1 canary_err=0 q=0 qovr=0
[I2C] init=0 gate=0 whoami=0x140e0 wr=0 wrseen=0x27 addr=0x5a ok=23104 err=0 tmo=0 recov=0 pclk1=200000000 sysclk=400000000
[NAK] nacks=0
[CLK] cpu=800000000 sysb=400000000 pclk1=200000000
[TOF] res=0 step=0 id=0xeacc blk=0xeacc10 ctl=0x0
[RNG] init=0 step=99 id=0xeacc boot=1 calls=93 xerr=0 dm=1 tb=15
[RNG] osc=41 imp=881 imprb=881 mstart=0x40 cfg=91 cfgfail=0x0 vhv=0 vpolls=0
[PRT] calls=14981 xerr=0 ler=1 lidx=0x0 perr=0 maxcnt=17 addr8=0x52
[RTY] wr=0 wmax=0 wref=0  rd=0 rmax=0 rref=0
[RNG] frames=3717 last=26 min=16 max=43 nrdy=0 dxfer=0 dstat=0 lst=0 nrdyerr=0 dclr=0
[DRV] init=0 id=7 mode=0x1 lib=0x2 seq=0x1 odc=0x8b sts=0xe0 armed=1
[TRG] pulses=1 suppressed=0 cyc=1600 rst=1 rstmode=0x40
[HLT] polls=74 faults=0x0 cfglost=0
[EFF] n=1 last=58541 min=58541 max=58541 late=0 stuck=0 rderr=0
[IMU] init=0 addr=0x68 who=0x68 rst=1 pmrb0=0x40 pmrb=0x1 sr=19 cfg=4 gcfg=0x0 acfg=0x8 icfg=0x30 ien=0x1 armed=1
[ACC] reads=3719 stale=3713 rderr=0 ax=35 ay=-24 az=1126
[PWR] pm=0x1 drift=0 rderr=0
[DWT] ok=1 cyc=1458135798 cyc_per_ms=800000
[HB] up_ms=83548 frames=3765 inf=3765 hazard=1 canary_err=0 q=0 qovr=0
[I2C] init=0 gate=0 whoami=0x140e0 wr=0 wrseen=0x27 addr=0x5a ok=23406 err=0 tmo=0 recov=0 pclk1=200000000 sysclk=400000000
[NAK] nacks=0
[CLK] cpu=800000000 sysb=400000000 pclk1=200000000
[TOF] res=0 step=0 id=0xeacc blk=0xeacc10 ctl=0x0
[RNG] init=0 step=99 id=0xeacc boot=1 calls=93 xerr=0 dm=1 tb=15
[RNG] osc=41 imp=881 imprb=881 mstart=0x40 cfg=91 cfgfail=0x0 vhv=0 vpolls=0
[PRT] calls=15177 xerr=0 ler=1 lidx=0x0 perr=0 maxcnt=17 addr8=0x52
[RTY] wr=0 wmax=0 wref=0  rd=0 rmax=0 rref=0
[RNG] frames=3767 last=33 min=16 max=43 nrdy=0 dxfer=0 dstat=0 lst=0 nrdyerr=0 dclr=0
[DRV] init=0 id=7 mode=0x1 lib=0x2 seq=0x1 odc=0x8b sts=0xe0 armed=1
[TRG] pulses=1 suppressed=0 cyc=1600 rst=1 rstmode=0x40
[HLT] polls=75 faults=0x0 cfglost=0
[EFF] n=1 last=58541 min=58541 max=58541 late=0 stuck=0 rderr=0
[IMU] init=0 addr=0x68 who=0x68 rst=1 pmrb0=0x40 pmrb=0x1 sr=19 cfg=4 gcfg=0x0 acfg=0x8 icfg=0x30 ien=0x1 armed=1
[ACC] reads=3768 stale=3762 rderr=0 ax=35 ay=-25 az=1128
[PWR] pm=0x1 drift=0 rderr=0
[DWT] ok=1 cyc=2338935522 cyc_per_ms=799999
[HB] up_ms=84649 frames=3814 inf=3814 hazard=1 canary_err=0 q=0 qovr=0
[I2C] init=0 gate=0 whoami=0x140e0 wr=0 wrseen=0x27 addr=0x5a ok=23708 err=0 tmo=0 recov=0 pclk1=200000000 sysclk=400000000
[NAK] nacks=0
[CLK] cpu=800000000 sysb=400000000 pclk1=200000000
[TOF] res=0 step=0 id=0xeacc blk=0xeacc10 ctl=0x0
[RNG] init=0 step=99 id=0xeacc boot=1 calls=93 xerr=0 dm=1 tb=15
[RNG] osc=41 imp=881 imprb=881 mstart=0x40 cfg=91 cfgfail=0x0 vhv=0 vpolls=0
[PRT] calls=15377 xerr=0 ler=1 lidx=0x0 perr=0 maxcnt=17 addr8=0x52
[RTY] wr=0 wmax=0 wref=0  rd=0 rmax=0 rref=0
[RNG] frames=3817 last=24 min=16 max=43 nrdy=0 dxfer=0 dstat=0 lst=0 nrdyerr=0 dclr=0
[DRV] init=0 id=7 mode=0x1 lib=0x2 seq=0x1 odc=0x8b sts=0xe0 armed=1
[TRG] pulses=1 suppressed=0 cyc=1600 rst=1 rstmode=0x40
[HLT] polls=76 faults=0x0 cfglost=0
[EFF] n=1 last=58541 min=58541 max=58541 late=0 stuck=0 rderr=0
[IMU] init=0 addr=0x68 who=0x68 rst=1 pmrb0=0x40 pmrb=0x1 sr=19 cfg=4 gcfg=0x0 acfg=0x8 icfg=0x30 ien=0x1 armed=1
[ACC] reads=3818 stale=3812 rderr=0 ax=35 ay=-23 az=1128
[PWR] pm=0x1 drift=0 rderr=0
[DWT] ok=1 cyc=3219870978 cyc_per_ms=800123
[HB] up_ms=85750 frames=3864 inf=3864 hazard=1 canary_err=0 q=0 qovr=0
[I2C] init=0 gate=0 whoami=0x140e0 wr=0 wrseen=0x27 addr=0x5a ok=24010 err=0 tmo=0 recov=0 pclk1=200000000 sysclk=400000000
[NAK] nacks=0
[CLK] cpu=800000000 sysb=400000000 pclk1=200000000
[TOF] res=0 step=0 id=0xeacc blk=0xeacc10 ctl=0x0
[RNG] init=0 step=99 id=0xeacc boot=1 calls=93 xerr=0 dm=1 tb=15
[RNG] osc=41 imp=881 imprb=881 mstart=0x40 cfg=91 cfgfail=0x0 vhv=0 vpolls=0
[PRT] calls=15577 xerr=0 ler=1 lidx=0x0 perr=0 maxcnt=17 addr8=0x52
[RTY] wr=0 wmax=0 wref=0  rd=0 rmax=0 rref=0
[RNG] frames=3866 last=24 min=16 max=43 nrdy=0 dxfer=0 dstat=0 lst=0 nrdyerr=0 dclr=0
[DRV] init=0 id=7 mode=0x1 lib=0x2 seq=0x1 odc=0x8b sts=0xe0 armed=1
[TRG] pulses=1 suppressed=0 cyc=1600 rst=1 rstmode=0x40
[HLT] polls=77 faults=0x0 cfglost=0
[EFF] n=1 last=58541 min=58541 max=58541 late=0 stuck=0 rderr=0
[IMU] init=0 addr=0x68 who=0x68 rst=1 pmrb0=0x40 pmrb=0x1 sr=19 cfg=4 gcfg=0x0 acfg=0x8 icfg=0x30 ien=0x1 armed=1
[ACC] reads=3868 stale=3861 rderr=0 ax=35 ay=-24 az=1130
[PWR] pm=0x1 drift=0 rderr=0
[DWT] ok=1 cyc=4100565578 cyc_per_ms=799904
[HB] up_ms=86851 frames=3914 inf=3914 hazard=1 canary_err=0 q=0 qovr=0
[I2C] init=0 gate=0 whoami=0x140e0 wr=0 wrseen=0x27 addr=0x5a ok=24306 err=0 tmo=0 recov=0 pclk1=200000000 sysclk=400000000
[NAK] nacks=0
[CLK] cpu=800000000 sysb=400000000 pclk1=200000000
[TOF] res=0 step=0 id=0xeacc blk=0xeacc10 ctl=0x0
[RNG] init=0 step=99 id=0xeacc boot=1 calls=93 xerr=0 dm=1 tb=15
[RNG] osc=41 imp=881 imprb=881 mstart=0x40 cfg=91 cfgfail=0x0 vhv=0 vpolls=0
[PRT] calls=15777 xerr=0 ler=1 lidx=0x0 perr=0 maxcnt=17 addr8=0x52
[RTY] wr=0 wmax=0 wref=0  rd=0 rmax=0 rref=0
[RNG] frames=3916 last=25 min=16 max=43 nrdy=0 dxfer=0 dstat=0 lst=0 nrdyerr=0 dclr=0
[DRV] init=0 id=7 mode=0x1 lib=0x2 seq=0x1 odc=0x8b sts=0xe0 armed=1
[TRG] pulses=1 suppressed=0 cyc=1600 rst=1 rstmode=0x40
[HLT] polls=78 faults=0x0 cfglost=0
[EFF] n=1 last=58541 min=58541 max=58541 late=0 stuck=0 rderr=0
[IMU] init=0 addr=0x68 who=0x68 rst=1 pmrb0=0x40 pmrb=0x1 sr=19 cfg=4 gcfg=0x0 acfg=0x8 icfg=0x30 ien=0x1 armed=1
[ACC] reads=3918 stale=3911 rderr=0 ax=37 ay=-26 az=1126
[PWR] pm=0x1 drift=0 rderr=0
[DWT] ok=1 cyc=686368134 cyc_per_ms=799972
[HB] up_ms=87952 frames=3964 inf=3964 hazard=1 canary_err=0 q=0 qovr=0
[I2C] init=0 gate=0 whoami=0x140e0 wr=0 wrseen=0x27 addr=0x5a ok=24608 err=0 tmo=0 recov=0 pclk1=200000000 sysclk=400000000
[NAK] nacks=0
[CLK] cpu=800000000 sysb=400000000 pclk1=200000000
[TOF] res=0 step=0 id=0xeacc blk=0xeacc10 ctl=0x0
[RNG] init=0 step=99 id=0xeacc boot=1 calls=93 xerr=0 dm=1 tb=15
[RNG] osc=41 imp=881 imprb=881 mstart=0x40 cfg=91 cfgfail=0x0 vhv=0 vpolls=0
[PRT] calls=15977 xerr=0 ler=1 lidx=0x0 perr=0 maxcnt=17 addr8=0x52
[RTY] wr=0 wmax=0 wref=0  rd=0 rmax=0 rref=0
[RNG] frames=3966 last=28 min=16 max=43 nrdy=0 dxfer=0 dstat=0 lst=0 nrdyerr=0 dclr=0
[DRV] init=0 id=7 mode=0x1 lib=0x2 seq=0x1 odc=0x8b sts=0xe0 armed=1
[TRG] pulses=1 suppressed=0 cyc=1600 rst=1 rstmode=0x40
[HLT] polls=79 faults=0x0 cfglost=0
[EFF] n=1 last=58541 min=58541 max=58541 late=0 stuck=0 rderr=0
[IMU] init=0 addr=0x68 who=0x68 rst=1 pmrb0=0x40 pmrb=0x1 sr=19 cfg=4 gcfg=0x0 acfg=0x8 icfg=0x30 ien=0x1 armed=1
[ACC] reads=3968 stale=3961 rderr=0 ax=36 ay=-27 az=1128
[PWR] pm=0x1 drift=0 rderr=0
[DWT] ok=1 cyc=1567168162 cyc_per_ms=800000
[HB] up_ms=89053 frames=4014 inf=4014 hazard=1 canary_err=0 q=0 qovr=0
[I2C] init=0 gate=0 whoami=0x140e0 wr=0 wrseen=0x27 addr=0x5a ok=24910 err=0 tmo=0 recov=0 pclk1=200000000 sysclk=400000000
[NAK] nacks=0
[CLK] cpu=800000000 sysb=400000000 pclk1=200000000
[TOF] res=0 step=0 id=0xeacc blk=0xeacc10 ctl=0x0
[RNG] init=0 step=99 id=0xeacc boot=1 calls=93 xerr=0 dm=1 tb=15
[RNG] osc=41 imp=881 imprb=881 mstart=0x40 cfg=91 cfgfail=0x0 vhv=0 vpolls=0
[PRT] calls=16177 xerr=0 ler=1 lidx=0x0 perr=0 maxcnt=17 addr8=0x52
[RTY] wr=0 wmax=0 wref=0  rd=0 rmax=0 rref=0
[RNG] frames=4016 last=26 min=15 max=43 nrdy=0 dxfer=0 dstat=0 lst=0 nrdyerr=0 dclr=0
[DRV] init=0 id=7 mode=0x1 lib=0x2 seq=0x1 odc=0x8b sts=0xe0 armed=1
[TRG] pulses=1 suppressed=0 cyc=1600 rst=1 rstmode=0x40
[HLT] polls=80 faults=0x0 cfglost=0
[EFF] n=1 last=58541 min=58541 max=58541 late=0 stuck=0 rderr=0
[IMU] init=0 addr=0x68 who=0x68 rst=1 pmrb0=0x40 pmrb=0x1 sr=19 cfg=4 gcfg=0x0 acfg=0x8 icfg=0x30 ien=0x1 armed=1
[ACC] reads=4018 stale=4011 rderr=0 ax=37 ay=-26 az=1129
[PWR] pm=0x1 drift=0 rderr=0
[DWT] ok=1 cyc=2447968198 cyc_per_ms=800000
[HB] up_ms=90154 frames=4064 inf=4064 hazard=1 canary_err=0 q=0 qovr=0
[I2C] init=0 gate=0 whoami=0x140e0 wr=0 wrseen=0x27 addr=0x5a ok=25212 err=0 tmo=0 recov=0 pclk1=200000000 sysclk=400000000
[NAK] nacks=0
[CLK] cpu=800000000 sysb=400000000 pclk1=200000000
[TOF] res=0 step=0 id=0xeacc blk=0xeacc10 ctl=0x0
[RNG] init=0 step=99 id=0xeacc boot=1 calls=93 xerr=0 dm=1 tb=15
[RNG] osc=41 imp=881 imprb=881 mstart=0x40 cfg=91 cfgfail=0x0 vhv=0 vpolls=0
[PRT] calls=16375 xerr=0 ler=1 lidx=0x0 perr=0 maxcnt=17 addr8=0x52
[RTY] wr=0 wmax=0 wref=0  rd=0 rmax=0 rref=0
[RNG] frames=4066 last=25 min=15 max=43 nrdy=0 dxfer=0 dstat=0 lst=0 nrdyerr=0 dclr=0
[DRV] init=0 id=7 mode=0x1 lib=0x2 seq=0x1 odc=0x8b sts=0xe0 armed=1
[TRG] pulses=1 suppressed=0 cyc=1600 rst=1 rstmode=0x40
[HLT] polls=81 faults=0x0 cfglost=0
[EFF] n=1 last=58541 min=58541 max=58541 late=0 stuck=0 rderr=0
[IMU] init=0 addr=0x68 who=0x68 rst=1 pmrb0=0x40 pmrb=0x1 sr=19 cfg=4 gcfg=0x0 acfg=0x8 icfg=0x30 ien=0x1 armed=1
[ACC] reads=4068 stale=4061 rderr=0 ax=36 ay=-26 az=1126
[PWR] pm=0x1 drift=0 rderr=0
[DWT] ok=1 cyc=3328768530 cyc_per_ms=800000
[HB] up_ms=91255 frames=4114 inf=4114 hazard=1 canary_err=0 q=0 qovr=0
[I2C] init=0 gate=0 whoami=0x140e0 wr=0 wrseen=0x27 addr=0x5a ok=25514 err=0 tmo=0 recov=0 pclk1=200000000 sysclk=400000000
[NAK] nacks=0
[CLK] cpu=800000000 sysb=400000000 pclk1=200000000
[TOF] res=0 step=0 id=0xeacc blk=0xeacc10 ctl=0x0
[RNG] init=0 step=99 id=0xeacc boot=1 calls=93 xerr=0 dm=1 tb=15
[RNG] osc=41 imp=881 imprb=881 mstart=0x40 cfg=91 cfgfail=0x0 vhv=0 vpolls=0
[PRT] calls=16573 xerr=0 ler=1 lidx=0x0 perr=0 maxcnt=17 addr8=0x52
[RTY] wr=0 wmax=0 wref=0  rd=0 rmax=0 rref=0
[RNG] frames=4116 last=30 min=15 max=43 nrdy=0 dxfer=0 dstat=0 lst=0 nrdyerr=0 dclr=0
[DRV] init=0 id=7 mode=0x1 lib=0x2 seq=0x1 odc=0x8b sts=0xe0 armed=1
[TRG] pulses=1 suppressed=0 cyc=1600 rst=1 rstmode=0x40
[HLT] polls=82 faults=0x0 cfglost=0
[EFF] n=1 last=58541 min=58541 max=58541 late=0 stuck=0 rderr=0
[IMU] init=0 addr=0x68 who=0x68 rst=1 pmrb0=0x40 pmrb=0x1 sr=19 cfg=4 gcfg=0x0 acfg=0x8 icfg=0x30 ien=0x1 armed=1
[ACC] reads=4117 stale=4110 rderr=0 ax=38 ay=-25 az=1127
[PWR] pm=0x1 drift=0 rderr=0
[DWT] ok=1 cyc=4209568142 cyc_per_ms=799999
[HB] up_ms=92356 frames=4163 inf=4163 hazard=1 canary_err=0 q=0 qovr=0
[I2C] init=0 gate=0 whoami=0x140e0 wr=0 wrseen=0x27 addr=0x5a ok=25816 err=0 tmo=0 recov=0 pclk1=200000000 sysclk=400000000
[NAK] nacks=0
[CLK] cpu=800000000 sysb=400000000 pclk1=200000000
[TOF] res=0 step=0 id=0xeacc blk=0xeacc10 ctl=0x0
[RNG] init=0 step=99 id=0xeacc boot=1 calls=93 xerr=0 dm=1 tb=15
[RNG] osc=41 imp=881 imprb=881 mstart=0x40 cfg=91 cfgfail=0x0 vhv=0 vpolls=0
[PRT] calls=16773 xerr=0 ler=1 lidx=0x0 perr=0 maxcnt=17 addr8=0x52
[RTY] wr=0 wmax=0 wref=0  rd=0 rmax=0 rref=0
[RNG] frames=4166 last=24 min=15 max=43 nrdy=0 dxfer=0 dstat=0 lst=0 nrdyerr=0 dclr=0
[DRV] init=0 id=7 mode=0x1 lib=0x2 seq=0x1 odc=0x8b sts=0xe0 armed=1
[TRG] pulses=1 suppressed=0 cyc=1600 rst=1 rstmode=0x40
[HLT] polls=83 faults=0x0 cfglost=0
[EFF] n=1 last=58541 min=58541 max=58541 late=0 stuck=0 rderr=0
[IMU] init=0 addr=0x68 who=0x68 rst=1 pmrb0=0x40 pmrb=0x1 sr=19 cfg=4 gcfg=0x0 acfg=0x8 icfg=0x30 ien=0x1 armed=1
[ACC] reads=4167 stale=4160 rderr=0 ax=37 ay=-24 az=1130
[PWR] pm=0x1 drift=0 rderr=0
[DWT] ok=1 cyc=795537006 cyc_per_ms=800123
[HB] up_ms=93457 frames=4213 inf=4213 hazard=1 canary_err=0 q=0 qovr=0
[I2C] init=0 gate=0 whoami=0x140e0 wr=0 wrseen=0x27 addr=0x5a ok=26115 err=0 tmo=0 recov=0 pclk1=200000000 sysclk=400000000
[NAK] nacks=0
[CLK] cpu=800000000 sysb=400000000 pclk1=200000000
[TOF] res=0 step=0 id=0xeacc blk=0xeacc10 ctl=0x0
[RNG] init=0 step=99 id=0xeacc boot=1 calls=93 xerr=0 dm=1 tb=15
[RNG] osc=41 imp=881 imprb=881 mstart=0x40 cfg=91 cfgfail=0x0 vhv=0 vpolls=0
[PRT] calls=16973 xerr=0 ler=1 lidx=0x0 perr=0 maxcnt=17 addr8=0x52
[RTY] wr=0 wmax=0 wref=0  rd=0 rmax=0 rref=0
[RNG] frames=4215 last=30 min=15 max=43 nrdy=0 dxfer=0 dstat=0 lst=0 nrdyerr=0 dclr=0
[DRV] init=0 id=7 mode=0x1 lib=0x2 seq=0x1 odc=0x8b sts=0xe0 armed=1
[TRG] pulses=1 suppressed=0 cyc=1600 rst=1 rstmode=0x40
[HLT] polls=84 faults=0x0 cfglost=0
[EFF] n=1 last=58541 min=58541 max=58541 late=0 stuck=0 rderr=0
[IMU] init=0 addr=0x68 who=0x68 rst=1 pmrb0=0x40 pmrb=0x1 sr=19 cfg=4 gcfg=0x0 acfg=0x8 icfg=0x30 ien=0x1 armed=1
[ACC] reads=4217 stale=4210 rderr=0 ax=35 ay=-25 az=1127
[PWR] pm=0x1 drift=0 rderr=0
[DWT] ok=1 cyc=1676201030 cyc_per_ms=799876
[HB] up_ms=94558 frames=4263 inf=4263 hazard=1 canary_err=0 q=0 qovr=0
[I2C] init=0 gate=0 whoami=0x140e0 wr=0 wrseen=0x27 addr=0x5a ok=26414 err=0 tmo=0 recov=0 pclk1=200000000 sysclk=400000000
[NAK] nacks=0
[CLK] cpu=800000000 sysb=400000000 pclk1=200000000
[TOF] res=0 step=0 id=0xeacc blk=0xeacc10 ctl=0x0
[RNG] init=0 step=99 id=0xeacc boot=1 calls=93 xerr=0 dm=1 tb=15
[RNG] osc=41 imp=881 imprb=881 mstart=0x40 cfg=91 cfgfail=0x0 vhv=0 vpolls=0
[PRT] calls=17173 xerr=0 ler=1 lidx=0x0 perr=0 maxcnt=17 addr8=0x52
[RTY] wr=0 wmax=0 wref=0  rd=0 rmax=0 rref=0
[RNG] frames=4265 last=28 min=15 max=43 nrdy=0 dxfer=0 dstat=0 lst=0 nrdyerr=0 dclr=0
[DRV] init=0 id=7 mode=0x1 lib=0x2 seq=0x1 odc=0x8b sts=0xe0 armed=1
[TRG] pulses=1 suppressed=0 cyc=1600 rst=1 rstmode=0x40
[HLT] polls=85 faults=0x0 cfglost=0
[EFF] n=1 last=58541 min=58541 max=58541 late=0 stuck=0 rderr=0
[IMU] init=0 addr=0x68 who=0x68 rst=1 pmrb0=0x40 pmrb=0x1 sr=19 cfg=4 gcfg=0x0 acfg=0x8 icfg=0x30 ien=0x1 armed=1
[ACC] reads=4267 stale=4260 rderr=0 ax=35 ay=-26 az=1127
[PWR] pm=0x1 drift=0 rderr=0
[DWT] ok=1 cyc=2557000926 cyc_per_ms=799999
[HB] up_ms=95659 frames=4313 inf=4313 hazard=1 canary_err=0 q=0 qovr=0
[I2C] init=0 gate=0 whoami=0x140e0 wr=0 wrseen=0x27 addr=0x5a ok=26716 err=0 tmo=0 recov=0 pclk1=200000000 sysclk=400000000
[NAK] nacks=0
[CLK] cpu=800000000 sysb=400000000 pclk1=200000000
[TOF] res=0 step=0 id=0xeacc blk=0xeacc10 ctl=0x0
[RNG] init=0 step=99 id=0xeacc boot=1 calls=93 xerr=0 dm=1 tb=15
[RNG] osc=41 imp=881 imprb=881 mstart=0x40 cfg=91 cfgfail=0x0 vhv=0 vpolls=0
[PRT] calls=17373 xerr=0 ler=1 lidx=0x0 perr=0 maxcnt=17 addr8=0x52
[RTY] wr=0 wmax=0 wref=0  rd=0 rmax=0 rref=0
[RNG] frames=4315 last=30 min=15 max=43 nrdy=0 dxfer=0 dstat=0 lst=0 nrdyerr=0 dclr=0
[DRV] init=0 id=7 mode=0x1 lib=0x2 seq=0x1 odc=0x8b sts=0xe0 armed=1
[TRG] pulses=1 suppressed=0 cyc=1600 rst=1 rstmode=0x40
[HLT] polls=86 faults=0x0 cfglost=0
[EFF] n=1 last=58541 min=58541 max=58541 late=0 stuck=0 rderr=0
[IMU] init=0 addr=0x68 who=0x68 rst=1 pmrb0=0x40 pmrb=0x1 sr=19 cfg=4 gcfg=0x0 acfg=0x8 icfg=0x30 ien=0x1 armed=1
[ACC] reads=4317 stale=4310 rderr=0 ax=35 ay=-24 az=1127
[PWR] pm=0x1 drift=0 rderr=0
[DWT] ok=1 cyc=3437800910 cyc_per_ms=799999
[HB] up_ms=96760 frames=4363 inf=4363 hazard=1 canary_err=0 q=0 qovr=0
[I2C] init=0 gate=0 whoami=0x140e0 wr=0 wrseen=0x27 addr=0x5a ok=27018 err=0 tmo=0 recov=0 pclk1=200000000 sysclk=400000000
[NAK] nacks=0
[CLK] cpu=800000000 sysb=400000000 pclk1=200000000
[TOF] res=0 step=0 id=0xeacc blk=0xeacc10 ctl=0x0
[RNG] init=0 step=99 id=0xeacc boot=1 calls=93 xerr=0 dm=1 tb=15
[RNG] osc=41 imp=881 imprb=881 mstart=0x40 cfg=91 cfgfail=0x0 vhv=0 vpolls=0
[PRT] calls=17573 xerr=0 ler=1 lidx=0x0 perr=0 maxcnt=17 addr8=0x52
[RTY] wr=0 wmax=0 wref=0  rd=0 rmax=0 rref=0
[RNG] frames=4365 last=35 min=15 max=43 nrdy=0 dxfer=0 dstat=0 lst=0 nrdyerr=0 dclr=0
[DRV] init=0 id=7 mode=0x1 lib=0x2 seq=0x1 odc=0x8b sts=0xe0 armed=1
[TRG] pulses=1 suppressed=0 cyc=1600 rst=1 rstmode=0x40
[HLT] polls=87 faults=0x0 cfglost=0
[EFF] n=1 last=58541 min=58541 max=58541 late=0 stuck=0 rderr=0
[IMU] init=0 addr=0x68 who=0x68 rst=1 pmrb0=0x40 pmrb=0x1 sr=19 cfg=4 gcfg=0x0 acfg=0x8 icfg=0x30 ien=0x1 armed=1
[ACC] reads=4367 stale=4360 rderr=0 ax=36 ay=-26 az=1130
[PWR] pm=0x1 drift=0 rderr=0
[DWT] ok=1 cyc=23633626 cyc_per_ms=800000
[HB] up_ms=97861 frames=4413 inf=4413 hazard=1 canary_err=0 q=0 qovr=0
[I2C] init=0 gate=0 whoami=0x140e0 wr=0 wrseen=0x27 addr=0x5a ok=27320 err=0 tmo=0 recov=0 pclk1=200000000 sysclk=400000000
[NAK] nacks=0
[CLK] cpu=800000000 sysb=400000000 pclk1=200000000
[TOF] res=0 step=0 id=0xeacc blk=0xeacc10 ctl=0x0
[RNG] init=0 step=99 id=0xeacc boot=1 calls=93 xerr=0 dm=1 tb=15
[RNG] osc=41 imp=881 imprb=881 mstart=0x40 cfg=91 cfgfail=0x0 vhv=0 vpolls=0
[PRT] calls=17769 xerr=0 ler=1 lidx=0x0 perr=0 maxcnt=17 addr8=0x52
[RTY] wr=0 wmax=0 wref=0  rd=0 rmax=0 rref=0
[RNG] frames=4415 last=23 min=15 max=43 nrdy=0 dxfer=0 dstat=0 lst=0 nrdyerr=0 dclr=0
[DRV] init=0 id=7 mode=0x1 lib=0x2 seq=0x1 odc=0x8b sts=0xe0 armed=1
[TRG] pulses=1 suppressed=0 cyc=1600 rst=1 rstmode=0x40
[HLT] polls=88 faults=0x0 cfglost=0
[EFF] n=1 last=58541 min=58541 max=58541 late=0 stuck=0 rderr=0
[IMU] init=0 addr=0x68 who=0x68 rst=1 pmrb0=0x40 pmrb=0x1 sr=19 cfg=4 gcfg=0x0 acfg=0x8 icfg=0x30 ien=0x1 armed=1
[ACC] reads=4416 stale=4409 rderr=0 ax=37 ay=-25 az=1128
[PWR] pm=0x1 drift=0 rderr=0
[DWT] ok=1 cyc=904433674 cyc_per_ms=800000
[HB] up_ms=98962 frames=4462 inf=4462 hazard=1 canary_err=0 q=0 qovr=0
[I2C] init=0 gate=0 whoami=0x140e0 wr=0 wrseen=0x27 addr=0x5a ok=27622 err=0 tmo=0 recov=0 pclk1=200000000 sysclk=400000000
[NAK] nacks=0
[CLK] cpu=800000000 sysb=400000000 pclk1=200000000
[TOF] res=0 step=0 id=0xeacc blk=0xeacc10 ctl=0x0
[RNG] init=0 step=99 id=0xeacc boot=1 calls=93 xerr=0 dm=1 tb=15
[RNG] osc=41 imp=881 imprb=881 mstart=0x40 cfg=91 cfgfail=0x0 vhv=0 vpolls=0
[PRT] calls=17969 xerr=0 ler=1 lidx=0x0 perr=0 maxcnt=17 addr8=0x52
[RTY] wr=0 wmax=0 wref=0  rd=0 rmax=0 rref=0
[RNG] frames=4465 last=30 min=15 max=43 nrdy=0 dxfer=0 dstat=0 lst=0 nrdyerr=0 dclr=0
[DRV] init=0 id=7 mode=0x1 lib=0x2 seq=0x1 odc=0x8b sts=0xe0 armed=1
[TRG] pulses=1 suppressed=0 cyc=1600 rst=1 rstmode=0x40
[HLT] polls=89 faults=0x0 cfglost=0
[EFF] n=1 last=58541 min=58541 max=58541 late=0 stuck=0 rderr=0
[IMU] init=0 addr=0x68 who=0x68 rst=1 pmrb0=0x40 pmrb=0x1 sr=19 cfg=4 gcfg=0x0 acfg=0x8 icfg=0x30 ien=0x1 armed=1
[ACC] reads=4466 stale=4459 rderr=0 ax=36 ay=-25 az=1128
[PWR] pm=0x1 drift=0 rderr=0
[DWT] ok=1 cyc=1785273718 cyc_per_ms=800036
[HB] up_ms=100063 frames=4512 inf=4512 hazard=1 canary_err=0 q=0 qovr=0
[I2C] init=0 gate=0 whoami=0x140e0 wr=0 wrseen=0x27 addr=0x5a ok=27924 err=0 tmo=0 recov=0 pclk1=200000000 sysclk=400000000
[NAK] nacks=0
[CLK] cpu=800000000 sysb=400000000 pclk1=200000000
[TOF] res=0 step=0 id=0xeacc blk=0xeacc10 ctl=0x0
[RNG] init=0 step=99 id=0xeacc boot=1 calls=93 xerr=0 dm=1 tb=15
[RNG] osc=41 imp=881 imprb=881 mstart=0x40 cfg=91 cfgfail=0x0 vhv=0 vpolls=0
[PRT] calls=18169 xerr=0 ler=1 lidx=0x0 perr=0 maxcnt=17 addr8=0x52
[RTY] wr=0 wmax=0 wref=0  rd=0 rmax=0 rref=0
[RNG] frames=4515 last=27 min=15 max=43 nrdy=0 dxfer=0 dstat=0 lst=0 nrdyerr=0 dclr=0
[DRV] init=0 id=7 mode=0x1 lib=0x2 seq=0x1 odc=0x8b sts=0xe0 armed=1
[TRG] pulses=1 suppressed=0 cyc=1600 rst=1 rstmode=0x40
[HLT] polls=90 faults=0x0 cfglost=0
[EFF] n=1 last=58541 min=58541 max=58541 late=0 stuck=0 rderr=0
[IMU] init=0 addr=0x68 who=0x68 rst=1 pmrb0=0x40 pmrb=0x1 sr=19 cfg=4 gcfg=0x0 acfg=0x8 icfg=0x30 ien=0x1 armed=1
[ACC] reads=4516 stale=4509 rderr=0 ax=36 ay=-26 az=1127
[PWR] pm=0x1 drift=0 rderr=0
[DWT] ok=1 cyc=2666239654 cyc_per_ms=800150
[HB] up_ms=101164 frames=4562 inf=4562 hazard=1 canary_err=0 q=0 qovr=0
[I2C] init=0 gate=0 whoami=0x140e0 wr=0 wrseen=0x27 addr=0x5a ok=28221 err=0 tmo=0 recov=0 pclk1=200000000 sysclk=400000000
[NAK] nacks=0
[CLK] cpu=800000000 sysb=400000000 pclk1=200000000
[TOF] res=0 step=0 id=0xeacc blk=0xeacc10 ctl=0x0
[RNG] init=0 step=99 id=0xeacc boot=1 calls=93 xerr=0 dm=1 tb=15
[RNG] osc=41 imp=881 imprb=881 mstart=0x40 cfg=91 cfgfail=0x0 vhv=0 vpolls=0
[PRT] calls=18369 xerr=0 ler=1 lidx=0x0 perr=0 maxcnt=17 addr8=0x52
[RTY] wr=0 wmax=0 wref=0  rd=0 rmax=0 rref=0
[RNG] frames=4564 last=28 min=15 max=43 nrdy=0 dxfer=0 dstat=0 lst=0 nrdyerr=0 dclr=0
[DRV] init=0 id=7 mode=0x1 lib=0x2 seq=0x1 odc=0x8b sts=0xe0 armed=1
