[HB] up_ms=358324 frames=16193 inf=16193 hazard=276 canary_err=0 q=0 qovr=0
[I2C] init=0 gate=0 whoami=0x140e0 wr=0 wrseen=0x27 addr=0x5a ok=100531 err=1 tmo=0 recov=0 pclk1=200000000 sysclk=400000000
[NAK] nacks=1
[CLK] cpu=800000000 sysb=400000000 pclk1=200000000
[TOF] res=0 step=0 id=0xeacc blk=0xeacc10 ctl=0x0
[RNG] init=0 step=99 id=0xeacc boot=1 calls=93 xerr=0 dm=1 tb=15
[RNG] osc=41 imp=881 imprb=881 mstart=0x40 cfg=91 cfgfail=0x0 vhv=0 vpolls=0
[PRT] calls=64889 xerr=0 ler=1 lidx=0x0 perr=0 maxcnt=17 addr8=0x52
[RTY] wr=0 wmax=0 wref=0  rd=0 rmax=0 rref=0
[RNG] frames=16195 last=40 min=12 max=159 nrdy=0 dxfer=0 dstat=0 lst=0 nrdyerr=0 dclr=0
[DRV] init=0 id=7 mode=0x1 lib=0x2 seq=0x1 odc=0x8b sts=0xe0 armed=1
[TRG] pulses=195 suppressed=81 cyc=1600 rst=1 rstmode=0x40
[HLT] polls=323 faults=0x0 cfglost=0
[EFF] n=5 last=58555 min=58548 max=58555 late=0 stuck=0 rderr=0
[IMU] init=0 addr=0x68 who=0x68 rst=1 pmrb0=0x40 pmrb=0x1 sr=19 cfg=4 gcfg=0x0 acfg=0x8 icfg=0x30 ien=0x1 armed=1
[ACC] reads=16196 stale=16179 rderr=1 ax=54 ay=-20 az=1122
[PWR] pm=0x1 drift=0 rderr=0
[DWT] ok=1 cyc=3117403710 cyc_per_ms=799999
[HB] up_ms=359426 frames=16243 inf=16243 hazard=276 canary_err=0 q=0 qovr=0
[I2C] init=0 gate=0 whoami=0x140e0 wr=0 wrseen=0x27 addr=0x5a ok=100833 err=1 tmo=0 recov=0 pclk1=200000000 sysclk=400000000
[NAK] nacks=1
[CLK] cpu=800000000 sysb=400000000 pclk1=200000000
[TOF] res=0 step=0 id=0xeacc blk=0xeacc10 ctl=0x0
[RNG] init=0 step=99 id=0xeacc boot=1 calls=93 xerr=0 dm=1 tb=15
[RNG] osc=41 imp=881 imprb=881 mstart=0x40 cfg=91 cfgfail=0x0 vhv=0 vpolls=0
[PRT] calls=65089 xerr=0 ler=1 lidx=0x0 perr=0 maxcnt=17 addr8=0x52
[RTY] wr=0 wmax=0 wref=0  rd=0 rmax=0 rref=0
[RNG] frames=16245 last=53 min=12 max=159 nrdy=0 dxfer=0 dstat=0 lst=0 nrdyerr=0 dclr=0
[DRV] init=0 id=7 mode=0x1 lib=0x2 seq=0x1 odc=0x8b sts=0xe0 armed=1
[TRG] pulses=195 suppressed=81 cyc=1600 rst=1 rstmode=0x40
[HLT] polls=324 faults=0x0 cfglost=0
[EFF] n=5 last=58555 min=58548 max=58555 late=0 stuck=0 rderr=0
[IMU] init=0 addr=0x68 who=0x68 rst=1 pmrb0=0x40 pmrb=0x1 sr=19 cfg=4 gcfg=0x0 acfg=0x8 icfg=0x30 ien=0x1 armed=1
[ACC] reads=16245 stale=16228 rderr=1 ax=56 ay=-21 az=1119
[PWR] pm=0x1 drift=0 rderr=0
[DWT] ok=1 cyc=3999003746 cyc_per_ms=800000
[HB] up_ms=360528 frames=16292 inf=16292 hazard=277 canary_err=0 q=0 qovr=0
[I2C] init=0 gate=0 whoami=0x140e0 wr=0 wrseen=0x27 addr=0x5a ok=101135 err=1 tmo=0 recov=0 pclk1=200000000 sysclk=400000000
[NAK] nacks=1
[CLK] cpu=800000000 sysb=400000000 pclk1=200000000
[TOF] res=0 step=0 id=0xeacc blk=0xeacc10 ctl=0x0
[RNG] init=0 step=99 id=0xeacc boot=1 calls=93 xerr=0 dm=1 tb=15
[RNG] osc=41 imp=881 imprb=881 mstart=0x40 cfg=91 cfgfail=0x0 vhv=0 vpolls=0
[PRT] calls=65289 xerr=0 ler=1 lidx=0x0 perr=0 maxcnt=17 addr8=0x52
[RTY] wr=0 wmax=0 wref=0  rd=0 rmax=0 rref=0
[RNG] frames=16295 last=43 min=12 max=159 nrdy=0 dxfer=0 dstat=0 lst=0 nrdyerr=0 dclr=0
[DRV] init=0 id=7 mode=0x1 lib=0x2 seq=0x1 odc=0x8b sts=0xe0 armed=1
[TRG] pulses=196 suppressed=81 cyc=1600 rst=1 rstmode=0x40
[HLT] polls=325 faults=0x0 cfglost=0
[EFF] n=5 last=58555 min=58548 max=58555 late=0 stuck=0 rderr=0
[IMU] init=0 addr=0x68 who=0x68 rst=1 pmrb0=0x40 pmrb=0x1 sr=19 cfg=4 gcfg=0x0 acfg=0x8 icfg=0x30 ien=0x1 armed=1
[ACC] reads=16295 stale=16278 rderr=1 ax=55 ay=-22 az=1123
[PWR] pm=0x1 drift=0 rderr=0
[DWT] ok=1 cyc=585772242 cyc_per_ms=800123
[HB] up_ms=361630 frames=16342 inf=16342 hazard=278 canary_err=0 q=0 qovr=0
[I2C] init=0 gate=0 whoami=0x140e0 wr=0 wrseen=0x27 addr=0x5a ok=101437 err=1 tmo=0 recov=0 pclk1=200000000 sysclk=400000000
[NAK] nacks=1
[CLK] cpu=800000000 sysb=400000000 pclk1=200000000
[TOF] res=0 step=0 id=0xeacc blk=0xeacc10 ctl=0x0
[RNG] init=0 step=99 id=0xeacc boot=1 calls=93 xerr=0 dm=1 tb=15
[RNG] osc=41 imp=881 imprb=881 mstart=0x40 cfg=91 cfgfail=0x0 vhv=0 vpolls=0
[PRT] calls=65489 xerr=0 ler=1 lidx=0x0 perr=0 maxcnt=17 addr8=0x52
[RTY] wr=0 wmax=0 wref=0  rd=0 rmax=0 rref=0
[RNG] frames=16345 last=50 min=12 max=159 nrdy=0 dxfer=0 dstat=0 lst=0 nrdyerr=0 dclr=0
[DRV] init=0 id=7 mode=0x1 lib=0x2 seq=0x1 odc=0x8b sts=0xe0 armed=1
[TRG] pulses=197 suppressed=81 cyc=1600 rst=1 rstmode=0x40
[HLT] polls=326 faults=0x0 cfglost=0
[EFF] n=5 last=58555 min=58548 max=58555 late=0 stuck=0 rderr=0
[IMU] init=0 addr=0x68 who=0x68 rst=1 pmrb0=0x40 pmrb=0x1 sr=19 cfg=4 gcfg=0x0 acfg=0x8 icfg=0x30 ien=0x1 armed=1
[ACC] reads=16345 stale=16328 rderr=1 ax=53 ay=-20 az=1121
[PWR] pm=0x1 drift=0 rderr=0
[DWT] ok=1 cyc=1467373118 cyc_per_ms=800000
[HB] up_ms=362732 frames=16392 inf=16392 hazard=278 canary_err=0 q=0 qovr=0
[I2C] init=0 gate=0 whoami=0x140e0 wr=0 wrseen=0x27 addr=0x5a ok=101735 err=1 tmo=0 recov=0 pclk1=200000000 sysclk=400000000
[NAK] nacks=1
[CLK] cpu=800000000 sysb=400000000 pclk1=200000000
[TOF] res=0 step=0 id=0xeacc blk=0xeacc10 ctl=0x0
[RNG] init=0 step=99 id=0xeacc boot=1 calls=93 xerr=0 dm=1 tb=15
[RNG] osc=41 imp=881 imprb=881 mstart=0x40 cfg=91 cfgfail=0x0 vhv=0 vpolls=0
[PRT] calls=65689 xerr=0 ler=1 lidx=0x0 perr=0 maxcnt=17 addr8=0x52
[RTY] wr=0 wmax=0 wref=0  rd=0 rmax=0 rref=0
[RNG] frames=16394 last=47 min=12 max=159 nrdy=0 dxfer=0 dstat=0 lst=0 nrdyerr=0 dclr=0
[DRV] init=0 id=7 mode=0x1 lib=0x2 seq=0x1 odc=0x8b sts=0xe0 armed=1
[TRG] pulses=197 suppressed=81 cyc=1600 rst=1 rstmode=0x40
[HLT] polls=327 faults=0x0 cfglost=0
[EFF] n=5 last=58555 min=58548 max=58555 late=0 stuck=0 rderr=0
[IMU] init=0 addr=0x68 who=0x68 rst=1 pmrb0=0x40 pmrb=0x1 sr=19 cfg=4 gcfg=0x0 acfg=0x8 icfg=0x30 ien=0x1 armed=1
[ACC] reads=16395 stale=16378 rderr=1 ax=54 ay=-19 az=1124
[PWR] pm=0x1 drift=0 rderr=0
[DWT] ok=1 cyc=2348836522 cyc_per_ms=799876
[HB] up_ms=363834 frames=16442 inf=16442 hazard=280 canary_err=0 q=0 qovr=0
[I2C] init=0 gate=0 whoami=0x140e0 wr=0 wrseen=0x27 addr=0x5a ok=102035 err=1 tmo=0 recov=0 pclk1=200000000 sysclk=400000000
[NAK] nacks=1
[CLK] cpu=800000000 sysb=400000000 pclk1=200000000
[TOF] res=0 step=0 id=0xeacc blk=0xeacc10 ctl=0x0
[RNG] init=0 step=99 id=0xeacc boot=1 calls=93 xerr=0 dm=1 tb=15
[RNG] osc=41 imp=881 imprb=881 mstart=0x40 cfg=91 cfgfail=0x0 vhv=0 vpolls=0
[PRT] calls=65889 xerr=0 ler=1 lidx=0x0 perr=0 maxcnt=17 addr8=0x52
[RTY] wr=0 wmax=0 wref=0  rd=0 rmax=0 rref=0
[RNG] frames=16444 last=42 min=12 max=159 nrdy=0 dxfer=0 dstat=0 lst=0 nrdyerr=0 dclr=0
[DRV] init=0 id=7 mode=0x1 lib=0x2 seq=0x1 odc=0x8b sts=0xe0 armed=1
[TRG] pulses=199 suppressed=81 cyc=1600 rst=1 rstmode=0x40
[HLT] polls=328 faults=0x0 cfglost=0
[EFF] n=5 last=58555 min=58548 max=58555 late=0 stuck=0 rderr=0
[IMU] init=0 addr=0x68 who=0x68 rst=1 pmrb0=0x40 pmrb=0x1 sr=19 cfg=4 gcfg=0x0 acfg=0x8 icfg=0x30 ien=0x1 armed=1
[ACC] reads=16445 stale=16428 rderr=1 ax=58 ay=-22 az=1119
[PWR] pm=0x1 drift=0 rderr=0
[DWT] ok=1 cyc=3230436582 cyc_per_ms=800000
[HB] up_ms=364936 frames=16492 inf=16492 hazard=280 canary_err=0 q=0 qovr=0
[I2C] init=0 gate=0 whoami=0x140e0 wr=0 wrseen=0x27 addr=0x5a ok=102337 err=1 tmo=0 recov=0 pclk1=200000000 sysclk=400000000
[NAK] nacks=1
[CLK] cpu=800000000 sysb=400000000 pclk1=200000000
[TOF] res=0 step=0 id=0xeacc blk=0xeacc10 ctl=0x0
[RNG] init=0 step=99 id=0xeacc boot=1 calls=93 xerr=0 dm=1 tb=15
[RNG] osc=41 imp=881 imprb=881 mstart=0x40 cfg=91 cfgfail=0x0 vhv=0 vpolls=0
[PRT] calls=66089 xerr=0 ler=1 lidx=0x0 perr=0 maxcnt=17 addr8=0x52
[RTY] wr=0 wmax=0 wref=0  rd=0 rmax=0 rref=0
[RNG] frames=16494 last=42 min=12 max=159 nrdy=0 dxfer=0 dstat=0 lst=0 nrdyerr=0 dclr=0
[DRV] init=0 id=7 mode=0x1 lib=0x2 seq=0x1 odc=0x8b sts=0xe0 armed=1
[TRG] pulses=199 suppressed=81 cyc=1600 rst=1 rstmode=0x40
[HLT] polls=329 faults=0x0 cfglost=0
[EFF] n=5 last=58555 min=58548 max=58555 late=0 stuck=0 rderr=0
[IMU] init=0 addr=0x68 who=0x68 rst=1 pmrb0=0x40 pmrb=0x1 sr=19 cfg=4 gcfg=0x0 acfg=0x8 icfg=0x30 ien=0x1 armed=1
[ACC] reads=16495 stale=16478 rderr=1 ax=56 ay=-19 az=1125
[PWR] pm=0x1 drift=0 rderr=0
[DWT] ok=1 cyc=4112036530 cyc_per_ms=799999
[HB] up_ms=366038 frames=16542 inf=16542 hazard=282 canary_err=0 q=0 qovr=0
[I2C] init=0 gate=0 whoami=0x140e0 wr=0 wrseen=0x27 addr=0x5a ok=102639 err=1 tmo=0 recov=0 pclk1=200000000 sysclk=400000000
[NAK] nacks=1
[CLK] cpu=800000000 sysb=400000000 pclk1=200000000
[TOF] res=0 step=0 id=0xeacc blk=0xeacc10 ctl=0x0
[RNG] init=0 step=99 id=0xeacc boot=1 calls=93 xerr=0 dm=1 tb=15
[RNG] osc=41 imp=881 imprb=881 mstart=0x40 cfg=91 cfgfail=0x0 vhv=0 vpolls=0
[PRT] calls=66289 xerr=0 ler=1 lidx=0x0 perr=0 maxcnt=17 addr8=0x52
[RTY] wr=0 wmax=0 wref=0  rd=0 rmax=0 rref=0
[RNG] frames=16544 last=39 min=12 max=159 nrdy=0 dxfer=0 dstat=0 lst=0 nrdyerr=0 dclr=0
[DRV] init=0 id=7 mode=0x1 lib=0x2 seq=0x1 odc=0x8b sts=0xe0 armed=1
[TRG] pulses=200 suppressed=82 cyc=1600 rst=1 rstmode=0x40
[HLT] polls=330 faults=0x0 cfglost=0
[EFF] n=5 last=58555 min=58548 max=58555 late=0 stuck=0 rderr=0
[IMU] init=0 addr=0x68 who=0x68 rst=1 pmrb0=0x40 pmrb=0x1 sr=19 cfg=4 gcfg=0x0 acfg=0x8 icfg=0x30 ien=0x1 armed=1
[ACC] reads=16545 stale=16528 rderr=1 ax=54 ay=-20 az=1122
[PWR] pm=0x1 drift=0 rderr=0
[DWT] ok=1 cyc=698669130 cyc_per_ms=799999
[HB] up_ms=367140 frames=16592 inf=16592 hazard=282 canary_err=0 q=0 qovr=0
[I2C] init=0 gate=0 whoami=0x140e0 wr=0 wrseen=0x27 addr=0x5a ok=102941 err=1 tmo=0 recov=0 pclk1=200000000 sysclk=400000000
[NAK] nacks=1
[CLK] cpu=800000000 sysb=400000000 pclk1=200000000
[TOF] res=0 step=0 id=0xeacc blk=0xeacc10 ctl=0x0
[RNG] init=0 step=99 id=0xeacc boot=1 calls=93 xerr=0 dm=1 tb=15
[RNG] osc=41 imp=881 imprb=881 mstart=0x40 cfg=91 cfgfail=0x0 vhv=0 vpolls=0
[PRT] calls=66489 xerr=0 ler=1 lidx=0x0 perr=0 maxcnt=17 addr8=0x52
[RTY] wr=0 wmax=0 wref=0  rd=0 rmax=0 rref=0
[RNG] frames=16594 last=41 min=12 max=159 nrdy=0 dxfer=0 dstat=0 lst=0 nrdyerr=0 dclr=0
[DRV] init=0 id=7 mode=0x1 lib=0x2 seq=0x1 odc=0x8b sts=0xe0 armed=1
[TRG] pulses=200 suppressed=82 cyc=1600 rst=1 rstmode=0x40
[HLT] polls=331 faults=0x0 cfglost=0
[EFF] n=5 last=58555 min=58548 max=58555 late=0 stuck=0 rderr=0
[IMU] init=0 addr=0x68 who=0x68 rst=1 pmrb0=0x40 pmrb=0x1 sr=19 cfg=4 gcfg=0x0 acfg=0x8 icfg=0x30 ien=0x1 armed=1
[ACC] reads=16595 stale=16578 rderr=1 ax=55 ay=-18 az=1123
[PWR] pm=0x1 drift=0 rderr=0
[DWT] ok=1 cyc=1580269222 cyc_per_ms=800000
[HB] up_ms=368242 frames=16642 inf=16642 hazard=282 canary_err=0 q=0 qovr=0
[I2C] init=0 gate=0 whoami=0x140e0 wr=0 wrseen=0x27 addr=0x5a ok=103243 err=1 tmo=0 recov=0 pclk1=200000000 sysclk=400000000
[NAK] nacks=1
[CLK] cpu=800000000 sysb=400000000 pclk1=200000000
[TOF] res=0 step=0 id=0xeacc blk=0xeacc10 ctl=0x0
[RNG] init=0 step=99 id=0xeacc boot=1 calls=93 xerr=0 dm=1 tb=15
[RNG] osc=41 imp=881 imprb=881 mstart=0x40 cfg=91 cfgfail=0x0 vhv=0 vpolls=0
[PRT] calls=66688 xerr=0 ler=1 lidx=0x0 perr=0 maxcnt=17 addr8=0x52
[RTY] wr=0 wmax=0 wref=0  rd=0 rmax=0 rref=0
[RNG] frames=16644 last=45 min=12 max=159 nrdy=0 dxfer=0 dstat=0 lst=0 nrdyerr=0 dclr=0
[DRV] init=0 id=7 mode=0x1 lib=0x2 seq=0x1 odc=0x8b sts=0xe0 armed=1
[TRG] pulses=200 suppressed=82 cyc=1600 rst=1 rstmode=0x40
[HLT] polls=332 faults=0x0 cfglost=0
[EFF] n=5 last=58555 min=58548 max=58555 late=0 stuck=0 rderr=0
[IMU] init=0 addr=0x68 who=0x68 rst=1 pmrb0=0x40 pmrb=0x1 sr=19 cfg=4 gcfg=0x0 acfg=0x8 icfg=0x30 ien=0x1 armed=1
[ACC] reads=16645 stale=16628 rderr=1 ax=55 ay=-18 az=1121
[PWR] pm=0x1 drift=0 rderr=0
[DWT] ok=1 cyc=2461869046 cyc_per_ms=799999
[HB] up_ms=369344 frames=16692 inf=16692 hazard=284 canary_err=0 q=0 qovr=0
[I2C] init=0 gate=0 whoami=0x140e0 wr=0 wrseen=0x27 addr=0x5a ok=103545 err=1 tmo=0 recov=0 pclk1=200000000 sysclk=400000000
[NAK] nacks=1
[CLK] cpu=800000000 sysb=400000000 pclk1=200000000
[TOF] res=0 step=0 id=0xeacc blk=0xeacc10 ctl=0x0
[RNG] init=0 step=99 id=0xeacc boot=1 calls=93 xerr=0 dm=1 tb=15
[RNG] osc=41 imp=881 imprb=881 mstart=0x40 cfg=91 cfgfail=0x0 vhv=0 vpolls=0
[PRT] calls=66885 xerr=0 ler=1 lidx=0x0 perr=0 maxcnt=17 addr8=0x52
[RTY] wr=0 wmax=0 wref=0  rd=0 rmax=0 rref=0
[RNG] frames=16694 last=43 min=12 max=159 nrdy=0 dxfer=0 dstat=0 lst=0 nrdyerr=0 dclr=0
[DRV] init=0 id=7 mode=0x1 lib=0x2 seq=0x1 odc=0x8b sts=0xe0 armed=1
[TRG] pulses=201 suppressed=83 cyc=1600 rst=1 rstmode=0x40
[HLT] polls=333 faults=0x0 cfglost=0
[EFF] n=5 last=58555 min=58548 max=58555 late=0 stuck=0 rderr=0
[IMU] init=0 addr=0x68 who=0x68 rst=1 pmrb0=0x40 pmrb=0x1 sr=19 cfg=4 gcfg=0x0 acfg=0x8 icfg=0x30 ien=0x1 armed=1
[ACC] reads=16694 stale=16678 rderr=1 ax=53 ay=-21 az=1122
[PWR] pm=0x1 drift=0 rderr=0
[DWT] ok=1 cyc=3343469114 cyc_per_ms=800000
[HB] up_ms=370446 frames=16741 inf=16741 hazard=285 canary_err=0 q=0 qovr=0
[I2C] init=0 gate=0 whoami=0x140e0 wr=0 wrseen=0x27 addr=0x5a ok=103847 err=1 tmo=0 recov=0 pclk1=200000000 sysclk=400000000
[NAK] nacks=1
[CLK] cpu=800000000 sysb=400000000 pclk1=200000000
[TOF] res=0 step=0 id=0xeacc blk=0xeacc10 ctl=0x0
[RNG] init=0 step=99 id=0xeacc boot=1 calls=93 xerr=0 dm=1 tb=15
[RNG] osc=41 imp=881 imprb=881 mstart=0x40 cfg=91 cfgfail=0x0 vhv=0 vpolls=0
[PRT] calls=67085 xerr=0 ler=1 lidx=0x0 perr=0 maxcnt=17 addr8=0x52
[RTY] wr=0 wmax=0 wref=0  rd=0 rmax=0 rref=0
[RNG] frames=16744 last=50 min=12 max=159 nrdy=0 dxfer=0 dstat=0 lst=0 nrdyerr=0 dclr=0
[DRV] init=0 id=7 mode=0x1 lib=0x2 seq=0x1 odc=0x8b sts=0xe0 armed=1
[TRG] pulses=202 suppressed=83 cyc=1600 rst=1 rstmode=0x40
[HLT] polls=334 faults=0x0 cfglost=0
[EFF] n=5 last=58555 min=58548 max=58555 late=0 stuck=0 rderr=0
[IMU] init=0 addr=0x68 who=0x68 rst=1 pmrb0=0x40 pmrb=0x1 sr=19 cfg=4 gcfg=0x0 acfg=0x8 icfg=0x30 ien=0x1 armed=1
[ACC] reads=16744 stale=16727 rderr=1 ax=55 ay=-20 az=1122
[PWR] pm=0x1 drift=0 rderr=0
[DWT] ok=1 cyc=4225109758 cyc_per_ms=800036
[HB] up_ms=371548 frames=16791 inf=16791 hazard=285 canary_err=0 q=0 qovr=0
[I2C] init=0 gate=0 whoami=0x140e0 wr=0 wrseen=0x27 addr=0x5a ok=104149 err=1 tmo=0 recov=0 pclk1=200000000 sysclk=400000000
[NAK] nacks=1
[CLK] cpu=800000000 sysb=400000000 pclk1=200000000
[TOF] res=0 step=0 id=0xeacc blk=0xeacc10 ctl=0x0
[RNG] init=0 step=99 id=0xeacc boot=1 calls=93 xerr=0 dm=1 tb=15
[RNG] osc=41 imp=881 imprb=881 mstart=0x40 cfg=91 cfgfail=0x0 vhv=0 vpolls=0
[PRT] calls=67285 xerr=0 ler=1 lidx=0x0 perr=0 maxcnt=17 addr8=0x52
[RTY] wr=0 wmax=0 wref=0  rd=0 rmax=0 rref=0
[RNG] frames=16794 last=48 min=12 max=159 nrdy=0 dxfer=0 dstat=0 lst=0 nrdyerr=0 dclr=0
[DRV] init=0 id=7 mode=0x1 lib=0x2 seq=0x1 odc=0x8b sts=0xe0 armed=1
[TRG] pulses=202 suppressed=83 cyc=1600 rst=1 rstmode=0x40
[HLT] polls=335 faults=0x0 cfglost=0
[EFF] n=5 last=58555 min=58548 max=58555 late=0 stuck=0 rderr=0
[IMU] init=0 addr=0x68 who=0x68 rst=1 pmrb0=0x40 pmrb=0x1 sr=19 cfg=4 gcfg=0x0 acfg=0x8 icfg=0x30 ien=0x1 armed=1
[ACC] reads=16794 stale=16777 rderr=1 ax=55 ay=-22 az=1127
[PWR] pm=0x1 drift=0 rderr=0
[DWT] ok=1 cyc=811838494 cyc_per_ms=800087
[HB] up_ms=372650 frames=16841 inf=16841 hazard=286 canary_err=0 q=0 qovr=0
[I2C] init=0 gate=0 whoami=0x140e0 wr=0 wrseen=0x27 addr=0x5a ok=104451 err=1 tmo=0 recov=0 pclk1=200000000 sysclk=400000000
[NAK] nacks=1
[CLK] cpu=800000000 sysb=400000000 pclk1=200000000
[TOF] res=0 step=0 id=0xeacc blk=0xeacc10 ctl=0x0
[RNG] init=0 step=99 id=0xeacc boot=1 calls=93 xerr=0 dm=1 tb=15
[RNG] osc=41 imp=881 imprb=881 mstart=0x40 cfg=91 cfgfail=0x0 vhv=0 vpolls=0
[PRT] calls=67485 xerr=0 ler=1 lidx=0x0 perr=0 maxcnt=17 addr8=0x52
[RTY] wr=0 wmax=0 wref=0  rd=0 rmax=0 rref=0
[RNG] frames=16843 last=45 min=12 max=159 nrdy=0 dxfer=0 dstat=0 lst=0 nrdyerr=0 dclr=0
[DRV] init=0 id=7 mode=0x1 lib=0x2 seq=0x1 odc=0x8b sts=0xe0 armed=1
[TRG] pulses=203 suppressed=83 cyc=1600 rst=1 rstmode=0x40
[HLT] polls=336 faults=0x0 cfglost=0
[EFF] n=5 last=58555 min=58548 max=58555 late=0 stuck=0 rderr=0
[IMU] init=0 addr=0x68 who=0x68 rst=1 pmrb0=0x40 pmrb=0x1 sr=19 cfg=4 gcfg=0x0 acfg=0x8 icfg=0x30 ien=0x1 armed=1
[ACC] reads=16844 stale=16827 rderr=1 ax=50 ay=-21 az=1123
[PWR] pm=0x1 drift=0 rderr=0
[DWT] ok=1 cyc=1693414206 cyc_per_ms=799977
[HB] up_ms=373752 frames=16891 inf=16891 hazard=286 canary_err=0 q=0 qovr=0
[I2C] init=0 gate=0 whoami=0x140e0 wr=0 wrseen=0x27 addr=0x5a ok=104747 err=1 tmo=0 recov=0 pclk1=200000000 sysclk=400000000
[NAK] nacks=1
[CLK] cpu=800000000 sysb=400000000 pclk1=200000000
[TOF] res=0 step=0 id=0xeacc blk=0xeacc10 ctl=0x0
[RNG] init=0 step=99 id=0xeacc boot=1 calls=93 xerr=0 dm=1 tb=15
[RNG] osc=41 imp=881 imprb=881 mstart=0x40 cfg=91 cfgfail=0x0 vhv=0 vpolls=0
[PRT] calls=67685 xerr=0 ler=1 lidx=0x0 perr=0 maxcnt=17 addr8=0x52
[RTY] wr=0 wmax=0 wref=0  rd=0 rmax=0 rref=0
[RNG] frames=16893 last=49 min=12 max=159 nrdy=0 dxfer=0 dstat=0 lst=0 nrdyerr=0 dclr=0
[DRV] init=0 id=7 mode=0x1 lib=0x2 seq=0x1 odc=0x8b sts=0xe0 armed=1
[TRG] pulses=203 suppressed=83 cyc=1600 rst=1 rstmode=0x40
[HLT] polls=337 faults=0x0 cfglost=0
[EFF] n=5 last=58555 min=58548 max=58555 late=0 stuck=0 rderr=0
[IMU] init=0 addr=0x68 who=0x68 rst=1 pmrb0=0x40 pmrb=0x1 sr=19 cfg=4 gcfg=0x0 acfg=0x8 icfg=0x30 ien=0x1 armed=1
[ACC] reads=16894 stale=16876 rderr=1 ax=50 ay=-20 az=1122
[PWR] pm=0x1 drift=0 rderr=0
[DWT] ok=1 cyc=2574901810 cyc_per_ms=799898
[HB] up_ms=374854 frames=16941 inf=16941 hazard=286 canary_err=0 q=0 qovr=0
[I2C] init=0 gate=0 whoami=0x140e0 wr=0 wrseen=0x27 addr=0x5a ok=105049 err=1 tmo=0 recov=0 pclk1=200000000 sysclk=400000000
[NAK] nacks=1
[CLK] cpu=800000000 sysb=400000000 pclk1=200000000
[TOF] res=0 step=0 id=0xeacc blk=0xeacc10 ctl=0x0
[RNG] init=0 step=99 id=0xeacc boot=1 calls=93 xerr=0 dm=1 tb=15
[RNG] osc=41 imp=881 imprb=881 mstart=0x40 cfg=91 cfgfail=0x0 vhv=0 vpolls=0
[PRT] calls=67885 xerr=0 ler=1 lidx=0x0 perr=0 maxcnt=17 addr8=0x52
[RTY] wr=0 wmax=0 wref=0  rd=0 rmax=0 rref=0
[RNG] frames=16943 last=34 min=12 max=159 nrdy=0 dxfer=0 dstat=0 lst=0 nrdyerr=0 dclr=0
[DRV] init=0 id=7 mode=0x1 lib=0x2 seq=0x1 odc=0x8b sts=0xe0 armed=1
[TRG] pulses=203 suppressed=83 cyc=1600 rst=1 rstmode=0x40
[HLT] polls=338 faults=0x0 cfglost=0
[EFF] n=5 last=58555 min=58548 max=58555 late=0 stuck=0 rderr=0
[IMU] init=0 addr=0x68 who=0x68 rst=1 pmrb0=0x40 pmrb=0x1 sr=19 cfg=4 gcfg=0x0 acfg=0x8 icfg=0x30 ien=0x1 armed=1
[ACC] reads=16944 stale=16926 rderr=1 ax=53 ay=-22 az=1125
[PWR] pm=0x1 drift=0 rderr=0
[DWT] ok=1 cyc=3456501778 cyc_per_ms=799999
[HB] up_ms=375956 frames=16991 inf=16991 hazard=286 canary_err=0 q=0 qovr=0
[I2C] init=0 gate=0 whoami=0x140e0 wr=0 wrseen=0x27 addr=0x5a ok=105351 err=1 tmo=0 recov=0 pclk1=200000000 sysclk=400000000
[NAK] nacks=1
[CLK] cpu=800000000 sysb=400000000 pclk1=200000000
[TOF] res=0 step=0 id=0xeacc blk=0xeacc10 ctl=0x0
[RNG] init=0 step=99 id=0xeacc boot=1 calls=93 xerr=0 dm=1 tb=15
[RNG] osc=41 imp=881 imprb=881 mstart=0x40 cfg=91 cfgfail=0x0 vhv=0 vpolls=0
[PRT] calls=68085 xerr=0 ler=1 lidx=0x0 perr=0 maxcnt=17 addr8=0x52
[RTY] wr=0 wmax=0 wref=0  rd=0 rmax=0 rref=0
[RNG] frames=16993 last=31 min=12 max=159 nrdy=0 dxfer=0 dstat=0 lst=0 nrdyerr=0 dclr=0
[DRV] init=0 id=7 mode=0x1 lib=0x2 seq=0x1 odc=0x8b sts=0xe0 armed=1
[TRG] pulses=203 suppressed=83 cyc=1600 rst=1 rstmode=0x40
[HLT] polls=339 faults=0x0 cfglost=0
[EFF] n=5 last=58555 min=58548 max=58555 late=0 stuck=0 rderr=0
[IMU] init=0 addr=0x68 who=0x68 rst=1 pmrb0=0x40 pmrb=0x1 sr=19 cfg=4 gcfg=0x0 acfg=0x8 icfg=0x30 ien=0x1 armed=1
[ACC] reads=16994 stale=16976 rderr=1 ax=55 ay=-20 az=1120
[PWR] pm=0x1 drift=0 rderr=0
[DWT] ok=1 cyc=43134502 cyc_per_ms=800000
[HB] up_ms=377058 frames=17041 inf=17041 hazard=287 canary_err=0 q=0 qovr=0
[I2C] init=0 gate=0 whoami=0x140e0 wr=0 wrseen=0x27 addr=0x5a ok=105653 err=1 tmo=0 recov=0 pclk1=200000000 sysclk=400000000
[NAK] nacks=1
[CLK] cpu=800000000 sysb=400000000 pclk1=200000000
[TOF] res=0 step=0 id=0xeacc blk=0xeacc10 ctl=0x0
[RNG] init=0 step=99 id=0xeacc boot=1 calls=93 xerr=0 dm=1 tb=15
[RNG] osc=41 imp=881 imprb=881 mstart=0x40 cfg=91 cfgfail=0x0 vhv=0 vpolls=0
[PRT] calls=68285 xerr=0 ler=1 lidx=0x0 perr=0 maxcnt=17 addr8=0x52
[RTY] wr=0 wmax=0 wref=0  rd=0 rmax=0 rref=0
[RNG] frames=17043 last=45 min=12 max=159 nrdy=0 dxfer=0 dstat=0 lst=0 nrdyerr=0 dclr=0
[DRV] init=0 id=7 mode=0x1 lib=0x2 seq=0x1 odc=0x8b sts=0xe0 armed=1
[TRG] pulses=204 suppressed=83 cyc=1600 rst=1 rstmode=0x40
[HLT] polls=340 faults=0x0 cfglost=0
[EFF] n=5 last=58555 min=58548 max=58555 late=0 stuck=0 rderr=0
[IMU] init=0 addr=0x68 who=0x68 rst=1 pmrb0=0x40 pmrb=0x1 sr=19 cfg=4 gcfg=0x0 acfg=0x8 icfg=0x30 ien=0x1 armed=1
[ACC] reads=17044 stale=17026 rderr=1 ax=54 ay=-20 az=1122
[PWR] pm=0x1 drift=0 rderr=0
[DWT] ok=1 cyc=924734526 cyc_per_ms=800000
[HB] up_ms=378160 frames=17091 inf=17091 hazard=288 canary_err=0 q=0 qovr=0
[I2C] init=0 gate=0 whoami=0x140e0 wr=0 wrseen=0x27 addr=0x5a ok=105955 err=1 tmo=0 recov=0 pclk1=200000000 sysclk=400000000
[NAK] nacks=1
[CLK] cpu=800000000 sysb=400000000 pclk1=200000000
[TOF] res=0 step=0 id=0xeacc blk=0xeacc10 ctl=0x0
[RNG] init=0 step=99 id=0xeacc boot=1 calls=93 xerr=0 dm=1 tb=15
[RNG] osc=41 imp=881 imprb=881 mstart=0x40 cfg=91 cfgfail=0x0 vhv=0 vpolls=0
[PRT] calls=68485 xerr=0 ler=1 lidx=0x0 perr=0 maxcnt=17 addr8=0x52
[RTY] wr=0 wmax=0 wref=0  rd=0 rmax=0 rref=0
[RNG] frames=17093 last=41 min=12 max=159 nrdy=0 dxfer=0 dstat=0 lst=0 nrdyerr=0 dclr=0
[DRV] init=0 id=7 mode=0x1 lib=0x2 seq=0x1 odc=0x8b sts=0xe0 armed=1
[TRG] pulses=206 suppressed=83 cyc=1600 rst=1 rstmode=0x40
[HLT] polls=341 faults=0x0 cfglost=0
[EFF] n=5 last=58555 min=58548 max=58555 late=0 stuck=0 rderr=0
[IMU] init=0 addr=0x68 who=0x68 rst=1 pmrb0=0x40 pmrb=0x1 sr=19 cfg=4 gcfg=0x0 acfg=0x8 icfg=0x30 ien=0x1 armed=1
[ACC] reads=17094 stale=17076 rderr=1 ax=54 ay=-19 az=1123
[PWR] pm=0x1 drift=0 rderr=0
[DWT] ok=1 cyc=1806338118 cyc_per_ms=800003
[HB] up_ms=379262 frames=17141 inf=17141 hazard=291 canary_err=0 q=0 qovr=0
[I2C] init=0 gate=0 whoami=0x140e0 wr=0 wrseen=0x27 addr=0x5a ok=106257 err=1 tmo=0 recov=0 pclk1=200000000 sysclk=400000000
[NAK] nacks=1
[CLK] cpu=800000000 sysb=400000000 pclk1=200000000
[TOF] res=0 step=0 id=0xeacc blk=0xeacc10 ctl=0x0
[RNG] init=0 step=99 id=0xeacc boot=1 calls=93 xerr=0 dm=1 tb=15
[RNG] osc=41 imp=881 imprb=881 mstart=0x40 cfg=91 cfgfail=0x0 vhv=0 vpolls=0
[PRT] calls=68681 xerr=0 ler=1 lidx=0x0 perr=0 maxcnt=17 addr8=0x52
[RTY] wr=0 wmax=0 wref=0  rd=0 rmax=0 rref=0
[RNG] frames=17143 last=41 min=12 max=159 nrdy=0 dxfer=0 dstat=0 lst=0 nrdyerr=0 dclr=0
[DRV] init=0 id=7 mode=0x1 lib=0x2 seq=0x1 odc=0x8b sts=0xe0 armed=1
[TRG] pulses=207 suppressed=84 cyc=1600 rst=1 rstmode=0x40
[HLT] polls=342 faults=0x0 cfglost=0
[EFF] n=5 last=58555 min=58548 max=58555 late=0 stuck=0 rderr=0
[IMU] init=0 addr=0x68 who=0x68 rst=1 pmrb0=0x40 pmrb=0x1 sr=19 cfg=4 gcfg=0x0 acfg=0x8 icfg=0x30 ien=0x1 armed=1
[ACC] reads=17144 stale=17126 rderr=1 ax=56 ay=-21 az=1122
[PWR] pm=0x1 drift=0 rderr=0
[DWT] ok=1 cyc=2687934530 cyc_per_ms=799996
[HB] up_ms=380364 frames=17191 inf=17191 hazard=292 canary_err=0 q=0 qovr=0
[I2C] init=0 gate=0 whoami=0x140e0 wr=0 wrseen=0x27 addr=0x5a ok=106559 err=1 tmo=0 recov=0 pclk1=200000000 sysclk=400000000
[NAK] nacks=1
[CLK] cpu=800000000 sysb=400000000 pclk1=200000000
[TOF] res=0 step=0 id=0xeacc blk=0xeacc10 ctl=0x0
[RNG] init=0 step=99 id=0xeacc boot=1 calls=93 xerr=0 dm=1 tb=15
[RNG] osc=41 imp=881 imprb=881 mstart=0x40 cfg=91 cfgfail=0x0 vhv=0 vpolls=0
[PRT] calls=68881 xerr=0 ler=1 lidx=0x0 perr=0 maxcnt=17 addr8=0x52
[RTY] wr=0 wmax=0 wref=0  rd=0 rmax=0 rref=0
[RNG] frames=17193 last=41 min=12 max=159 nrdy=0 dxfer=0 dstat=0 lst=0 nrdyerr=0 dclr=0
[DRV] init=0 id=7 mode=0x1 lib=0x2 seq=0x1 odc=0x8b sts=0xe0 armed=1
[TRG] pulses=208 suppressed=84 cyc=1600 rst=1 rstmode=0x40
[HLT] polls=343 faults=0x0 cfglost=0
[EFF] n=5 last=58555 min=58548 max=58555 late=0 stuck=0 rderr=0
[IMU] init=0 addr=0x68 who=0x68 rst=1 pmrb0=0x40 pmrb=0x1 sr=19 cfg=4 gcfg=0x0 acfg=0x8 icfg=0x30 ien=0x1 armed=1
[ACC] reads=17193 stale=17175 rderr=1 ax=58 ay=-19 az=1126
[PWR] pm=0x1 drift=0 rderr=0
[DWT] ok=1 cyc=3569534522 cyc_per_ms=799999
[HB] up_ms=381466 frames=17240 inf=17240 hazard=293 canary_err=0 q=0 qovr=0
[I2C] init=0 gate=0 whoami=0x140e0 wr=0 wrseen=0x27 addr=0x5a ok=106861 err=1 tmo=0 recov=0 pclk1=200000000 sysclk=400000000
[NAK] nacks=1
[CLK] cpu=800000000 sysb=400000000 pclk1=200000000
[TOF] res=0 step=0 id=0xeacc blk=0xeacc10 ctl=0x0
[RNG] init=0 step=99 id=0xeacc boot=1 calls=93 xerr=0 dm=1 tb=15
[RNG] osc=41 imp=881 imprb=881 mstart=0x40 cfg=91 cfgfail=0x0 vhv=0 vpolls=0
[PRT] calls=69081 xerr=0 ler=1 lidx=0x0 perr=0 maxcnt=17 addr8=0x52
[RTY] wr=0 wmax=0 wref=0  rd=0 rmax=0 rref=0
[RNG] frames=17243 last=47 min=12 max=159 nrdy=0 dxfer=0 dstat=0 lst=0 nrdyerr=0 dclr=0
[DRV] init=0 id=7 mode=0x1 lib=0x2 seq=0x1 odc=0x8b sts=0xe0 armed=1
[TRG] pulses=209 suppressed=84 cyc=1600 rst=1 rstmode=0x40
[HLT] polls=344 faults=0x0 cfglost=0
[EFF] n=5 last=58555 min=58548 max=58555 late=0 stuck=0 rderr=0
[IMU] init=0 addr=0x68 who=0x68 rst=1 pmrb0=0x40 pmrb=0x1 sr=19 cfg=4 gcfg=0x0 acfg=0x8 icfg=0x30 ien=0x1 armed=1
[ACC] reads=17243 stale=17225 rderr=1 ax=54 ay=-19 az=1123
[PWR] pm=0x1 drift=0 rderr=0
[DWT] ok=1 cyc=156303098 cyc_per_ms=800123
[HB] up_ms=382568 frames=17290 inf=17290 hazard=295 canary_err=0 q=0 qovr=0
[I2C] init=0 gate=0 whoami=0x140e0 wr=0 wrseen=0x27 addr=0x5a ok=107163 err=1 tmo=0 recov=0 pclk1=200000000 sysclk=400000000
[NAK] nacks=1
[CLK] cpu=800000000 sysb=400000000 pclk1=200000000
[TOF] res=0 step=0 id=0xeacc blk=0xeacc10 ctl=0x0
[RNG] init=0 step=99 id=0xeacc boot=1 calls=93 xerr=0 dm=1 tb=15
[RNG] osc=41 imp=881 imprb=881 mstart=0x40 cfg=91 cfgfail=0x0 vhv=0 vpolls=0
[PRT] calls=69281 xerr=0 ler=1 lidx=0x0 perr=0 maxcnt=17 addr8=0x52
[RTY] wr=0 wmax=0 wref=0  rd=0 rmax=0 rref=0
[RNG] frames=17293 last=37 min=12 max=159 nrdy=0 dxfer=0 dstat=0 lst=0 nrdyerr=0 dclr=0
[DRV] init=0 id=7 mode=0x1 lib=0x2 seq=0x1 odc=0x8b sts=0xe0 armed=1
[TRG] pulses=210 suppressed=85 cyc=1600 rst=1 rstmode=0x40
[HLT] polls=345 faults=0x0 cfglost=0
[EFF] n=5 last=58555 min=58548 max=58555 late=0 stuck=0 rderr=0
[IMU] init=0 addr=0x68 who=0x68 rst=1 pmrb0=0x40 pmrb=0x1 sr=19 cfg=4 gcfg=0x0 acfg=0x8 icfg=0x30 ien=0x1 armed=1
[ACC] reads=17293 stale=17274 rderr=1 ax=55 ay=-19 az=1121
[PWR] pm=0x1 drift=0 rderr=0
[DWT] ok=1 cyc=1037903890 cyc_per_ms=800000
[HB] up_ms=383670 frames=17340 inf=17340 hazard=295 canary_err=0 q=0 qovr=0
[I2C] init=0 gate=0 whoami=0x140e0 wr=0 wrseen=0x27 addr=0x5a ok=107461 err=1 tmo=0 recov=0 pclk1=200000000 sysclk=400000000
[NAK] nacks=1
[CLK] cpu=800000000 sysb=400000000 pclk1=200000000
[TOF] res=0 step=0 id=0xeacc blk=0xeacc10 ctl=0x0
[RNG] init=0 step=99 id=0xeacc boot=1 calls=93 xerr=0 dm=1 tb=15
[RNG] osc=41 imp=881 imprb=881 mstart=0x40 cfg=91 cfgfail=0x0 vhv=0 vpolls=0
[PRT] calls=69481 xerr=0 ler=1 lidx=0x0 perr=0 maxcnt=17 addr8=0x52
[RTY] wr=0 wmax=0 wref=0  rd=0 rmax=0 rref=0
[RNG] frames=17342 last=35 min=12 max=159 nrdy=0 dxfer=0 dstat=0 lst=0 nrdyerr=0 dclr=0
[DRV] init=0 id=7 mode=0x1 lib=0x2 seq=0x1 odc=0x8b sts=0xe0 armed=1
[TRG] pulses=210 suppressed=85 cyc=1600 rst=1 rstmode=0x40
[HLT] polls=346 faults=0x0 cfglost=0
[EFF] n=5 last=58555 min=58548 max=58555 late=0 stuck=0 rderr=0
[IMU] init=0 addr=0x68 who=0x68 rst=1 pmrb0=0x40 pmrb=0x1 sr=19 cfg=4 gcfg=0x0 acfg=0x8 icfg=0x30 ien=0x1 armed=1
[ACC] reads=17343 stale=17324 rderr=1 ax=53 ay=-21 az=1122
[PWR] pm=0x1 drift=0 rderr=0
[DWT] ok=1 cyc=1919367278 cyc_per_ms=799876
[HB] up_ms=384772 frames=17390 inf=17390 hazard=296 canary_err=0 q=0 qovr=0
[I2C] init=0 gate=0 whoami=0x140e0 wr=0 wrseen=0x27 addr=0x5a ok=107761 err=1 tmo=0 recov=0 pclk1=200000000 sysclk=400000000
[NAK] nacks=1
[CLK] cpu=800000000 sysb=400000000 pclk1=200000000
[TOF] res=0 step=0 id=0xeacc blk=0xeacc10 ctl=0x0
[RNG] init=0 step=99 id=0xeacc boot=1 calls=93 xerr=0 dm=1 tb=15
[RNG] osc=41 imp=881 imprb=881 mstart=0x40 cfg=91 cfgfail=0x0 vhv=0 vpolls=0
[PRT] calls=69681 xerr=0 ler=1 lidx=0x0 perr=0 maxcnt=17 addr8=0x52
[RTY] wr=0 wmax=0 wref=0  rd=0 rmax=0 rref=0
[RNG] frames=17392 last=52 min=12 max=159 nrdy=0 dxfer=0 dstat=0 lst=0 nrdyerr=0 dclr=0
[DRV] init=0 id=7 mode=0x1 lib=0x2 seq=0x1 odc=0x8b sts=0xe0 armed=1
[TRG] pulses=211 suppressed=85 cyc=1600 rst=1 rstmode=0x40
[HLT] polls=347 faults=0x0 cfglost=0
[EFF] n=5 last=58555 min=58548 max=58555 late=0 stuck=0 rderr=0
[IMU] init=0 addr=0x68 who=0x68 rst=1 pmrb0=0x40 pmrb=0x1 sr=19 cfg=4 gcfg=0x0 acfg=0x8 icfg=0x30 ien=0x1 armed=1
[ACC] reads=17393 stale=17374 rderr=1 ax=55 ay=-20 az=1122
[PWR] pm=0x1 drift=0 rderr=0
[DWT] ok=1 cyc=2800967378 cyc_per_ms=800000
[HB] up_ms=385874 frames=17440 inf=17440 hazard=299 canary_err=0 q=0 qovr=0
[I2C] init=0 gate=0 whoami=0x140e0 wr=0 wrseen=0x27 addr=0x5a ok=108063 err=1 tmo=0 recov=0 pclk1=200000000 sysclk=400000000
[NAK] nacks=1
[CLK] cpu=800000000 sysb=400000000 pclk1=200000000
[TOF] res=0 step=0 id=0xeacc blk=0xeacc10 ctl=0x0
[RNG] init=0 step=99 id=0xeacc boot=1 calls=93 xerr=0 dm=1 tb=15
[RNG] osc=41 imp=881 imprb=881 mstart=0x40 cfg=91 cfgfail=0x0 vhv=0 vpolls=0
[PRT] calls=69881 xerr=0 ler=1 lidx=0x0 perr=0 maxcnt=17 addr8=0x52
[RTY] wr=0 wmax=0 wref=0  rd=0 rmax=0 rref=0
[RNG] frames=17442 last=30 min=12 max=159 nrdy=0 dxfer=0 dstat=0 lst=0 nrdyerr=0 dclr=0
[DRV] init=0 id=7 mode=0x1 lib=0x2 seq=0x1 odc=0x8b sts=0xe0 armed=1
[TRG] pulses=213 suppressed=86 cyc=1600 rst=1 rstmode=0x40
[HLT] polls=348 faults=0x0 cfglost=0
[EFF] n=5 last=58555 min=58548 max=58555 late=0 stuck=0 rderr=0
[IMU] init=0 addr=0x68 who=0x68 rst=1 pmrb0=0x40 pmrb=0x1 sr=19 cfg=4 gcfg=0x0 acfg=0x8 icfg=0x30 ien=0x1 armed=1
[ACC] reads=17443 stale=17423 rderr=1 ax=56 ay=-21 az=1123
[PWR] pm=0x1 drift=0 rderr=0
[DWT] ok=1 cyc=3682567314 cyc_per_ms=799999
[HB] up_ms=386976 frames=17490 inf=17490 hazard=299 canary_err=0 q=0 qovr=0
[I2C] init=0 gate=0 whoami=0x140e0 wr=0 wrseen=0x27 addr=0x5a ok=108365 err=1 tmo=0 recov=0 pclk1=200000000 sysclk=400000000
[NAK] nacks=1
[CLK] cpu=800000000 sysb=400000000 pclk1=200000000
[TOF] res=0 step=0 id=0xeacc blk=0xeacc10 ctl=0x0
[RNG] init=0 step=99 id=0xeacc boot=1 calls=93 xerr=0 dm=1 tb=15
[RNG] osc=41 imp=881 imprb=881 mstart=0x40 cfg=91 cfgfail=0x0 vhv=0 vpolls=0
[PRT] calls=70081 xerr=0 ler=1 lidx=0x0 perr=0 maxcnt=17 addr8=0x52
[RTY] wr=0 wmax=0 wref=0  rd=0 rmax=0 rref=0
[RNG] frames=17492 last=37 min=12 max=159 nrdy=0 dxfer=0 dstat=0 lst=0 nrdyerr=0 dclr=0
[DRV] init=0 id=7 mode=0x1 lib=0x2 seq=0x1 odc=0x8b sts=0xe0 armed=1
[TRG] pulses=213 suppressed=86 cyc=1600 rst=1 rstmode=0x40
[HLT] polls=349 faults=0x0 cfglost=0
[EFF] n=5 last=58555 min=58548 max=58555 late=0 stuck=0 rderr=0
[IMU] init=0 addr=0x68 who=0x68 rst=1 pmrb0=0x40 pmrb=0x1 sr=19 cfg=4 gcfg=0x0 acfg=0x8 icfg=0x30 ien=0x1 armed=1
[ACC] reads=17493 stale=17473 rderr=1 ax=54 ay=-19 az=1126
[PWR] pm=0x1 drift=0 rderr=0
[DWT] ok=1 cyc=269199934 cyc_per_ms=799999
[HB] up_ms=388078 frames=17540 inf=17540 hazard=302 canary_err=0 q=0 qovr=0
[I2C] init=0 gate=0 whoami=0x140e0 wr=0 wrseen=0x27 addr=0x5a ok=108667 err=1 tmo=0 recov=0 pclk1=200000000 sysclk=400000000
[NAK] nacks=1
[CLK] cpu=800000000 sysb=400000000 pclk1=200000000
[TOF] res=0 step=0 id=0xeacc blk=0xeacc10 ctl=0x0
[RNG] init=0 step=99 id=0xeacc boot=1 calls=93 xerr=0 dm=1 tb=15
[RNG] osc=41 imp=881 imprb=881 mstart=0x40 cfg=91 cfgfail=0x0 vhv=0 vpolls=0
[PRT] calls=70281 xerr=0 ler=1 lidx=0x0 perr=0 maxcnt=17 addr8=0x52
[RTY] wr=0 wmax=0 wref=0  rd=0 rmax=0 rref=0
[RNG] frames=17542 last=35 min=12 max=159 nrdy=0 dxfer=0 dstat=0 lst=0 nrdyerr=0 dclr=0
[DRV] init=0 id=7 mode=0x1 lib=0x2 seq=0x1 odc=0x8b sts=0xe0 armed=1
[TRG] pulses=214 suppressed=88 cyc=1600 rst=1 rstmode=0x40
[HLT] polls=350 faults=0x0 cfglost=0
[EFF] n=5 last=58555 min=58548 max=58555 late=0 stuck=0 rderr=0
[IMU] init=0 addr=0x68 who=0x68 rst=1 pmrb0=0x40 pmrb=0x1 sr=19 cfg=4 gcfg=0x0 acfg=0x8 icfg=0x30 ien=0x1 armed=1
[ACC] reads=17543 stale=17523 rderr=1 ax=55 ay=-20 az=1122
[PWR] pm=0x1 drift=0 rderr=0
[DWT] ok=1 cyc=1150799978 cyc_per_ms=800000
[HB] up_ms=389180 frames=17590 inf=17590 hazard=303 canary_err=0 q=0 qovr=0
[I2C] init=0 gate=0 whoami=0x140e0 wr=0 wrseen=0x27 addr=0x5a ok=108969 err=1 tmo=0 recov=0 pclk1=200000000 sysclk=400000000
[NAK] nacks=1
[CLK] cpu=800000000 sysb=400000000 pclk1=200000000
[TOF] res=0 step=0 id=0xeacc blk=0xeacc10 ctl=0x0
[RNG] init=0 step=99 id=0xeacc boot=1 calls=93 xerr=0 dm=1 tb=15
[RNG] osc=41 imp=881 imprb=881 mstart=0x40 cfg=91 cfgfail=0x0 vhv=0 vpolls=0
[PRT] calls=70480 xerr=0 ler=1 lidx=0x0 perr=0 maxcnt=17 addr8=0x52
[RTY] wr=0 wmax=0 wref=0  rd=0 rmax=0 rref=0
[RNG] frames=17592 last=42 min=12 max=159 nrdy=0 dxfer=0 dstat=0 lst=0 nrdyerr=0 dclr=0
[DRV] init=0 id=7 mode=0x1 lib=0x2 seq=0x1 odc=0x8b sts=0xe0 armed=1
[TRG] pulses=215 suppressed=88 cyc=1600 rst=1 rstmode=0x40
[HLT] polls=351 faults=0x0 cfglost=0
[EFF] n=5 last=58555 min=58548 max=58555 late=0 stuck=0 rderr=0
[IMU] init=0 addr=0x68 who=0x68 rst=1 pmrb0=0x40 pmrb=0x1 sr=19 cfg=4 gcfg=0x0 acfg=0x8 icfg=0x30 ien=0x1 armed=1
[ACC] reads=17593 stale=17573 rderr=1 ax=55 ay=-21 az=1126
[PWR] pm=0x1 drift=0 rderr=0
[DWT] ok=1 cyc=2032399858 cyc_per_ms=799999
[HB] up_ms=390282 frames=17640 inf=17640 hazard=303 canary_err=0 q=0 qovr=0
[I2C] init=0 gate=0 whoami=0x140e0 wr=0 wrseen=0x27 addr=0x5a ok=109271 err=1 tmo=0 recov=0 pclk1=200000000 sysclk=400000000
[NAK] nacks=1
[CLK] cpu=800000000 sysb=400000000 pclk1=200000000
[TOF] res=0 step=0 id=0xeacc blk=0xeacc10 ctl=0x0
[RNG] init=0 step=99 id=0xeacc boot=1 calls=93 xerr=0 dm=1 tb=15
[RNG] osc=41 imp=881 imprb=881 mstart=0x40 cfg=91 cfgfail=0x0 vhv=0 vpolls=0
[PRT] calls=70677 xerr=0 ler=1 lidx=0x0 perr=0 maxcnt=17 addr8=0x52
[RTY] wr=0 wmax=0 wref=0  rd=0 rmax=0 rref=0
[RNG] frames=17642 last=38 min=12 max=159 nrdy=0 dxfer=0 dstat=0 lst=0 nrdyerr=0 dclr=0
[DRV] init=0 id=7 mode=0x1 lib=0x2 seq=0x1 odc=0x8b sts=0xe0 armed=1
[TRG] pulses=215 suppressed=88 cyc=1600 rst=1 rstmode=0x40
[HLT] polls=352 faults=0x0 cfglost=0
[EFF] n=5 last=58555 min=58548 max=58555 late=0 stuck=0 rderr=0
[IMU] init=0 addr=0x68 who=0x68 rst=1 pmrb0=0x40 pmrb=0x1 sr=19 cfg=4 gcfg=0x0 acfg=0x8 icfg=0x30 ien=0x1 armed=1
[ACC] reads=17642 stale=17623 rderr=1 ax=56 ay=-21 az=1124
[PWR] pm=0x1 drift=0 rderr=0
[DWT] ok=1 cyc=2913999926 cyc_per_ms=800000
[HB] up_ms=391384 frames=17689 inf=17689 hazard=303 canary_err=0 q=0 qovr=0
[I2C] init=0 gate=0 whoami=0x140e0 wr=0 wrseen=0x27 addr=0x5a ok=109573 err=1 tmo=0 recov=0 pclk1=200000000 sysclk=400000000
[NAK] nacks=1
[CLK] cpu=800000000 sysb=400000000 pclk1=200000000
[TOF] res=0 step=0 id=0xeacc blk=0xeacc10 ctl=0x0
[RNG] init=0 step=99 id=0xeacc boot=1 calls=93 xerr=0 dm=1 tb=15
[RNG] osc=41 imp=881 imprb=881 mstart=0x40 cfg=91 cfgfail=0x0 vhv=0 vpolls=0
[PRT] calls=70877 xerr=0 ler=1 lidx=0x0 perr=0 maxcnt=17 addr8=0x52
[RTY] wr=0 wmax=0 wref=0  rd=0 rmax=0 rref=0
[RNG] frames=17692 last=40 min=12 max=159 nrdy=0 dxfer=0 dstat=0 lst=0 nrdyerr=0 dclr=0
[DRV] init=0 id=7 mode=0x1 lib=0x2 seq=0x1 odc=0x8b sts=0xe0 armed=1
[TRG] pulses=215 suppressed=88 cyc=1600 rst=1 rstmode=0x40
[HLT] polls=353 faults=0x0 cfglost=0
[EFF] n=5 last=58555 min=58548 max=58555 late=0 stuck=0 rderr=0
[IMU] init=0 addr=0x68 who=0x68 rst=1 pmrb0=0x40 pmrb=0x1 sr=19 cfg=4 gcfg=0x0 acfg=0x8 icfg=0x30 ien=0x1 armed=1
[ACC] reads=17692 stale=17672 rderr=1 ax=55 ay=-20 az=1125
[PWR] pm=0x1 drift=0 rderr=0
[DWT] ok=1 cyc=3795640506 cyc_per_ms=800036
[HB] up_ms=392486 frames=17739 inf=17739 hazard=304 canary_err=0 q=0 qovr=0
[I2C] init=0 gate=0 whoami=0x140e0 wr=0 wrseen=0x27 addr=0x5a ok=109875 err=1 tmo=0 recov=0 pclk1=200000000 sysclk=400000000
[NAK] nacks=1
[CLK] cpu=800000000 sysb=400000000 pclk1=200000000
[TOF] res=0 step=0 id=0xeacc blk=0xeacc10 ctl=0x0
[RNG] init=0 step=99 id=0xeacc boot=1 calls=93 xerr=0 dm=1 tb=15
[RNG] osc=41 imp=881 imprb=881 mstart=0x40 cfg=91 cfgfail=0x0 vhv=0 vpolls=0
[PRT] calls=71077 xerr=0 ler=1 lidx=0x0 perr=0 maxcnt=17 addr8=0x52
[RTY] wr=0 wmax=0 wref=0  rd=0 rmax=0 rref=0
[RNG] frames=17742 last=31 min=12 max=159 nrdy=0 dxfer=0 dstat=0 lst=0 nrdyerr=0 dclr=0
[DRV] init=0 id=7 mode=0x1 lib=0x2 seq=0x1 odc=0x8b sts=0xe0 armed=1
[TRG] pulses=216 suppressed=88 cyc=1600 rst=1 rstmode=0x40
[HLT] polls=354 faults=0x0 cfglost=0
[EFF] n=5 last=58555 min=58548 max=58555 late=0 stuck=0 rderr=0
[IMU] init=0 addr=0x68 who=0x68 rst=1 pmrb0=0x40 pmrb=0x1 sr=19 cfg=4 gcfg=0x0 acfg=0x8 icfg=0x30 ien=0x1 armed=1
[ACC] reads=17742 stale=17722 rderr=1 ax=52 ay=-20 az=1124
[PWR] pm=0x1 drift=0 rderr=0
[DWT] ok=1 cyc=382369390 cyc_per_ms=800087
[HB] up_ms=393588 frames=17789 inf=17789 hazard=306 canary_err=0 q=0 qovr=0
[I2C] init=0 gate=0 whoami=0x140e0 wr=0 wrseen=0x27 addr=0x5a ok=110177 err=1 tmo=0 recov=0 pclk1=200000000 sysclk=400000000
[NAK] nacks=1
[CLK] cpu=800000000 sysb=400000000 pclk1=200000000
[TOF] res=0 step=0 id=0xeacc blk=0xeacc10 ctl=0x0
[RNG] init=0 step=99 id=0xeacc boot=1 calls=93 xerr=0 dm=1 tb=15
[RNG] osc=41 imp=881 imprb=881 mstart=0x40 cfg=91 cfgfail=0x0 vhv=0 vpolls=0
[PRT] calls=71277 xerr=0 ler=1 lidx=0x0 perr=0 maxcnt=17 addr8=0x52
[RTY] wr=0 wmax=0 wref=0  rd=0 rmax=0 rref=0
[RNG] frames=17791 last=35 min=12 max=159 nrdy=0 dxfer=0 dstat=0 lst=0 nrdyerr=0 dclr=0
[DRV] init=0 id=7 mode=0x1 lib=0x2 seq=0x1 odc=0x8b sts=0xe0 armed=1
[TRG] pulses=217 suppressed=89 cyc=1600 rst=1 rstmode=0x40
[HLT] polls=355 faults=0x0 cfglost=0
[EFF] n=5 last=58555 min=58548 max=58555 late=0 stuck=0 rderr=0
[IMU] init=0 addr=0x68 who=0x68 rst=1 pmrb0=0x40 pmrb=0x1 sr=19 cfg=4 gcfg=0x0 acfg=0x8 icfg=0x30 ien=0x1 armed=1
[ACC] reads=17792 stale=17772 rderr=1 ax=54 ay=-22 az=1123
[PWR] pm=0x1 drift=0 rderr=0
[DWT] ok=1 cyc=1263944930 cyc_per_ms=799977
[HB] up_ms=394690 frames=17839 inf=17839 hazard=306 canary_err=0 q=0 qovr=0
[I2C] init=0 gate=0 whoami=0x140e0 wr=0 wrseen=0x27 addr=0x5a ok=110473 err=1 tmo=0 recov=0 pclk1=200000000 sysclk=400000000
[NAK] nacks=1
[CLK] cpu=800000000 sysb=400000000 pclk1=200000000
[TOF] res=0 step=0 id=0xeacc blk=0xeacc10 ctl=0x0
[RNG] init=0 step=99 id=0xeacc boot=1 calls=93 xerr=0 dm=1 tb=15
[RNG] osc=41 imp=881 imprb=881 mstart=0x40 cfg=91 cfgfail=0x0 vhv=0 vpolls=0
[PRT] calls=71477 xerr=0 ler=1 lidx=0x0 perr=0 maxcnt=17 addr8=0x52
[RTY] wr=0 wmax=0 wref=0  rd=0 rmax=0 rref=0
[RNG] frames=17841 last=31 min=12 max=159 nrdy=0 dxfer=0 dstat=0 lst=0 nrdyerr=0 dclr=0
[DRV] init=0 id=7 mode=0x1 lib=0x2 seq=0x1 odc=0x8b sts=0xe0 armed=1
[TRG] pulses=217 suppressed=89 cyc=1600 rst=1 rstmode=0x40
[HLT] polls=356 faults=0x0 cfglost=0
[EFF] n=5 last=58555 min=58548 max=58555 late=0 stuck=0 rderr=0
[IMU] init=0 addr=0x68 who=0x68 rst=1 pmrb0=0x40 pmrb=0x1 sr=19 cfg=4 gcfg=0x0 acfg=0x8 icfg=0x30 ien=0x1 armed=1
[ACC] reads=17842 stale=17822 rderr=1 ax=54 ay=-22 az=1121
[PWR] pm=0x1 drift=0 rderr=0
[DWT] ok=1 cyc=2145432674 cyc_per_ms=799898
[HB] up_ms=395792 frames=17889 inf=17889 hazard=308 canary_err=0 q=0 qovr=0
[I2C] init=0 gate=0 whoami=0x140e0 wr=0 wrseen=0x27 addr=0x5a ok=110775 err=1 tmo=0 recov=0 pclk1=200000000 sysclk=400000000
[NAK] nacks=1
[CLK] cpu=800000000 sysb=400000000 pclk1=200000000
[TOF] res=0 step=0 id=0xeacc blk=0xeacc10 ctl=0x0
[RNG] init=0 step=99 id=0xeacc boot=1 calls=93 xerr=0 dm=1 tb=15
[RNG] osc=41 imp=881 imprb=881 mstart=0x40 cfg=91 cfgfail=0x0 vhv=0 vpolls=0
[PRT] calls=71677 xerr=0 ler=1 lidx=0x0 perr=0 maxcnt=17 addr8=0x52
[RTY] wr=0 wmax=0 wref=0  rd=0 rmax=0 rref=0
[RNG] frames=17891 last=37 min=12 max=159 nrdy=0 dxfer=0 dstat=0 lst=0 nrdyerr=0 dclr=0
[DRV] init=0 id=7 mode=0x1 lib=0x2 seq=0x1 odc=0x8b sts=0xe0 armed=1
[TRG] pulses=218 suppressed=90 cyc=1600 rst=1 rstmode=0x40
[HLT] polls=357 faults=0x0 cfglost=0
[EFF] n=5 last=58555 min=58548 max=58555 late=0 stuck=0 rderr=0
[IMU] init=0 addr=0x68 who=0x68 rst=1 pmrb0=0x40 pmrb=0x1 sr=19 cfg=4 gcfg=0x0 acfg=0x8 icfg=0x30 ien=0x1 armed=1
[ACC] reads=17892 stale=17872 rderr=1 ax=54 ay=-20 az=1122
[PWR] pm=0x1 drift=0 rderr=0
[DWT] ok=1 cyc=3027032582 cyc_per_ms=799999
[HB] up_ms=396894 frames=17939 inf=17939 hazard=308 canary_err=0 q=0 qovr=0
[I2C] init=0 gate=0 whoami=0x140e0 wr=0 wrseen=0x27 addr=0x5a ok=111077 err=1 tmo=0 recov=0 pclk1=200000000 sysclk=400000000
[NAK] nacks=1
[CLK] cpu=800000000 sysb=400000000 pclk1=200000000
[TOF] res=0 step=0 id=0xeacc blk=0xeacc10 ctl=0x0
[RNG] init=0 step=99 id=0xeacc boot=1 calls=93 xerr=0 dm=1 tb=15
[RNG] osc=41 imp=881 imprb=881 mstart=0x40 cfg=91 cfgfail=0x0 vhv=0 vpolls=0
[PRT] calls=71877 xerr=0 ler=1 lidx=0x0 perr=0 maxcnt=17 addr8=0x52
[RTY] wr=0 wmax=0 wref=0  rd=0 rmax=0 rref=0
[RNG] frames=17941 last=38 min=12 max=159 nrdy=0 dxfer=0 dstat=0 lst=0 nrdyerr=0 dclr=0
[DRV] init=0 id=7 mode=0x1 lib=0x2 seq=0x1 odc=0x8b sts=0xe0 armed=1
[TRG] pulses=218 suppressed=90 cyc=1600 rst=1 rstmode=0x40
[HLT] polls=358 faults=0x0 cfglost=0
[EFF] n=5 last=58555 min=58548 max=58555 late=0 stuck=0 rderr=0
[IMU] init=0 addr=0x68 who=0x68 rst=1 pmrb0=0x40 pmrb=0x1 sr=19 cfg=4 gcfg=0x0 acfg=0x8 icfg=0x30 ien=0x1 armed=1
[ACC] reads=17942 stale=17922 rderr=1 ax=55 ay=-21 az=1121
[PWR] pm=0x1 drift=0 rderr=0
[DWT] ok=1 cyc=3908632650 cyc_per_ms=800000
[HB] up_ms=397996 frames=17989 inf=17989 hazard=308 canary_err=0 q=0 qovr=0
[I2C] init=0 gate=0 whoami=0x140e0 wr=0 wrseen=0x27 addr=0x5a ok=111379 err=1 tmo=0 recov=0 pclk1=200000000 sysclk=400000000
[NAK] nacks=1
[CLK] cpu=800000000 sysb=400000000 pclk1=200000000
[TOF] res=0 step=0 id=0xeacc blk=0xeacc10 ctl=0x0
[RNG] init=0 step=99 id=0xeacc boot=1 calls=93 xerr=0 dm=1 tb=15
[RNG] osc=41 imp=881 imprb=881 mstart=0x40 cfg=91 cfgfail=0x0 vhv=0 vpolls=0
[PRT] calls=72077 xerr=0 ler=1 lidx=0x0 perr=0 maxcnt=17 addr8=0x52
[RTY] wr=0 wmax=0 wref=0  rd=0 rmax=0 rref=0
[RNG] frames=17991 last=25 min=12 max=159 nrdy=0 dxfer=0 dstat=0 lst=0 nrdyerr=0 dclr=0
[DRV] init=0 id=7 mode=0x1 lib=0x2 seq=0x1 odc=0x8b sts=0xe0 armed=1
[TRG] pulses=218 suppressed=90 cyc=1600 rst=1 rstmode=0x40
[HLT] polls=359 faults=0x0 cfglost=0
[EFF] n=5 last=58555 min=58548 max=58555 late=0 stuck=0 rderr=0
[IMU] init=0 addr=0x68 who=0x68 rst=1 pmrb0=0x40 pmrb=0x1 sr=19 cfg=4 gcfg=0x0 acfg=0x8 icfg=0x30 ien=0x1 armed=1
[ACC] reads=17992 stale=17972 rderr=1 ax=56 ay=-19 az=1125
[PWR] pm=0x1 drift=0 rderr=0
[DWT] ok=1 cyc=495265362 cyc_per_ms=800000
[HB] up_ms=399098 frames=18039 inf=18039 hazard=308 canary_err=0 q=0 qovr=0
[I2C] init=0 gate=0 whoami=0x140e0 wr=0 wrseen=0x27 addr=0x5a ok=111681 err=1 tmo=0 recov=0 pclk1=200000000 sysclk=400000000
[NAK] nacks=1
[CLK] cpu=800000000 sysb=400000000 pclk1=200000000
[TOF] res=0 step=0 id=0xeacc blk=0xeacc10 ctl=0x0
[RNG] init=0 step=99 id=0xeacc boot=1 calls=93 xerr=0 dm=1 tb=15
[RNG] osc=41 imp=881 imprb=881 mstart=0x40 cfg=91 cfgfail=0x0 vhv=0 vpolls=0
[PRT] calls=72277 xerr=0 ler=1 lidx=0x0 perr=0 maxcnt=17 addr8=0x52
[RTY] wr=0 wmax=0 wref=0  rd=0 rmax=0 rref=0
[RNG] frames=18041 last=25 min=12 max=159 nrdy=0 dxfer=0 dstat=0 lst=0 nrdyerr=0 dclr=0
[DRV] init=0 id=7 mode=0x1 lib=0x2 seq=0x1 odc=0x8b sts=0xe0 armed=1
[TRG] pulses=218 suppressed=90 cyc=1600 rst=1 rstmode=0x40
[HLT] polls=360 faults=0x0 cfglost=0
[EFF] n=5 last=58555 min=58548 max=58555 late=0 stuck=0 rderr=0
[IMU] init=0 addr=0x68 who=0x68 rst=1 pmrb0=0x40 pmrb=0x1 sr=19 cfg=4 gcfg=0x0 acfg=0x8 icfg=0x30 ien=0x1 armed=1
[ACC] reads=18042 stale=18022 rderr=1 ax=54 ay=-21 az=1123
[PWR] pm=0x1 drift=0 rderr=0
[DWT] ok=1 cyc=1376865510 cyc_per_ms=800000
[HB] up_ms=400200 frames=18089 inf=18089 hazard=308 canary_err=0 q=0 qovr=0
[I2C] init=0 gate=0 whoami=0x140e0 wr=0 wrseen=0x27 addr=0x5a ok=111983 err=1 tmo=0 recov=0 pclk1=200000000 sysclk=400000000
[NAK] nacks=1
[CLK] cpu=800000000 sysb=400000000 pclk1=200000000
[TOF] res=0 step=0 id=0xeacc blk=0xeacc10 ctl=0x0
[RNG] init=0 step=99 id=0xeacc boot=1 calls=93 xerr=0 dm=1 tb=15
[RNG] osc=41 imp=881 imprb=881 mstart=0x40 cfg=91 cfgfail=0x0 vhv=0 vpolls=0
[PRT] calls=72473 xerr=0 ler=1 lidx=0x0 perr=0 maxcnt=17 addr8=0x52
[RTY] wr=0 wmax=0 wref=0  rd=0 rmax=0 rref=0
[RNG] frames=18091 last=33 min=12 max=159 nrdy=0 dxfer=0 dstat=0 lst=0 nrdyerr=0 dclr=0
[DRV] init=0 id=7 mode=0x1 lib=0x2 seq=0x1 odc=0x8b sts=0xe0 armed=1
[TRG] pulses=218 suppressed=90 cyc=1600 rst=1 rstmode=0x40
[HLT] polls=361 faults=0x0 cfglost=0
[EFF] n=5 last=58555 min=58548 max=58555 late=0 stuck=0 rderr=0
[IMU] init=0 addr=0x68 who=0x68 rst=1 pmrb0=0x40 pmrb=0x1 sr=19 cfg=4 gcfg=0x0 acfg=0x8 icfg=0x30 ien=0x1 armed=1
[ACC] reads=18092 stale=18072 rderr=1 ax=54 ay=-20 az=1124
[PWR] pm=0x1 drift=0 rderr=0
[DWT] ok=1 cyc=2258465358 cyc_per_ms=799999
[HB] up_ms=401302 frames=18139 inf=18139 hazard=308 canary_err=0 q=0 qovr=0
[I2C] init=0 gate=0 whoami=0x140e0 wr=0 wrseen=0x27 addr=0x5a ok=112285 err=1 tmo=0 recov=0 pclk1=200000000 sysclk=400000000
[NAK] nacks=1
[CLK] cpu=800000000 sysb=400000000 pclk1=200000000
[TOF] res=0 step=0 id=0xeacc blk=0xeacc10 ctl=0x0
[RNG] init=0 step=99 id=0xeacc boot=1 calls=93 xerr=0 dm=1 tb=15
[RNG] osc=41 imp=881 imprb=881 mstart=0x40 cfg=91 cfgfail=0x0 vhv=0 vpolls=0
[PRT] calls=72673 xerr=0 ler=1 lidx=0x0 perr=0 maxcnt=17 addr8=0x52
[RTY] wr=0 wmax=0 wref=0  rd=0 rmax=0 rref=0
[RNG] frames=18141 last=47 min=12 max=159 nrdy=0 dxfer=0 dstat=0 lst=0 nrdyerr=0 dclr=0
[DRV] init=0 id=7 mode=0x1 lib=0x2 seq=0x1 odc=0x8b sts=0xe0 armed=1
[TRG] pulses=218 suppressed=90 cyc=1600 rst=1 rstmode=0x40
[HLT] polls=362 faults=0x0 cfglost=0
[EFF] n=5 last=58555 min=58548 max=58555 late=0 stuck=0 rderr=0
[IMU] init=0 addr=0x68 who=0x68 rst=1 pmrb0=0x40 pmrb=0x1 sr=19 cfg=4 gcfg=0x0 acfg=0x8 icfg=0x30 ien=0x1 armed=1
[ACC] reads=18141 stale=18121 rderr=1 ax=55 ay=-21 az=1125
[PWR] pm=0x1 drift=0 rderr=0
[DWT] ok=1 cyc=3140065350 cyc_per_ms=799999
[HB] up_ms=402404 frames=18188 inf=18188 hazard=310 canary_err=0 q=0 qovr=0
[I2C] init=0 gate=0 whoami=0x140e0 wr=0 wrseen=0x27 addr=0x5a ok=112587 err=1 tmo=0 recov=0 pclk1=200000000 sysclk=400000000
[NAK] nacks=1
[CLK] cpu=800000000 sysb=400000000 pclk1=200000000
[TOF] res=0 step=0 id=0xeacc blk=0xeacc10 ctl=0x0
[RNG] init=0 step=99 id=0xeacc boot=1 calls=93 xerr=0 dm=1 tb=15
[RNG] osc=41 imp=881 imprb=881 mstart=0x40 cfg=91 cfgfail=0x0 vhv=0 vpolls=0
[PRT] calls=72873 xerr=0 ler=1 lidx=0x0 perr=0 maxcnt=17 addr8=0x52
[RTY] wr=0 wmax=0 wref=0  rd=0 rmax=0 rref=0
[RNG] frames=18191 last=32 min=12 max=159 nrdy=0 dxfer=0 dstat=0 lst=0 nrdyerr=0 dclr=0
[DRV] init=0 id=7 mode=0x1 lib=0x2 seq=0x1 odc=0x8b sts=0xe0 armed=1
[TRG] pulses=219 suppressed=91 cyc=1600 rst=1 rstmode=0x40
[HLT] polls=363 faults=0x0 cfglost=0
[EFF] n=5 last=58555 min=58548 max=58555 late=0 stuck=0 rderr=0
[IMU] init=0 addr=0x68 who=0x68 rst=1 pmrb0=0x40 pmrb=0x1 sr=19 cfg=4 gcfg=0x0 acfg=0x8 icfg=0x30 ien=0x1 armed=1
[ACC] reads=18191 stale=18171 rderr=1 ax=55 ay=-21 az=1125
[PWR] pm=0x1 drift=0 rderr=0
[DWT] ok=1 cyc=4021801202 cyc_per_ms=800123
[HB] up_ms=403506 frames=18238 inf=18238 hazard=310 canary_err=0 q=0 qovr=0
[I2C] init=0 gate=0 whoami=0x140e0 wr=0 wrseen=0x27 addr=0x5a ok=112889 err=1 tmo=0 recov=0 pclk1=200000000 sysclk=400000000
[NAK] nacks=1
[CLK] cpu=800000000 sysb=400000000 pclk1=200000000
[TOF] res=0 step=0 id=0xeacc blk=0xeacc10 ctl=0x0
[RNG] init=0 step=99 id=0xeacc boot=1 calls=93 xerr=0 dm=1 tb=15
[RNG] osc=41 imp=881 imprb=881 mstart=0x40 cfg=91 cfgfail=0x0 vhv=0 vpolls=0
[PRT] calls=73073 xerr=0 ler=1 lidx=0x0 perr=0 maxcnt=17 addr8=0x52
[RTY] wr=0 wmax=0 wref=0  rd=0 rmax=0 rref=0
[RNG] frames=18241 last=31 min=12 max=159 nrdy=0 dxfer=0 dstat=0 lst=0 nrdyerr=0 dclr=0
[DRV] init=0 id=7 mode=0x1 lib=0x2 seq=0x1 odc=0x8b sts=0xe0 armed=1
[TRG] pulses=219 suppressed=91 cyc=1600 rst=1 rstmode=0x40
[HLT] polls=364 faults=0x0 cfglost=0
[EFF] n=5 last=58555 min=58548 max=58555 late=0 stuck=0 rderr=0
[IMU] init=0 addr=0x68 who=0x68 rst=1 pmrb0=0x40 pmrb=0x1 sr=19 cfg=4 gcfg=0x0 acfg=0x8 icfg=0x30 ien=0x1 armed=1
[ACC] reads=18241 stale=18221 rderr=1 ax=55 ay=-19 az=1123
[PWR] pm=0x1 drift=0 rderr=0
[DWT] ok=1 cyc=608434702 cyc_per_ms=800000
[HB] up_ms=404608 frames=18288 inf=18288 hazard=310 canary_err=0 q=0 qovr=0
[I2C] init=0 gate=0 whoami=0x140e0 wr=0 wrseen=0x27 addr=0x5a ok=113187 err=1 tmo=0 recov=0 pclk1=200000000 sysclk=400000000
[NAK] nacks=1
[CLK] cpu=800000000 sysb=400000000 pclk1=200000000
[TOF] res=0 step=0 id=0xeacc blk=0xeacc10 ctl=0x0
[RNG] init=0 step=99 id=0xeacc boot=1 calls=93 xerr=0 dm=1 tb=15
[RNG] osc=41 imp=881 imprb=881 mstart=0x40 cfg=91 cfgfail=0x0 vhv=0 vpolls=0
[PRT] calls=73273 xerr=0 ler=1 lidx=0x0 perr=0 maxcnt=17 addr8=0x52
[RTY] wr=0 wmax=0 wref=0  rd=0 rmax=0 rref=0
[RNG] frames=18290 last=41 min=12 max=159 nrdy=0 dxfer=0 dstat=0 lst=0 nrdyerr=0 dclr=0
[DRV] init=0 id=7 mode=0x1 lib=0x2 seq=0x1 odc=0x8b sts=0xe0 armed=1
[TRG] pulses=219 suppressed=91 cyc=1600 rst=1 rstmode=0x40
[HLT] polls=365 faults=0x0 cfglost=0
[EFF] n=5 last=58555 min=58548 max=58555 late=0 stuck=0 rderr=0
[IMU] init=0 addr=0x68 who=0x68 rst=1 pmrb0=0x40 pmrb=0x1 sr=19 cfg=4 gcfg=0x0 acfg=0x8 icfg=0x30 ien=0x1 armed=1
[ACC] reads=18291 stale=18271 rderr=1 ax=53 ay=-21 az=1123
[PWR] pm=0x1 drift=0 rderr=0
[DWT] ok=1 cyc=1489898158 cyc_per_ms=799876
[HB] up_ms=405710 frames=18338 inf=18338 hazard=311 canary_err=0 q=0 qovr=0
[I2C] init=0 gate=0 whoami=0x140e0 wr=0 wrseen=0x27 addr=0x5a ok=113487 err=1 tmo=0 recov=0 pclk1=200000000 sysclk=400000000
[NAK] nacks=1
[CLK] cpu=800000000 sysb=400000000 pclk1=200000000
[TOF] res=0 step=0 id=0xeacc blk=0xeacc10 ctl=0x0
[RNG] init=0 step=99 id=0xeacc boot=1 calls=93 xerr=0 dm=1 tb=15
[RNG] osc=41 imp=881 imprb=881 mstart=0x40 cfg=91 cfgfail=0x0 vhv=0 vpolls=0
[PRT] calls=73473 xerr=0 ler=1 lidx=0x0 perr=0 maxcnt=17 addr8=0x52
[RTY] wr=0 wmax=0 wref=0  rd=0 rmax=0 rref=0
[RNG] frames=18340 last=32 min=12 max=159 nrdy=0 dxfer=0 dstat=0 lst=0 nrdyerr=0 dclr=0
[DRV] init=0 id=7 mode=0x1 lib=0x2 seq=0x1 odc=0x8b sts=0xe0 armed=1
[TRG] pulses=220 suppressed=91 cyc=1600 rst=1 rstmode=0x40
[HLT] polls=366 faults=0x0 cfglost=0
[EFF] n=5 last=58555 min=58548 max=58555 late=0 stuck=0 rderr=0
[IMU] init=0 addr=0x68 who=0x68 rst=1 pmrb0=0x40 pmrb=0x1 sr=19 cfg=4 gcfg=0x0 acfg=0x8 icfg=0x30 ien=0x1 armed=1
[ACC] reads=18341 stale=18321 rderr=1 ax=56 ay=-19 az=1120
[PWR] pm=0x1 drift=0 rderr=0
[DWT] ok=1 cyc=2371498266 cyc_per_ms=800000
[HB] up_ms=406812 frames=18388 inf=18388 hazard=312 canary_err=0 q=0 qovr=0
[I2C] init=0 gate=0 whoami=0x140e0 wr=0 wrseen=0x27 addr=0x5a ok=113789 err=1 tmo=0 recov=0 pclk1=200000000 sysclk=400000000
[NAK] nacks=1
[CLK] cpu=800000000 sysb=400000000 pclk1=200000000
[TOF] res=0 step=0 id=0xeacc blk=0xeacc10 ctl=0x0
[RNG] init=0 step=99 id=0xeacc boot=1 calls=93 xerr=0 dm=1 tb=15
[RNG] osc=41 imp=881 imprb=881 mstart=0x40 cfg=91 cfgfail=0x0 vhv=0 vpolls=0
[PRT] calls=73673 xerr=0 ler=1 lidx=0x0 perr=0 maxcnt=17 addr8=0x52
[RTY] wr=0 wmax=0 wref=0  rd=0 rmax=0 rref=0
[RNG] frames=18390 last=39 min=12 max=159 nrdy=0 dxfer=0 dstat=0 lst=0 nrdyerr=0 dclr=0
[DRV] init=0 id=7 mode=0x1 lib=0x2 seq=0x1 odc=0x8b sts=0xe0 armed=1
[TRG] pulses=220 suppressed=92 cyc=1600 rst=1 rstmode=0x40
[HLT] polls=367 faults=0x0 cfglost=0
[EFF] n=5 last=58555 min=58548 max=58555 late=0 stuck=0 rderr=0
[IMU] init=0 addr=0x68 who=0x68 rst=1 pmrb0=0x40 pmrb=0x1 sr=19 cfg=4 gcfg=0x0 acfg=0x8 icfg=0x30 ien=0x1 armed=1
[ACC] reads=18391 stale=18371 rderr=1 ax=53 ay=-22 az=1120
[PWR] pm=0x1 drift=0 rderr=0
[DWT] ok=1 cyc=3253098170 cyc_per_ms=799999
[HB] up_ms=407914 frames=18438 inf=18438 hazard=312 canary_err=0 q=0 qovr=0
[I2C] init=0 gate=0 whoami=0x140e0 wr=0 wrseen=0x27 addr=0x5a ok=114091 err=1 tmo=0 recov=0 pclk1=200000000 sysclk=400000000
[NAK] nacks=1
[CLK] cpu=800000000 sysb=400000000 pclk1=200000000
[TOF] res=0 step=0 id=0xeacc blk=0xeacc10 ctl=0x0
[RNG] init=0 step=99 id=0xeacc boot=1 calls=93 xerr=0 dm=1 tb=15
[RNG] osc=41 imp=881 imprb=881 mstart=0x40 cfg=91 cfgfail=0x0 vhv=0 vpolls=0
[PRT] calls=73873 xerr=0 ler=1 lidx=0x0 perr=0 maxcnt=17 addr8=0x52
[RTY] wr=0 wmax=0 wref=0  rd=0 rmax=0 rref=0
[RNG] frames=18440 last=38 min=12 max=159 nrdy=0 dxfer=0 dstat=0 lst=0 nrdyerr=0 dclr=0
[DRV] init=0 id=7 mode=0x1 lib=0x2 seq=0x1 odc=0x8b sts=0xe0 armed=1
[TRG] pulses=220 suppressed=92 cyc=1600 rst=1 rstmode=0x40
[HLT] polls=368 faults=0x0 cfglost=0
[EFF] n=5 last=58555 min=58548 max=58555 late=0 stuck=0 rderr=0
[IMU] init=0 addr=0x68 who=0x68 rst=1 pmrb0=0x40 pmrb=0x1 sr=19 cfg=4 gcfg=0x0 acfg=0x8 icfg=0x30 ien=0x1 armed=1
[ACC] reads=18441 stale=18421 rderr=1 ax=56 ay=-20 az=1124
[PWR] pm=0x1 drift=0 rderr=0
[DWT] ok=1 cyc=4134698046 cyc_per_ms=799999
[HB] up_ms=409016 frames=18488 inf=18488 hazard=312 canary_err=0 q=0 qovr=0
[I2C] init=0 gate=0 whoami=0x140e0 wr=0 wrseen=0x27 addr=0x5a ok=114393 err=1 tmo=0 recov=0 pclk1=200000000 sysclk=400000000
[NAK] nacks=1
[CLK] cpu=800000000 sysb=400000000 pclk1=200000000
[TOF] res=0 step=0 id=0xeacc blk=0xeacc10 ctl=0x0
[RNG] init=0 step=99 id=0xeacc boot=1 calls=93 xerr=0 dm=1 tb=15
[RNG] osc=41 imp=881 imprb=881 mstart=0x40 cfg=91 cfgfail=0x0 vhv=0 vpolls=0
[PRT] calls=74073 xerr=0 ler=1 lidx=0x0 perr=0 maxcnt=17 addr8=0x52
[RTY] wr=0 wmax=0 wref=0  rd=0 rmax=0 rref=0
[RNG] frames=18490 last=31 min=12 max=159 nrdy=0 dxfer=0 dstat=0 lst=0 nrdyerr=0 dclr=0
[DRV] init=0 id=7 mode=0x1 lib=0x2 seq=0x1 odc=0x8b sts=0xe0 armed=1
[TRG] pulses=220 suppressed=92 cyc=1600 rst=1 rstmode=0x40
[HLT] polls=369 faults=0x0 cfglost=0
[EFF] n=5 last=58555 min=58548 max=58555 late=0 stuck=0 rderr=0
[IMU] init=0 addr=0x68 who=0x68 rst=1 pmrb0=0x40 pmrb=0x1 sr=19 cfg=4 gcfg=0x0 acfg=0x8 icfg=0x30 ien=0x1 armed=1
[ACC] reads=18491 stale=18471 rderr=1 ax=54 ay=-17 az=1123
[PWR] pm=0x1 drift=0 rderr=0
[DWT] ok=1 cyc=721330878 cyc_per_ms=800000
[HB] up_ms=410118 frames=18538 inf=18538 hazard=314 canary_err=0 q=0 qovr=0
[I2C] init=0 gate=0 whoami=0x140e0 wr=0 wrseen=0x27 addr=0x5a ok=114695 err=1 tmo=0 recov=0 pclk1=200000000 sysclk=400000000
[NAK] nacks=1
[CLK] cpu=800000000 sysb=400000000 pclk1=200000000
[TOF] res=0 step=0 id=0xeacc blk=0xeacc10 ctl=0x0
[RNG] init=0 step=99 id=0xeacc boot=1 calls=93 xerr=0 dm=1 tb=15
[RNG] osc=41 imp=881 imprb=881 mstart=0x40 cfg=91 cfgfail=0x0 vhv=0 vpolls=0
[PRT] calls=74272 xerr=0 ler=1 lidx=0x0 perr=0 maxcnt=17 addr8=0x52
[RTY] wr=0 wmax=0 wref=0  rd=0 rmax=0 rref=0
[RNG] frames=18540 last=43 min=12 max=159 nrdy=0 dxfer=0 dstat=0 lst=0 nrdyerr=0 dclr=0
[DRV] init=0 id=7 mode=0x1 lib=0x2 seq=0x1 odc=0x8b sts=0xe0 armed=1
[TRG] pulses=221 suppressed=93 cyc=1600 rst=1 rstmode=0x40
[HLT] polls=370 faults=0x0 cfglost=0
[EFF] n=5 last=58555 min=58548 max=58555 late=0 stuck=0 rderr=0
[IMU] init=0 addr=0x68 who=0x68 rst=1 pmrb0=0x40 pmrb=0x1 sr=19 cfg=4 gcfg=0x0 acfg=0x8 icfg=0x30 ien=0x1 armed=1
[ACC] reads=18541 stale=18521 rderr=1 ax=55 ay=-21 az=1124
[PWR] pm=0x1 drift=0 rderr=0
[DWT] ok=1 cyc=1602930666 cyc_per_ms=799999
[HB] up_ms=411220 frames=18588 inf=18588 hazard=315 canary_err=0 q=0 qovr=0
[I2C] init=0 gate=0 whoami=0x140e0 wr=0 wrseen=0x27 addr=0x5a ok=114997 err=1 tmo=0 recov=0 pclk1=200000000 sysclk=400000000
[NAK] nacks=1
[CLK] cpu=800000000 sysb=400000000 pclk1=200000000
[TOF] res=0 step=0 id=0xeacc blk=0xeacc10 ctl=0x0
[RNG] init=0 step=99 id=0xeacc boot=1 calls=93 xerr=0 dm=1 tb=15
[RNG] osc=41 imp=881 imprb=881 mstart=0x40 cfg=91 cfgfail=0x0 vhv=0 vpolls=0
[PRT] calls=74469 xerr=0 ler=1 lidx=0x0 perr=0 maxcnt=17 addr8=0x52
[RTY] wr=0 wmax=0 wref=0  rd=0 rmax=0 rref=0
[RNG] frames=18590 last=45 min=12 max=159 nrdy=0 dxfer=0 dstat=0 lst=0 nrdyerr=0 dclr=0
[DRV] init=0 id=7 mode=0x1 lib=0x2 seq=0x1 odc=0x8b sts=0xe0 armed=1
[TRG] pulses=222 suppressed=93 cyc=1600 rst=1 rstmode=0x40
[HLT] polls=371 faults=0x0 cfglost=0
[EFF] n=5 last=58555 min=58548 max=58555 late=0 stuck=0 rderr=0
[IMU] init=0 addr=0x68 who=0x68 rst=1 pmrb0=0x40 pmrb=0x1 sr=19 cfg=4 gcfg=0x0 acfg=0x8 icfg=0x30 ien=0x1 armed=1
[ACC] reads=18590 stale=18571 rderr=1 ax=54 ay=-23 az=1126
[PWR] pm=0x1 drift=0 rderr=0
[DWT] ok=1 cyc=2484530798 cyc_per_ms=800000
[HB] up_ms=412322 frames=18637 inf=18637 hazard=315 canary_err=0 q=0 qovr=0
[I2C] init=0 gate=0 whoami=0x140e0 wr=0 wrseen=0x27 addr=0x5a ok=115299 err=1 tmo=0 recov=0 pclk1=200000000 sysclk=400000000
[NAK] nacks=1
[CLK] cpu=800000000 sysb=400000000 pclk1=200000000
[TOF] res=0 step=0 id=0xeacc blk=0xeacc10 ctl=0x0
[RNG] init=0 step=99 id=0xeacc boot=1 calls=93 xerr=0 dm=1 tb=15
[RNG] osc=41 imp=881 imprb=881 mstart=0x40 cfg=91 cfgfail=0x0 vhv=0 vpolls=0
[PRT] calls=74669 xerr=0 ler=1 lidx=0x0 perr=0 maxcnt=17 addr8=0x52
[RTY] wr=0 wmax=0 wref=0  rd=0 rmax=0 rref=0
[RNG] frames=18640 last=34 min=12 max=159 nrdy=0 dxfer=0 dstat=0 lst=0 nrdyerr=0 dclr=0
[DRV] init=0 id=7 mode=0x1 lib=0x2 seq=0x1 odc=0x8b sts=0xe0 armed=1
[TRG] pulses=222 suppressed=93 cyc=1600 rst=1 rstmode=0x40
[HLT] polls=372 faults=0x0 cfglost=0
[EFF] n=5 last=58555 min=58548 max=58555 late=0 stuck=0 rderr=0
[IMU] init=0 addr=0x68 who=0x68 rst=1 pmrb0=0x40 pmrb=0x1 sr=19 cfg=4 gcfg=0x0 acfg=0x8 icfg=0x30 ien=0x1 armed=1
[ACC] reads=18640 stale=18620 rderr=1 ax=57 ay=-20 az=1124
[PWR] pm=0x1 drift=0 rderr=0
[DWT] ok=1 cyc=3366171322 cyc_per_ms=800036
[HB] up_ms=413424 frames=18687 inf=18687 hazard=315 canary_err=0 q=0 qovr=0
[I2C] init=0 gate=0 whoami=0x140e0 wr=0 wrseen=0x27 addr=0x5a ok=115601 err=1 tmo=0 recov=0 pclk1=200000000 sysclk=400000000
[NAK] nacks=1
[CLK] cpu=800000000 sysb=400000000 pclk1=200000000
[TOF] res=0 step=0 id=0xeacc blk=0xeacc10 ctl=0x0
[RNG] init=0 step=99 id=0xeacc boot=1 calls=93 xerr=0 dm=1 tb=15
[RNG] osc=41 imp=881 imprb=881 mstart=0x40 cfg=91 cfgfail=0x0 vhv=0 vpolls=0
[PRT] calls=74869 xerr=0 ler=1 lidx=0x0 perr=0 maxcnt=17 addr8=0x52
[RTY] wr=0 wmax=0 wref=0  rd=0 rmax=0 rref=0
[RNG] frames=18690 last=40 min=12 max=159 nrdy=0 dxfer=0 dstat=0 lst=0 nrdyerr=0 dclr=0
[DRV] init=0 id=7 mode=0x1 lib=0x2 seq=0x1 odc=0x8b sts=0xe0 armed=1
[TRG] pulses=222 suppressed=93 cyc=1600 rst=1 rstmode=0x40
[HLT] polls=373 faults=0x0 cfglost=0
[EFF] n=5 last=58555 min=58548 max=58555 late=0 stuck=0 rderr=0
[IMU] init=0 addr=0x68 who=0x68 rst=1 pmrb0=0x40 pmrb=0x1 sr=19 cfg=4 gcfg=0x0 acfg=0x8 icfg=0x30 ien=0x1 armed=1
[ACC] reads=18690 stale=18670 rderr=1 ax=53 ay=-21 az=1123
[PWR] pm=0x1 drift=0 rderr=0
[DWT] ok=1 cyc=4247867450 cyc_per_ms=800087
[HB] up_ms=414526 frames=18737 inf=18737 hazard=315 canary_err=0 q=0 qovr=0
[I2C] init=0 gate=0 whoami=0x140e0 wr=0 wrseen=0x27 addr=0x5a ok=115903 err=1 tmo=0 recov=0 pclk1=200000000 sysclk=400000000
[NAK] nacks=1
[CLK] cpu=800000000 sysb=400000000 pclk1=200000000
[TOF] res=0 step=0 id=0xeacc blk=0xeacc10 ctl=0x0
[RNG] init=0 step=99 id=0xeacc boot=1 calls=93 xerr=0 dm=1 tb=15
[RNG] osc=41 imp=881 imprb=881 mstart=0x40 cfg=91 cfgfail=0x0 vhv=0 vpolls=0
[PRT] calls=75069 xerr=0 ler=1 lidx=0x0 perr=0 maxcnt=17 addr8=0x52
[RTY] wr=0 wmax=0 wref=0  rd=0 rmax=0 rref=0
[RNG] frames=18739 last=29 min=12 max=159 nrdy=0 dxfer=0 dstat=0 lst=0 nrdyerr=0 dclr=0
[DRV] init=0 id=7 mode=0x1 lib=0x2 seq=0x1 odc=0x8b sts=0xe0 armed=1
[TRG] pulses=222 suppressed=93 cyc=1600 rst=1 rstmode=0x40
[HLT] polls=374 faults=0x0 cfglost=0
[EFF] n=5 last=58555 min=58548 max=58555 late=0 stuck=0 rderr=0
[IMU] init=0 addr=0x68 who=0x68 rst=1 pmrb0=0x40 pmrb=0x1 sr=19 cfg=4 gcfg=0x0 acfg=0x8 icfg=0x30 ien=0x1 armed=1
[ACC] reads=18740 stale=18720 rderr=1 ax=54 ay=-21 az=1121
[PWR] pm=0x1 drift=0 rderr=0
[DWT] ok=1 cyc=834475778 cyc_per_ms=799977
[HB] up_ms=415628 frames=18787 inf=18787 hazard=317 canary_err=0 q=0 qovr=0
[I2C] init=0 gate=0 whoami=0x140e0 wr=0 wrseen=0x27 addr=0x5a ok=116199 err=1 tmo=0 recov=0 pclk1=200000000 sysclk=400000000
[NAK] nacks=1
[CLK] cpu=800000000 sysb=400000000 pclk1=200000000
[TOF] res=0 step=0 id=0xeacc blk=0xeacc10 ctl=0x0
[RNG] init=0 step=99 id=0xeacc boot=1 calls=93 xerr=0 dm=1 tb=15
[RNG] osc=41 imp=881 imprb=881 mstart=0x40 cfg=91 cfgfail=0x0 vhv=0 vpolls=0
[PRT] calls=75269 xerr=0 ler=1 lidx=0x0 perr=0 maxcnt=17 addr8=0x52
[RTY] wr=0 wmax=0 wref=0  rd=0 rmax=0 rref=0
[RNG] frames=18789 last=31 min=12 max=159 nrdy=0 dxfer=0 dstat=0 lst=0 nrdyerr=0 dclr=0
[DRV] init=0 id=7 mode=0x1 lib=0x2 seq=0x1 odc=0x8b sts=0xe0 armed=1
[TRG] pulses=224 suppressed=93 cyc=1600 rst=1 rstmode=0x40
[HLT] polls=375 faults=0x0 cfglost=0
[EFF] n=5 last=58555 min=58548 max=58555 late=0 stuck=0 rderr=0
[IMU] init=0 addr=0x68 who=0x68 rst=1 pmrb0=0x40 pmrb=0x1 sr=19 cfg=4 gcfg=0x0 acfg=0x8 icfg=0x30 ien=0x1 armed=1
[ACC] reads=18790 stale=18770 rderr=1 ax=50 ay=-18 az=1121
[PWR] pm=0x1 drift=0 rderr=0
[DWT] ok=1 cyc=1715963578 cyc_per_ms=799898
[HB] up_ms=416730 frames=18837 inf=18837 hazard=318 canary_err=0 q=0 qovr=0
[I2C] init=0 gate=0 whoami=0x140e0 wr=0 wrseen=0x27 addr=0x5a ok=116501 err=1 tmo=0 recov=0 pclk1=200000000 sysclk=400000000
[NAK] nacks=1
[CLK] cpu=800000000 sysb=400000000 pclk1=200000000
[TOF] res=0 step=0 id=0xeacc blk=0xeacc10 ctl=0x0
[RNG] init=0 step=99 id=0xeacc boot=1 calls=93 xerr=0 dm=1 tb=15
[RNG] osc=41 imp=881 imprb=881 mstart=0x40 cfg=91 cfgfail=0x0 vhv=0 vpolls=0
[PRT] calls=75469 xerr=0 ler=1 lidx=0x0 perr=0 maxcnt=17 addr8=0x52
[RTY] wr=0 wmax=0 wref=0  rd=0 rmax=0 rref=0
[RNG] frames=18839 last=39 min=12 max=159 nrdy=0 dxfer=0 dstat=0 lst=0 nrdyerr=0 dclr=0
[DRV] init=0 id=7 mode=0x1 lib=0x2 seq=0x1 odc=0x8b sts=0xe0 armed=1
[TRG] pulses=225 suppressed=93 cyc=1600 rst=1 rstmode=0x40
[HLT] polls=376 faults=0x0 cfglost=0
[EFF] n=5 last=58555 min=58548 max=58555 late=0 stuck=0 rderr=0
[IMU] init=0 addr=0x68 who=0x68 rst=1 pmrb0=0x40 pmrb=0x1 sr=19 cfg=4 gcfg=0x0 acfg=0x8 icfg=0x30 ien=0x1 armed=1
[ACC] reads=18840 stale=18820 rderr=1 ax=54 ay=-20 az=1121
[PWR] pm=0x1 drift=0 rderr=0
[DWT] ok=1 cyc=2597563366 cyc_per_ms=799999
[HB] up_ms=417832 frames=18887 inf=18887 hazard=318 canary_err=0 q=0 qovr=0
[I2C] init=0 gate=0 whoami=0x140e0 wr=0 wrseen=0x27 addr=0x5a ok=116803 err=1 tmo=0 recov=0 pclk1=200000000 sysclk=400000000
[NAK] nacks=1
[CLK] cpu=800000000 sysb=400000000 pclk1=200000000
[TOF] res=0 step=0 id=0xeacc blk=0xeacc10 ctl=0x0
[RNG] init=0 step=99 id=0xeacc boot=1 calls=93 xerr=0 dm=1 tb=15
[RNG] osc=41 imp=881 imprb=881 mstart=0x40 cfg=91 cfgfail=0x0 vhv=0 vpolls=0
[PRT] calls=75669 xerr=0 ler=1 lidx=0x0 perr=0 maxcnt=17 addr8=0x52
[RTY] wr=0 wmax=0 wref=0  rd=0 rmax=0 rref=0
[RNG] frames=18889 last=42 min=12 max=159 nrdy=0 dxfer=0 dstat=0 lst=0 nrdyerr=0 dclr=0
[DRV] init=0 id=7 mode=0x1 lib=0x2 seq=0x1 odc=0x8b sts=0xe0 armed=1
[TRG] pulses=225 suppressed=93 cyc=1600 rst=1 rstmode=0x40
[HLT] polls=377 faults=0x0 cfglost=0
[EFF] n=5 last=58555 min=58548 max=58555 late=0 stuck=0 rderr=0
[IMU] init=0 addr=0x68 who=0x68 rst=1 pmrb0=0x40 pmrb=0x1 sr=19 cfg=4 gcfg=0x0 acfg=0x8 icfg=0x30 ien=0x1 armed=1
[ACC] reads=18890 stale=18870 rderr=1 ax=55 ay=-21 az=1123
[PWR] pm=0x1 drift=0 rderr=0
[DWT] ok=1 cyc=3479163446 cyc_per_ms=800000
[HB] up_ms=418934 frames=18937 inf=18937 hazard=318 canary_err=0 q=0 qovr=0
[I2C] init=0 gate=0 whoami=0x140e0 wr=0 wrseen=0x27 addr=0x5a ok=117105 err=1 tmo=0 recov=0 pclk1=200000000 sysclk=400000000
[NAK] nacks=1
[CLK] cpu=800000000 sysb=400000000 pclk1=200000000
[TOF] res=0 step=0 id=0xeacc blk=0xeacc10 ctl=0x0
[RNG] init=0 step=99 id=0xeacc boot=1 calls=93 xerr=0 dm=1 tb=15
[RNG] osc=41 imp=881 imprb=881 mstart=0x40 cfg=91 cfgfail=0x0 vhv=0 vpolls=0
[PRT] calls=75869 xerr=0 ler=1 lidx=0x0 perr=0 maxcnt=17 addr8=0x52
[RTY] wr=0 wmax=0 wref=0  rd=0 rmax=0 rref=0
[RNG] frames=18939 last=31 min=12 max=159 nrdy=0 dxfer=0 dstat=0 lst=0 nrdyerr=0 dclr=0
[DRV] init=0 id=7 mode=0x1 lib=0x2 seq=0x1 odc=0x8b sts=0xe0 armed=1
[TRG] pulses=225 suppressed=93 cyc=1600 rst=1 rstmode=0x40
[HLT] polls=378 faults=0x0 cfglost=0
[EFF] n=5 last=58555 min=58548 max=58555 late=0 stuck=0 rderr=0
[IMU] init=0 addr=0x68 who=0x68 rst=1 pmrb0=0x40 pmrb=0x1 sr=19 cfg=4 gcfg=0x0 acfg=0x8 icfg=0x30 ien=0x1 armed=1
[ACC] reads=18940 stale=18920 rderr=1 ax=57 ay=-20 az=1124
[PWR] pm=0x1 drift=0 rderr=0
[DWT] ok=1 cyc=65796134 cyc_per_ms=799999
[HB] up_ms=420036 frames=18987 inf=18987 hazard=318 canary_err=0 q=0 qovr=0
[I2C] init=0 gate=0 whoami=0x140e0 wr=0 wrseen=0x27 addr=0x5a ok=117407 err=1 tmo=0 recov=0 pclk1=200000000 sysclk=400000000
[NAK] nacks=1
[CLK] cpu=800000000 sysb=400000000 pclk1=200000000
[TOF] res=0 step=0 id=0xeacc blk=0xeacc10 ctl=0x0
[RNG] init=0 step=99 id=0xeacc boot=1 calls=93 xerr=0 dm=1 tb=15
[RNG] osc=41 imp=881 imprb=881 mstart=0x40 cfg=91 cfgfail=0x0 vhv=0 vpolls=0
[PRT] calls=76069 xerr=0 ler=1 lidx=0x0 perr=0 maxcnt=17 addr8=0x52
[RTY] wr=0 wmax=0 wref=0  rd=0 rmax=0 rref=0
[RNG] frames=18989 last=44 min=12 max=159 nrdy=0 dxfer=0 dstat=0 lst=0 nrdyerr=0 dclr=0
[DRV] init=0 id=7 mode=0x1 lib=0x2 seq=0x1 odc=0x8b sts=0xe0 armed=1
[TRG] pulses=225 suppressed=93 cyc=1600 rst=1 rstmode=0x40
[HLT] polls=379 faults=0x0 cfglost=0
[EFF] n=5 last=58555 min=58548 max=58555 late=0 stuck=0 rderr=0
[IMU] init=0 addr=0x68 who=0x68 rst=1 pmrb0=0x40 pmrb=0x1 sr=19 cfg=4 gcfg=0x0 acfg=0x8 icfg=0x30 ien=0x1 armed=1
[ACC] reads=18990 stale=18970 rderr=1 ax=55 ay=-20 az=1122
[PWR] pm=0x1 drift=0 rderr=0
[DWT] ok=1 cyc=947396390 cyc_per_ms=800000
[HB] up_ms=421138 frames=19037 inf=19037 hazard=319 canary_err=0 q=0 qovr=0
[I2C] init=0 gate=0 whoami=0x140e0 wr=0 wrseen=0x27 addr=0x5a ok=117709 err=1 tmo=0 recov=0 pclk1=200000000 sysclk=400000000
[NAK] nacks=1
[CLK] cpu=800000000 sysb=400000000 pclk1=200000000
[TOF] res=0 step=0 id=0xeacc blk=0xeacc10 ctl=0x0
[RNG] init=0 step=99 id=0xeacc boot=1 calls=93 xerr=0 dm=1 tb=15
[RNG] osc=41 imp=881 imprb=881 mstart=0x40 cfg=91 cfgfail=0x0 vhv=0 vpolls=0
[PRT] calls=76265 xerr=0 ler=1 lidx=0x0 perr=0 maxcnt=17 addr8=0x52
[RTY] wr=0 wmax=0 wref=0  rd=0 rmax=0 rref=0
[RNG] frames=19039 last=49 min=12 max=159 nrdy=0 dxfer=0 dstat=0 lst=0 nrdyerr=0 dclr=0
[DRV] init=0 id=7 mode=0x1 lib=0x2 seq=0x1 odc=0x8b sts=0xe0 armed=1
[TRG] pulses=226 suppressed=93 cyc=1600 rst=1 rstmode=0x40
[HLT] polls=380 faults=0x0 cfglost=0
[EFF] n=5 last=58555 min=58548 max=58555 late=0 stuck=0 rderr=0
[IMU] init=0 addr=0x68 who=0x68 rst=1 pmrb0=0x40 pmrb=0x1 sr=19 cfg=4 gcfg=0x0 acfg=0x8 icfg=0x30 ien=0x1 armed=1
[ACC] reads=19040 stale=19020 rderr=1 ax=53 ay=-19 az=1126
[PWR] pm=0x1 drift=0 rderr=0
[DWT] ok=1 cyc=1828996098 cyc_per_ms=799999
[HB] up_ms=422240 frames=19087 inf=19087 hazard=319 canary_err=0 q=0 qovr=0
[I2C] init=0 gate=0 whoami=0x140e0 wr=0 wrseen=0x27 addr=0x5a ok=118011 err=1 tmo=0 recov=0 pclk1=200000000 sysclk=400000000
[NAK] nacks=1
[CLK] cpu=800000000 sysb=400000000 pclk1=200000000
[TOF] res=0 step=0 id=0xeacc blk=0xeacc10 ctl=0x0
[RNG] init=0 step=99 id=0xeacc boot=1 calls=93 xerr=0 dm=1 tb=15
[RNG] osc=41 imp=881 imprb=881 mstart=0x40 cfg=91 cfgfail=0x0 vhv=0 vpolls=0
[PRT] calls=76465 xerr=0 ler=1 lidx=0x0 perr=0 maxcnt=17 addr8=0x52
[RTY] wr=0 wmax=0 wref=0  rd=0 rmax=0 rref=0
[RNG] frames=19089 last=32 min=12 max=159 nrdy=0 dxfer=0 dstat=0 lst=0 nrdyerr=0 dclr=0
[DRV] init=0 id=7 mode=0x1 lib=0x2 seq=0x1 odc=0x8b sts=0xe0 armed=1
[TRG] pulses=226 suppressed=93 cyc=1600 rst=1 rstmode=0x40
[HLT] polls=381 faults=0x0 cfglost=0
[EFF] n=5 last=58555 min=58548 max=58555 late=0 stuck=0 rderr=0
[IMU] init=0 addr=0x68 who=0x68 rst=1 pmrb0=0x40 pmrb=0x1 sr=19 cfg=4 gcfg=0x0 acfg=0x8 icfg=0x30 ien=0x1 armed=1
[ACC] reads=19089 stale=19069 rderr=1 ax=52 ay=-19 az=1125
[PWR] pm=0x1 drift=0 rderr=0
[DWT] ok=1 cyc=2710596166 cyc_per_ms=800000
[HB] up_ms=423342 frames=19136 inf=19136 hazard=319 canary_err=0 q=0 qovr=0
[I2C] init=0 gate=0 whoami=0x140e0 wr=0 wrseen=0x27 addr=0x5a ok=118313 err=1 tmo=0 recov=0 pclk1=200000000 sysclk=400000000
[NAK] nacks=1
[CLK] cpu=800000000 sysb=400000000 pclk1=200000000
[TOF] res=0 step=0 id=0xeacc blk=0xeacc10 ctl=0x0
[RNG] init=0 step=99 id=0xeacc boot=1 calls=93 xerr=0 dm=1 tb=15
[RNG] osc=41 imp=881 imprb=881 mstart=0x40 cfg=91 cfgfail=0x0 vhv=0 vpolls=0
[PRT] calls=76665 xerr=0 ler=1 lidx=0x0 perr=0 maxcnt=17 addr8=0x52
[RTY] wr=0 wmax=0 wref=0  rd=0 rmax=0 rref=0
[RNG] frames=19139 last=41 min=12 max=159 nrdy=0 dxfer=0 dstat=0 lst=0 nrdyerr=0 dclr=0
[DRV] init=0 id=7 mode=0x1 lib=0x2 seq=0x1 odc=0x8b sts=0xe0 armed=1
[TRG] pulses=226 suppressed=93 cyc=1600 rst=1 rstmode=0x40
[HLT] polls=382 faults=0x0 cfglost=0
[EFF] n=5 last=58555 min=58548 max=58555 late=0 stuck=0 rderr=0
[IMU] init=0 addr=0x68 who=0x68 rst=1 pmrb0=0x40 pmrb=0x1 sr=19 cfg=4 gcfg=0x0 acfg=0x8 icfg=0x30 ien=0x1 armed=1
[ACC] reads=19139 stale=19119 rderr=1 ax=55 ay=-22 az=1120
[PWR] pm=0x1 drift=0 rderr=0
[DWT] ok=1 cyc=3592332026 cyc_per_ms=800123
[HB] up_ms=424444 frames=19186 inf=19186 hazard=319 canary_err=0 q=0 qovr=0
[I2C] init=0 gate=0 whoami=0x140e0 wr=0 wrseen=0x27 addr=0x5a ok=118615 err=1 tmo=0 recov=0 pclk1=200000000 sysclk=400000000
[NAK] nacks=1
[CLK] cpu=800000000 sysb=400000000 pclk1=200000000
[TOF] res=0 step=0 id=0xeacc blk=0xeacc10 ctl=0x0
[RNG] init=0 step=99 id=0xeacc boot=1 calls=93 xerr=0 dm=1 tb=15
[RNG] osc=41 imp=881 imprb=881 mstart=0x40 cfg=91 cfgfail=0x0 vhv=0 vpolls=0
[PRT] calls=76865 xerr=0 ler=1 lidx=0x0 perr=0 maxcnt=17 addr8=0x52
[RTY] wr=0 wmax=0 wref=0  rd=0 rmax=0 rref=0
[RNG] frames=19189 last=30 min=12 max=159 nrdy=0 dxfer=0 dstat=0 lst=0 nrdyerr=0 dclr=0
[DRV] init=0 id=7 mode=0x1 lib=0x2 seq=0x1 odc=0x8b sts=0xe0 armed=1
[TRG] pulses=226 suppressed=93 cyc=1600 rst=1 rstmode=0x40
[HLT] polls=383 faults=0x0 cfglost=0
[EFF] n=5 last=58555 min=58548 max=58555 late=0 stuck=0 rderr=0
[IMU] init=0 addr=0x68 who=0x68 rst=1 pmrb0=0x40 pmrb=0x1 sr=19 cfg=4 gcfg=0x0 acfg=0x8 icfg=0x30 ien=0x1 armed=1
[ACC] reads=19189 stale=19169 rderr=1 ax=55 ay=-21 az=1122
[PWR] pm=0x1 drift=0 rderr=0
[DWT] ok=1 cyc=178965558 cyc_per_ms=800000
[HB] up_ms=425546 frames=19236 inf=19236 hazard=319 canary_err=0 q=0 qovr=0
[I2C] init=0 gate=0 whoami=0x140e0 wr=0 wrseen=0x27 addr=0x5a ok=118913 err=1 tmo=0 recov=0 pclk1=200000000 sysclk=400000000
[NAK] nacks=1
[CLK] cpu=800000000 sysb=400000000 pclk1=200000000
[TOF] res=0 step=0 id=0xeacc blk=0xeacc10 ctl=0x0
[RNG] init=0 step=99 id=0xeacc boot=1 calls=93 xerr=0 dm=1 tb=15
[RNG] osc=41 imp=881 imprb=881 mstart=0x40 cfg=91 cfgfail=0x0 vhv=0 vpolls=0
[PRT] calls=77065 xerr=0 ler=1 lidx=0x0 perr=0 maxcnt=17 addr8=0x52
[RTY] wr=0 wmax=0 wref=0  rd=0 rmax=0 rref=0
[RNG] frames=19238 last=39 min=12 max=159 nrdy=0 dxfer=0 dstat=0 lst=0 nrdyerr=0 dclr=0
[DRV] init=0 id=7 mode=0x1 lib=0x2 seq=0x1 odc=0x8b sts=0xe0 armed=1
[TRG] pulses=226 suppressed=93 cyc=1600 rst=1 rstmode=0x40
[HLT] polls=384 faults=0x0 cfglost=0
[EFF] n=5 last=58555 min=58548 max=58555 late=0 stuck=0 rderr=0
[IMU] init=0 addr=0x68 who=0x68 rst=1 pmrb0=0x40 pmrb=0x1 sr=19 cfg=4 gcfg=0x0 acfg=0x8 icfg=0x30 ien=0x1 armed=1
[ACC] reads=19239 stale=19219 rderr=1 ax=55 ay=-20 az=1124
[PWR] pm=0x1 drift=0 rderr=0
[DWT] ok=1 cyc=1060428966 cyc_per_ms=799876
[HB] up_ms=426648 frames=19286 inf=19286 hazard=320 canary_err=0 q=0 qovr=0
[I2C] init=0 gate=0 whoami=0x140e0 wr=0 wrseen=0x27 addr=0x5a ok=119213 err=1 tmo=0 recov=0 pclk1=200000000 sysclk=400000000
[NAK] nacks=1
[CLK] cpu=800000000 sysb=400000000 pclk1=200000000
[TOF] res=0 step=0 id=0xeacc blk=0xeacc10 ctl=0x0
[RNG] init=0 step=99 id=0xeacc boot=1 calls=93 xerr=0 dm=1 tb=15
[RNG] osc=41 imp=881 imprb=881 mstart=0x40 cfg=91 cfgfail=0x0 vhv=0 vpolls=0
[PRT] calls=77265 xerr=0 ler=1 lidx=0x0 perr=0 maxcnt=17 addr8=0x52
[RTY] wr=0 wmax=0 wref=0  rd=0 rmax=0 rref=0
[RNG] frames=19288 last=31 min=12 max=159 nrdy=0 dxfer=0 dstat=0 lst=0 nrdyerr=0 dclr=0
[DRV] init=0 id=7 mode=0x1 lib=0x2 seq=0x1 odc=0x8b sts=0xe0 armed=1
[TRG] pulses=227 suppressed=93 cyc=1600 rst=1 rstmode=0x40
[HLT] polls=385 faults=0x0 cfglost=0
[EFF] n=5 last=58555 min=58548 max=58555 late=0 stuck=0 rderr=0
[IMU] init=0 addr=0x68 who=0x68 rst=1 pmrb0=0x40 pmrb=0x1 sr=19 cfg=4 gcfg=0x0 acfg=0x8 icfg=0x30 ien=0x1 armed=1
[ACC] reads=19289 stale=19269 rderr=1 ax=54 ay=-21 az=1124
[PWR] pm=0x1 drift=0 rderr=0
[DWT] ok=1 cyc=1942029010 cyc_per_ms=800000
[HB] up_ms=427750 frames=19336 inf=19336 hazard=320 canary_err=0 q=0 qovr=0
[I2C] init=0 gate=0 whoami=0x140e0 wr=0 wrseen=0x27 addr=0x5a ok=119515 err=1 tmo=0 recov=0 pclk1=200000000 sysclk=400000000
[NAK] nacks=1
[CLK] cpu=800000000 sysb=400000000 pclk1=200000000
[TOF] res=0 step=0 id=0xeacc blk=0xeacc10 ctl=0x0
[RNG] init=0 step=99 id=0xeacc boot=1 calls=93 xerr=0 dm=1 tb=15
[RNG] osc=41 imp=881 imprb=881 mstart=0x40 cfg=91 cfgfail=0x0 vhv=0 vpolls=0
[PRT] calls=77465 xerr=0 ler=1 lidx=0x0 perr=0 maxcnt=17 addr8=0x52
[RTY] wr=0 wmax=0 wref=0  rd=0 rmax=0 rref=0
[RNG] frames=19338 last=28 min=12 max=159 nrdy=0 dxfer=0 dstat=0 lst=0 nrdyerr=0 dclr=0
[DRV] init=0 id=7 mode=0x1 lib=0x2 seq=0x1 odc=0x8b sts=0xe0 armed=1
[TRG] pulses=227 suppressed=93 cyc=1600 rst=1 rstmode=0x40
[HLT] polls=386 faults=0x0 cfglost=0
[EFF] n=5 last=58555 min=58548 max=58555 late=0 stuck=0 rderr=0
[IMU] init=0 addr=0x68 who=0x68 rst=1 pmrb0=0x40 pmrb=0x1 sr=19 cfg=4 gcfg=0x0 acfg=0x8 icfg=0x30 ien=0x1 armed=1
[ACC] reads=19339 stale=19319 rderr=1 ax=56 ay=-21 az=1122
[PWR] pm=0x1 drift=0 rderr=0
[DWT] ok=1 cyc=2823628918 cyc_per_ms=799999
[HB] up_ms=428852 frames=19386 inf=19386 hazard=320 canary_err=0 q=0 qovr=0
[I2C] init=0 gate=0 whoami=0x140e0 wr=0 wrseen=0x27 addr=0x5a ok=119817 err=1 tmo=0 recov=0 pclk1=200000000 sysclk=400000000
[NAK] nacks=1
[CLK] cpu=800000000 sysb=400000000 pclk1=200000000
[TOF] res=0 step=0 id=0xeacc blk=0xeacc10 ctl=0x0
[RNG] init=0 step=99 id=0xeacc boot=1 calls=93 xerr=0 dm=1 tb=15
[RNG] osc=41 imp=881 imprb=881 mstart=0x40 cfg=91 cfgfail=0x0 vhv=0 vpolls=0
[PRT] calls=77665 xerr=0 ler=1 lidx=0x0 perr=0 maxcnt=17 addr8=0x52
[RTY] wr=0 wmax=0 wref=0  rd=0 rmax=0 rref=0
[RNG] frames=19388 last=29 min=12 max=159 nrdy=0 dxfer=0 dstat=0 lst=0 nrdyerr=0 dclr=0
[DRV] init=0 id=7 mode=0x1 lib=0x2 seq=0x1 odc=0x8b sts=0xe0 armed=1
[TRG] pulses=227 suppressed=93 cyc=1600 rst=1 rstmode=0x40
[HLT] polls=387 faults=0x0 cfglost=0
[EFF] n=5 last=58555 min=58548 max=58555 late=0 stuck=0 rderr=0
[IMU] init=0 addr=0x68 who=0x68 rst=1 pmrb0=0x40 pmrb=0x1 sr=19 cfg=4 gcfg=0x0 acfg=0x8 icfg=0x30 ien=0x1 armed=1
[ACC] reads=19389 stale=19369 rderr=1 ax=54 ay=-20 az=1124
[PWR] pm=0x1 drift=0 rderr=0
[DWT] ok=1 cyc=3705228798 cyc_per_ms=799999
[HB] up_ms=429954 frames=19436 inf=19436 hazard=321 canary_err=0 q=0 qovr=0
[I2C] init=0 gate=0 whoami=0x140e0 wr=0 wrseen=0x27 addr=0x5a ok=120119 err=1 tmo=0 recov=0 pclk1=200000000 sysclk=400000000
[NAK] nacks=1
[CLK] cpu=800000000 sysb=400000000 pclk1=200000000
[TOF] res=0 step=0 id=0xeacc blk=0xeacc10 ctl=0x0
[RNG] init=0 step=99 id=0xeacc boot=1 calls=93 xerr=0 dm=1 tb=15
[RNG] osc=41 imp=881 imprb=881 mstart=0x40 cfg=91 cfgfail=0x0 vhv=0 vpolls=0
[PRT] calls=77865 xerr=0 ler=1 lidx=0x0 perr=0 maxcnt=17 addr8=0x52
[RTY] wr=0 wmax=0 wref=0  rd=0 rmax=0 rref=0
[RNG] frames=19438 last=57 min=12 max=159 nrdy=0 dxfer=0 dstat=0 lst=0 nrdyerr=0 dclr=0
[DRV] init=0 id=7 mode=0x1 lib=0x2 seq=0x1 odc=0x8b sts=0xe0 armed=1
[TRG] pulses=228 suppressed=93 cyc=1600 rst=1 rstmode=0x40
[HLT] polls=388 faults=0x0 cfglost=0
[EFF] n=5 last=58555 min=58548 max=58555 late=0 stuck=0 rderr=0
[IMU] init=0 addr=0x68 who=0x68 rst=1 pmrb0=0x40 pmrb=0x1 sr=19 cfg=4 gcfg=0x0 acfg=0x8 icfg=0x30 ien=0x1 armed=1
[ACC] reads=19439 stale=19419 rderr=1 ax=55 ay=-20 az=1121
[PWR] pm=0x1 drift=0 rderr=0
[DWT] ok=1 cyc=291865106 cyc_per_ms=800003
[HB] up_ms=431056 frames=19486 inf=19486 hazard=325 canary_err=0 q=0 qovr=0
[I2C] init=0 gate=0 whoami=0x140e0 wr=0 wrseen=0x27 addr=0x5a ok=120421 err=1 tmo=0 recov=0 pclk1=200000000 sysclk=400000000
[NAK] nacks=1
[CLK] cpu=800000000 sysb=400000000 pclk1=200000000
[TOF] res=0 step=0 id=0xeacc blk=0xeacc10 ctl=0x0
[RNG] init=0 step=99 id=0xeacc boot=1 calls=93 xerr=0 dm=1 tb=15
[RNG] osc=41 imp=881 imprb=881 mstart=0x40 cfg=91 cfgfail=0x0 vhv=0 vpolls=0
[PRT] calls=78064 xerr=0 ler=1 lidx=0x0 perr=0 maxcnt=17 addr8=0x52
[RTY] wr=0 wmax=0 wref=0  rd=0 rmax=0 rref=0
[RNG] frames=19488 last=34 min=12 max=159 nrdy=0 dxfer=0 dstat=0 lst=0 nrdyerr=0 dclr=0
[DRV] init=0 id=7 mode=0x1 lib=0x2 seq=0x1 odc=0x8b sts=0xe0 armed=1
[TRG] pulses=230 suppressed=95 cyc=1600 rst=1 rstmode=0x40
[HLT] polls=389 faults=0x0 cfglost=0
[EFF] n=5 last=58555 min=58548 max=58555 late=0 stuck=0 rderr=0
[IMU] init=0 addr=0x68 who=0x68 rst=1 pmrb0=0x40 pmrb=0x1 sr=19 cfg=4 gcfg=0x0 acfg=0x8 icfg=0x30 ien=0x1 armed=1
[ACC] reads=19489 stale=19469 rderr=1 ax=53 ay=-21 az=1121
[PWR] pm=0x1 drift=0 rderr=0
[DWT] ok=1 cyc=1173461470 cyc_per_ms=799996
[HB] up_ms=432158 frames=19536 inf=19536 hazard=326 canary_err=0 q=0 qovr=0
[I2C] init=0 gate=0 whoami=0x140e0 wr=0 wrseen=0x27 addr=0x5a ok=120723 err=1 tmo=0 recov=0 pclk1=200000000 sysclk=400000000
[NAK] nacks=1
[CLK] cpu=800000000 sysb=400000000 pclk1=200000000
[TOF] res=0 step=0 id=0xeacc blk=0xeacc10 ctl=0x0
[RNG] init=0 step=99 id=0xeacc boot=1 calls=93 xerr=0 dm=1 tb=15
[RNG] osc=41 imp=881 imprb=881 mstart=0x40 cfg=91 cfgfail=0x0 vhv=0 vpolls=0
[PRT] calls=78261 xerr=0 ler=1 lidx=0x0 perr=0 maxcnt=17 addr8=0x52
[RTY] wr=0 wmax=0 wref=0  rd=0 rmax=0 rref=0
[RNG] frames=19538 last=41 min=12 max=159 nrdy=0 dxfer=0 dstat=0 lst=0 nrdyerr=0 dclr=0
[DRV] init=0 id=7 mode=0x1 lib=0x2 seq=0x1 odc=0x8b sts=0xe0 armed=1
[TRG] pulses=231 suppressed=95 cyc=1600 rst=1 rstmode=0x40
[HLT] polls=390 faults=0x0 cfglost=0
[EFF] n=5 last=58555 min=58548 max=58555 late=0 stuck=0 rderr=0
[IMU] init=0 addr=0x68 who=0x68 rst=1 pmrb0=0x40 pmrb=0x1 sr=19 cfg=4 gcfg=0x0 acfg=0x8 icfg=0x30 ien=0x1 armed=1
[ACC] reads=19538 stale=19519 rderr=1 ax=56 ay=-19 az=1125
[PWR] pm=0x1 drift=0 rderr=0
[DWT] ok=1 cyc=2055061530 cyc_per_ms=800000
[HB] up_ms=433260 frames=19585 inf=19585 hazard=326 canary_err=0 q=0 qovr=0
[I2C] init=0 gate=0 whoami=0x140e0 wr=0 wrseen=0x27 addr=0x5a ok=121025 err=1 tmo=0 recov=0 pclk1=200000000 sysclk=400000000
[NAK] nacks=1
[CLK] cpu=800000000 sysb=400000000 pclk1=200000000
[TOF] res=0 step=0 id=0xeacc blk=0xeacc10 ctl=0x0
[RNG] init=0 step=99 id=0xeacc boot=1 calls=93 xerr=0 dm=1 tb=15
[RNG] osc=41 imp=881 imprb=881 mstart=0x40 cfg=91 cfgfail=0x0 vhv=0 vpolls=0
[PRT] calls=78461 xerr=0 ler=1 lidx=0x0 perr=0 maxcnt=17 addr8=0x52
[RTY] wr=0 wmax=0 wref=0  rd=0 rmax=0 rref=0
[RNG] frames=19588 last=39 min=12 max=159 nrdy=0 dxfer=0 dstat=0 lst=0 nrdyerr=0 dclr=0
[DRV] init=0 id=7 mode=0x1 lib=0x2 seq=0x1 odc=0x8b sts=0xe0 armed=1
[TRG] pulses=231 suppressed=95 cyc=1600 rst=1 rstmode=0x40
[HLT] polls=391 faults=0x0 cfglost=0
[EFF] n=5 last=58555 min=58548 max=58555 late=0 stuck=0 rderr=0
[IMU] init=0 addr=0x68 who=0x68 rst=1 pmrb0=0x40 pmrb=0x1 sr=19 cfg=4 gcfg=0x0 acfg=0x8 icfg=0x30 ien=0x1 armed=1
[ACC] reads=19588 stale=19568 rderr=1 ax=55 ay=-21 az=1123
[PWR] pm=0x1 drift=0 rderr=0
[DWT] ok=1 cyc=2936702142 cyc_per_ms=800036
[HB] up_ms=434362 frames=19635 inf=19635 hazard=326 canary_err=0 q=0 qovr=0
[I2C] init=0 gate=0 whoami=0x140e0 wr=0 wrseen=0x27 addr=0x5a ok=121327 err=1 tmo=0 recov=0 pclk1=200000000 sysclk=400000000
[NAK] nacks=1
[CLK] cpu=800000000 sysb=400000000 pclk1=200000000
[TOF] res=0 step=0 id=0xeacc blk=0xeacc10 ctl=0x0
[RNG] init=0 step=99 id=0xeacc boot=1 calls=93 xerr=0 dm=1 tb=15
[RNG] osc=41 imp=881 imprb=881 mstart=0x40 cfg=91 cfgfail=0x0 vhv=0 vpolls=0
[PRT] calls=78661 xerr=0 ler=1 lidx=0x0 perr=0 maxcnt=17 addr8=0x52
[RTY] wr=0 wmax=0 wref=0  rd=0 rmax=0 rref=0
[RNG] frames=19638 last=42 min=12 max=159 nrdy=0 dxfer=0 dstat=0 lst=0 nrdyerr=0 dclr=0
[DRV] init=0 id=7 mode=0x1 lib=0x2 seq=0x1 odc=0x8b sts=0xe0 armed=1
[TRG] pulses=231 suppressed=95 cyc=1600 rst=1 rstmode=0x40
[HLT] polls=392 faults=0x0 cfglost=0
[EFF] n=5 last=58555 min=58548 max=58555 late=0 stuck=0 rderr=0
[IMU] init=0 addr=0x68 who=0x68 rst=1 pmrb0=0x40 pmrb=0x1 sr=19 cfg=4 gcfg=0x0 acfg=0x8 icfg=0x30 ien=0x1 armed=1
[ACC] reads=19638 stale=19618 rderr=1 ax=55 ay=-21 az=1122
[PWR] pm=0x1 drift=0 rderr=0
[DWT] ok=1 cyc=3818398238 cyc_per_ms=800087
[HB] up_ms=435464 frames=19685 inf=19685 hazard=327 canary_err=0 q=0 qovr=0
[I2C] init=0 gate=0 whoami=0x140e0 wr=0 wrseen=0x27 addr=0x5a ok=121629 err=1 tmo=0 recov=0 pclk1=200000000 sysclk=400000000
[NAK] nacks=1
[CLK] cpu=800000000 sysb=400000000 pclk1=200000000
[TOF] res=0 step=0 id=0xeacc blk=0xeacc10 ctl=0x0
[RNG] init=0 step=99 id=0xeacc boot=1 calls=93 xerr=0 dm=1 tb=15
[RNG] osc=41 imp=881 imprb=881 mstart=0x40 cfg=91 cfgfail=0x0 vhv=0 vpolls=0
[PRT] calls=78861 xerr=0 ler=1 lidx=0x0 perr=0 maxcnt=17 addr8=0x52
[RTY] wr=0 wmax=0 wref=0  rd=0 rmax=0 rref=0
[RNG] frames=19687 last=30 min=12 max=159 nrdy=0 dxfer=0 dstat=0 lst=0 nrdyerr=0 dclr=0
[DRV] init=0 id=7 mode=0x1 lib=0x2 seq=0x1 odc=0x8b sts=0xe0 armed=1
[TRG] pulses=232 suppressed=95 cyc=1600 rst=1 rstmode=0x40
[HLT] polls=393 faults=0x0 cfglost=0
[EFF] n=5 last=58555 min=58548 max=58555 late=0 stuck=0 rderr=0
[IMU] init=0 addr=0x68 who=0x68 rst=1 pmrb0=0x40 pmrb=0x1 sr=19 cfg=4 gcfg=0x0 acfg=0x8 icfg=0x30 ien=0x1 armed=1
[ACC] reads=19688 stale=19668 rderr=1 ax=56 ay=-22 az=1123
[PWR] pm=0x1 drift=0 rderr=0
[DWT] ok=1 cyc=405006566 cyc_per_ms=799977
[HB] up_ms=436566 frames=19735 inf=19735 hazard=327 canary_err=0 q=0 qovr=0
[I2C] init=0 gate=0 whoami=0x140e0 wr=0 wrseen=0x27 addr=0x5a ok=121925 err=1 tmo=0 recov=0 pclk1=200000000 sysclk=400000000
[NAK] nacks=1
[CLK] cpu=800000000 sysb=400000000 pclk1=200000000
[TOF] res=0 step=0 id=0xeacc blk=0xeacc10 ctl=0x0
[RNG] init=0 step=99 id=0xeacc boot=1 calls=93 xerr=0 dm=1 tb=15
[RNG] osc=41 imp=881 imprb=881 mstart=0x40 cfg=91 cfgfail=0x0 vhv=0 vpolls=0
[PRT] calls=79061 xerr=0 ler=1 lidx=0x0 perr=0 maxcnt=17 addr8=0x52
[RTY] wr=0 wmax=0 wref=0  rd=0 rmax=0 rref=0
[RNG] frames=19737 last=39 min=12 max=159 nrdy=0 dxfer=0 dstat=0 lst=0 nrdyerr=0 dclr=0
[DRV] init=0 id=7 mode=0x1 lib=0x2 seq=0x1 odc=0x8b sts=0xe0 armed=1
[TRG] pulses=232 suppressed=95 cyc=1600 rst=1 rstmode=0x40
[HLT] polls=394 faults=0x0 cfglost=0
[EFF] n=5 last=58555 min=58548 max=58555 late=0 stuck=0 rderr=0
[IMU] init=0 addr=0x68 who=0x68 rst=1 pmrb0=0x40 pmrb=0x1 sr=19 cfg=4 gcfg=0x0 acfg=0x8 icfg=0x30 ien=0x1 armed=1
[ACC] reads=19738 stale=19718 rderr=1 ax=53 ay=-21 az=1124
[PWR] pm=0x1 drift=0 rderr=0
[DWT] ok=1 cyc=1286494306 cyc_per_ms=799898
[HB] up_ms=437668 frames=19785 inf=19785 hazard=328 canary_err=0 q=0 qovr=0
[I2C] init=0 gate=0 whoami=0x140e0 wr=0 wrseen=0x27 addr=0x5a ok=122227 err=1 tmo=0 recov=0 pclk1=200000000 sysclk=400000000
[NAK] nacks=1
[CLK] cpu=800000000 sysb=400000000 pclk1=200000000
[TOF] res=0 step=0 id=0xeacc blk=0xeacc10 ctl=0x0
[RNG] init=0 step=99 id=0xeacc boot=1 calls=93 xerr=0 dm=1 tb=15
[RNG] osc=41 imp=881 imprb=881 mstart=0x40 cfg=91 cfgfail=0x0 vhv=0 vpolls=0
[PRT] calls=79261 xerr=0 ler=1 lidx=0x0 perr=0 maxcnt=17 addr8=0x52
[RTY] wr=0 wmax=0 wref=0  rd=0 rmax=0 rref=0
[RNG] frames=19787 last=47 min=12 max=159 nrdy=0 dxfer=0 dstat=0 lst=0 nrdyerr=0 dclr=0
[DRV] init=0 id=7 mode=0x1 lib=0x2 seq=0x1 odc=0x8b sts=0xe0 armed=1
[TRG] pulses=233 suppressed=95 cyc=1600 rst=1 rstmode=0x40
[HLT] polls=395 faults=0x0 cfglost=0
[EFF] n=5 last=58555 min=58548 max=58555 late=0 stuck=0 rderr=0
[IMU] init=0 addr=0x68 who=0x68 rst=1 pmrb0=0x40 pmrb=0x1 sr=19 cfg=4 gcfg=0x0 acfg=0x8 icfg=0x30 ien=0x1 armed=1
[ACC] reads=19788 stale=19767 rderr=1 ax=50 ay=-18 az=1124
[PWR] pm=0x1 drift=1 rderr=0
[DWT] ok=1 cyc=2168094210 cyc_per_ms=799999
[HB] up_ms=438770 frames=19835 inf=19835 hazard=328 canary_err=0 q=0 qovr=0
[I2C] init=0 gate=0 whoami=0x140e0 wr=0 wrseen=0x27 addr=0x5a ok=122529 err=1 tmo=0 recov=0 pclk1=200000000 sysclk=400000000
[NAK] nacks=1
[CLK] cpu=800000000 sysb=400000000 pclk1=200000000
[TOF] res=0 step=0 id=0xeacc blk=0xeacc10 ctl=0x0
[RNG] init=0 step=99 id=0xeacc boot=1 calls=93 xerr=0 dm=1 tb=15
[RNG] osc=41 imp=881 imprb=881 mstart=0x40 cfg=91 cfgfail=0x0 vhv=0 vpolls=0
[PRT] calls=79461 xerr=0 ler=1 lidx=0x0 perr=0 maxcnt=17 addr8=0x52
[RTY] wr=0 wmax=0 wref=0  rd=0 rmax=0 rref=0
[RNG] frames=19837 last=44 min=12 max=159 nrdy=0 dxfer=0 dstat=0 lst=0 nrdyerr=0 dclr=0
[DRV] init=0 id=7 mode=0x1 lib=0x2 seq=0x1 odc=0x8b sts=0xe0 armed=1
[TRG] pulses=233 suppressed=95 cyc=1600 rst=1 rstmode=0x40
[HLT] polls=396 faults=0x0 cfglost=0
[EFF] n=5 last=58555 min=58548 max=58555 late=0 stuck=0 rderr=0
[IMU] init=0 addr=0x68 who=0x68 rst=1 pmrb0=0x40 pmrb=0x1 sr=19 cfg=4 gcfg=0x0 acfg=0x8 icfg=0x30 ien=0x1 armed=1
[ACC] reads=19838 stale=19817 rderr=1 ax=55 ay=-22 az=1125
[PWR] pm=0x1 drift=1 rderr=0
[DWT] ok=1 cyc=3049694254 cyc_per_ms=800000
[HB] up_ms=439872 frames=19885 inf=19885 hazard=328 canary_err=0 q=0 qovr=0
[I2C] init=0 gate=0 whoami=0x140e0 wr=0 wrseen=0x27 addr=0x5a ok=122831 err=1 tmo=0 recov=0 pclk1=200000000 sysclk=400000000
[NAK] nacks=1
[CLK] cpu=800000000 sysb=400000000 pclk1=200000000
[TOF] res=0 step=0 id=0xeacc blk=0xeacc10 ctl=0x0
[RNG] init=0 step=99 id=0xeacc boot=1 calls=93 xerr=0 dm=1 tb=15
[RNG] osc=41 imp=881 imprb=881 mstart=0x40 cfg=91 cfgfail=0x0 vhv=0 vpolls=0
[PRT] calls=79661 xerr=0 ler=1 lidx=0x0 perr=0 maxcnt=17 addr8=0x52
[RTY] wr=0 wmax=0 wref=0  rd=0 rmax=0 rref=0
[RNG] frames=19887 last=37 min=12 max=159 nrdy=0 dxfer=0 dstat=0 lst=0 nrdyerr=0 dclr=0
[DRV] init=0 id=7 mode=0x1 lib=0x2 seq=0x1 odc=0x8b sts=0xe0 armed=1
[TRG] pulses=233 suppressed=95 cyc=1600 rst=1 rstmode=0x40
[HLT] polls=397 faults=0x0 cfglost=0
[EFF] n=5 last=58555 min=58548 max=58555 late=0 stuck=0 rderr=0
[IMU] init=0 addr=0x68 who=0x68 rst=1 pmrb0=0x40 pmrb=0x1 sr=19 cfg=4 gcfg=0x0 acfg=0x8 icfg=0x30 ien=0x1 armed=1
[ACC] reads=19888 stale=19867 rderr=1 ax=54 ay=-22 az=1123
[PWR] pm=0x1 drift=1 rderr=0
[DWT] ok=1 cyc=3931294342 cyc_per_ms=800000
[HB] up_ms=440974 frames=19935 inf=19935 hazard=328 canary_err=0 q=0 qovr=0
[I2C] init=0 gate=0 whoami=0x140e0 wr=0 wrseen=0x27 addr=0x5a ok=123133 err=1 tmo=0 recov=0 pclk1=200000000 sysclk=400000000
[NAK] nacks=1
[CLK] cpu=800000000 sysb=400000000 pclk1=200000000
[TOF] res=0 step=0 id=0xeacc blk=0xeacc10 ctl=0x0
[RNG] init=0 step=99 id=0xeacc boot=1 calls=93 xerr=0 dm=1 tb=15
[RNG] osc=41 imp=881 imprb=881 mstart=0x40 cfg=91 cfgfail=0x0 vhv=0 vpolls=0
[PRT] calls=79861 xerr=0 ler=1 lidx=0x0 perr=0 maxcnt=17 addr8=0x52
[RTY] wr=0 wmax=0 wref=0  rd=0 rmax=0 rref=0
[RNG] frames=19937 last=37 min=12 max=159 nrdy=0 dxfer=0 dstat=0 lst=0 nrdyerr=0 dclr=0
[DRV] init=0 id=7 mode=0x1 lib=0x2 seq=0x1 odc=0x8b sts=0xe0 armed=1
[TRG] pulses=233 suppressed=95 cyc=1600 rst=1 rstmode=0x40
[HLT] polls=398 faults=0x0 cfglost=0
[EFF] n=5 last=58555 min=58548 max=58555 late=0 stuck=0 rderr=0
[IMU] init=0 addr=0x68 who=0x68 rst=1 pmrb0=0x40 pmrb=0x1 sr=19 cfg=4 gcfg=0x0 acfg=0x8 icfg=0x30 ien=0x1 armed=1
[ACC] reads=19938 stale=19917 rderr=1 ax=54 ay=-19 az=1120
[PWR] pm=0x1 drift=1 rderr=0
[DWT] ok=1 cyc=517927166 cyc_per_ms=800000
[HB] up_ms=442076 frames=19985 inf=19985 hazard=329 canary_err=0 q=0 qovr=0
[I2C] init=0 gate=0 whoami=0x140e0 wr=0 wrseen=0x27 addr=0x5a ok=123435 err=1 tmo=0 recov=0 pclk1=200000000 sysclk=400000000
[NAK] nacks=1
[CLK] cpu=800000000 sysb=400000000 pclk1=200000000
[TOF] res=0 step=0 id=0xeacc blk=0xeacc10 ctl=0x0
[RNG] init=0 step=99 id=0xeacc boot=1 calls=93 xerr=0 dm=1 tb=15
[RNG] osc=41 imp=881 imprb=881 mstart=0x40 cfg=91 cfgfail=0x0 vhv=0 vpolls=0
[PRT] calls=80057 xerr=0 ler=1 lidx=0x0 perr=0 maxcnt=17 addr8=0x52
[RTY] wr=0 wmax=0 wref=0  rd=0 rmax=0 rref=0
[RNG] frames=19987 last=35 min=12 max=159 nrdy=0 dxfer=0 dstat=0 lst=0 nrdyerr=0 dclr=0
[DRV] init=0 id=7 mode=0x1 lib=0x2 seq=0x1 odc=0x8b sts=0xe0 armed=1
[TRG] pulses=234 suppressed=95 cyc=1600 rst=1 rstmode=0x40
[HLT] polls=399 faults=0x0 cfglost=0
[EFF] n=5 last=58555 min=58548 max=58555 late=0 stuck=0 rderr=0
[IMU] init=0 addr=0x68 who=0x68 rst=1 pmrb0=0x40 pmrb=0x1 sr=19 cfg=4 gcfg=0x0 acfg=0x8 icfg=0x30 ien=0x1 armed=1
[ACC] reads=19988 stale=19966 rderr=1 ax=55 ay=-21 az=1125
[PWR] pm=0x1 drift=1 rderr=0
[DWT] ok=1 cyc=1399526926 cyc_per_ms=799999
[HB] up_ms=443178 frames=20035 inf=20035 hazard=329 canary_err=0 q=0 qovr=0
[I2C] init=0 gate=0 whoami=0x140e0 wr=0 wrseen=0x27 addr=0x5a ok=123737 err=1 tmo=0 recov=0 pclk1=200000000 sysclk=400000000
[NAK] nacks=1
[CLK] cpu=800000000 sysb=400000000 pclk1=200000000
[TOF] res=0 step=0 id=0xeacc blk=0xeacc10 ctl=0x0
[RNG] init=0 step=99 id=0xeacc boot=1 calls=93 xerr=0 dm=1 tb=15
[RNG] osc=41 imp=881 imprb=881 mstart=0x40 cfg=91 cfgfail=0x0 vhv=0 vpolls=0
[PRT] calls=80257 xerr=0 ler=1 lidx=0x0 perr=0 maxcnt=17 addr8=0x52
[RTY] wr=0 wmax=0 wref=0  rd=0 rmax=0 rref=0
[RNG] frames=20037 last=27 min=12 max=159 nrdy=0 dxfer=0 dstat=0 lst=0 nrdyerr=0 dclr=0
[DRV] init=0 id=7 mode=0x1 lib=0x2 seq=0x1 odc=0x8b sts=0xe0 armed=1
[TRG] pulses=234 suppressed=95 cyc=1600 rst=1 rstmode=0x40
[HLT] polls=400 faults=0x0 cfglost=0
[EFF] n=5 last=58555 min=58548 max=58555 late=0 stuck=0 rderr=0
[IMU] init=0 addr=0x68 who=0x68 rst=1 pmrb0=0x40 pmrb=0x1 sr=19 cfg=4 gcfg=0x0 acfg=0x8 icfg=0x30 ien=0x1 armed=1
[ACC] reads=20037 stale=20015 rderr=1 ax=54 ay=-20 az=1121
[PWR] pm=0x1 drift=1 rderr=0
[DWT] ok=1 cyc=2281126934 cyc_per_ms=800000
[HB] up_ms=444280 frames=20084 inf=20084 hazard=329 canary_err=0 q=0 qovr=0
[I2C] init=0 gate=0 whoami=0x140e0 wr=0 wrseen=0x27 addr=0x5a ok=124039 err=1 tmo=0 recov=0 pclk1=200000000 sysclk=400000000
[NAK] nacks=1
[CLK] cpu=800000000 sysb=400000000 pclk1=200000000
[TOF] res=0 step=0 id=0xeacc blk=0xeacc10 ctl=0x0
[RNG] init=0 step=99 id=0xeacc boot=1 calls=93 xerr=0 dm=1 tb=15
[RNG] osc=41 imp=881 imprb=881 mstart=0x40 cfg=91 cfgfail=0x0 vhv=0 vpolls=0
[PRT] calls=80457 xerr=0 ler=1 lidx=0x0 perr=0 maxcnt=17 addr8=0x52
[RTY] wr=0 wmax=0 wref=0  rd=0 rmax=0 rref=0
[RNG] frames=20087 last=38 min=12 max=159 nrdy=0 dxfer=0 dstat=0 lst=0 nrdyerr=0 dclr=0
[DRV] init=0 id=7 mode=0x1 lib=0x2 seq=0x1 odc=0x8b sts=0xe0 armed=1
[TRG] pulses=234 suppressed=95 cyc=1600 rst=1 rstmode=0x40
[HLT] polls=401 faults=0x0 cfglost=0
[EFF] n=5 last=58555 min=58548 max=58555 late=0 stuck=0 rderr=0
[IMU] init=0 addr=0x68 who=0x68 rst=1 pmrb0=0x40 pmrb=0x1 sr=19 cfg=4 gcfg=0x0 acfg=0x8 icfg=0x30 ien=0x1 armed=1
[ACC] reads=20087 stale=20065 rderr=1 ax=54 ay=-21 az=1119
[PWR] pm=0x1 drift=1 rderr=0
[DWT] ok=1 cyc=3162862802 cyc_per_ms=800123
[HB] up_ms=445382 frames=20134 inf=20134 hazard=332 canary_err=0 q=0 qovr=0
[I2C] init=0 gate=0 whoami=0x140e0 wr=0 wrseen=0x27 addr=0x5a ok=124341 err=1 tmo=0 recov=0 pclk1=200000000 sysclk=400000000
[NAK] nacks=1
[CLK] cpu=800000000 sysb=400000000 pclk1=200000000
[TOF] res=0 step=0 id=0xeacc blk=0xeacc10 ctl=0x0
[RNG] init=0 step=99 id=0xeacc boot=1 calls=93 xerr=0 dm=1 tb=15
[RNG] osc=41 imp=881 imprb=881 mstart=0x40 cfg=91 cfgfail=0x0 vhv=0 vpolls=0
[PRT] calls=80657 xerr=0 ler=1 lidx=0x0 perr=0 maxcnt=17 addr8=0x52
[RTY] wr=0 wmax=0 wref=0  rd=0 rmax=0 rref=0
[RNG] frames=20137 last=39 min=12 max=159 nrdy=0 dxfer=0 dstat=0 lst=0 nrdyerr=0 dclr=0
[DRV] init=0 id=7 mode=0x1 lib=0x2 seq=0x1 odc=0x8b sts=0xe0 armed=1
[TRG] pulses=236 suppressed=96 cyc=1600 rst=1 rstmode=0x40
[HLT] polls=402 faults=0x0 cfglost=0
[EFF] n=5 last=58555 min=58548 max=58555 late=0 stuck=0 rderr=0
[IMU] init=0 addr=0x68 who=0x68 rst=1 pmrb0=0x40 pmrb=0x1 sr=19 cfg=4 gcfg=0x0 acfg=0x8 icfg=0x30 ien=0x1 armed=1
[ACC] reads=20137 stale=20115 rderr=1 ax=55 ay=-19 az=1125
[PWR] pm=0x1 drift=1 rderr=0
[DWT] ok=1 cyc=4044463710 cyc_per_ms=800000
[HB] up_ms=446484 frames=20184 inf=20184 hazard=332 canary_err=0 q=0 qovr=0
[I2C] init=0 gate=0 whoami=0x140e0 wr=0 wrseen=0x27 addr=0x5a ok=124639 err=1 tmo=0 recov=0 pclk1=200000000 sysclk=400000000
[NAK] nacks=1
[CLK] cpu=800000000 sysb=400000000 pclk1=200000000
[TOF] res=0 step=0 id=0xeacc blk=0xeacc10 ctl=0x0
[RNG] init=0 step=99 id=0xeacc boot=1 calls=93 xerr=0 dm=1 tb=15
[RNG] osc=41 imp=881 imprb=881 mstart=0x40 cfg=91 cfgfail=0x0 vhv=0 vpolls=0
[PRT] calls=80857 xerr=0 ler=1 lidx=0x0 perr=0 maxcnt=17 addr8=0x52
[RTY] wr=0 wmax=0 wref=0  rd=0 rmax=0 rref=0
[RNG] frames=20186 last=33 min=12 max=159 nrdy=0 dxfer=0 dstat=0 lst=0 nrdyerr=0 dclr=0
[DRV] init=0 id=7 mode=0x1 lib=0x2 seq=0x1 odc=0x8b sts=0xe0 armed=1
[TRG] pulses=236 suppressed=96 cyc=1600 rst=1 rstmode=0x40
[HLT] polls=403 faults=0x0 cfglost=0
[EFF] n=5 last=58555 min=58548 max=58555 late=0 stuck=0 rderr=0
[IMU] init=0 addr=0x68 who=0x68 rst=1 pmrb0=0x40 pmrb=0x1 sr=19 cfg=4 gcfg=0x0 acfg=0x8 icfg=0x30 ien=0x1 armed=1
[ACC] reads=20187 stale=20165 rderr=1 ax=55 ay=-21 az=1125
[PWR] pm=0x1 drift=1 rderr=0
[DWT] ok=1 cyc=630959750 cyc_per_ms=799875
[HB] up_ms=447586 frames=20234 inf=20234 hazard=332 canary_err=0 q=0 qovr=0
[I2C] init=0 gate=0 whoami=0x140e0 wr=0 wrseen=0x27 addr=0x5a ok=124939 err=1 tmo=0 recov=0 pclk1=200000000 sysclk=400000000
[NAK] nacks=1
[CLK] cpu=800000000 sysb=400000000 pclk1=200000000
[TOF] res=0 step=0 id=0xeacc blk=0xeacc10 ctl=0x0
[RNG] init=0 step=99 id=0xeacc boot=1 calls=93 xerr=0 dm=1 tb=15
[RNG] osc=41 imp=881 imprb=881 mstart=0x40 cfg=91 cfgfail=0x0 vhv=0 vpolls=0
[PRT] calls=81057 xerr=0 ler=1 lidx=0x0 perr=0 maxcnt=17 addr8=0x52
[RTY] wr=0 wmax=0 wref=0  rd=0 rmax=0 rref=0
[RNG] frames=20236 last=38 min=12 max=159 nrdy=0 dxfer=0 dstat=0 lst=0 nrdyerr=0 dclr=0
[DRV] init=0 id=7 mode=0x1 lib=0x2 seq=0x1 odc=0x8b sts=0xe0 armed=1
[TRG] pulses=236 suppressed=96 cyc=1600 rst=1 rstmode=0x40
[HLT] polls=404 faults=0x0 cfglost=0
[EFF] n=5 last=58555 min=58548 max=58555 late=0 stuck=0 rderr=0
[IMU] init=0 addr=0x68 who=0x68 rst=1 pmrb0=0x40 pmrb=0x1 sr=19 cfg=4 gcfg=0x0 acfg=0x8 icfg=0x30 ien=0x1 armed=1
[ACC] reads=20237 stale=20215 rderr=1 ax=55 ay=-21 az=1125
[PWR] pm=0x1 drift=1 rderr=0
[DWT] ok=1 cyc=1512559818 cyc_per_ms=800000
[HB] up_ms=448688 frames=20284 inf=20284 hazard=333 canary_err=0 q=0 qovr=0
[I2C] init=0 gate=0 whoami=0x140e0 wr=0 wrseen=0x27 addr=0x5a ok=125241 err=1 tmo=0 recov=0 pclk1=200000000 sysclk=400000000
[NAK] nacks=1
[CLK] cpu=800000000 sysb=400000000 pclk1=200000000
[TOF] res=0 step=0 id=0xeacc blk=0xeacc10 ctl=0x0
[RNG] init=0 step=99 id=0xeacc boot=1 calls=93 xerr=0 dm=1 tb=15
[RNG] osc=41 imp=881 imprb=881 mstart=0x40 cfg=91 cfgfail=0x0 vhv=0 vpolls=0
[PRT] calls=81257 xerr=0 ler=1 lidx=0x0 perr=0 maxcnt=17 addr8=0x52
[RTY] wr=0 wmax=0 wref=0  rd=0 rmax=0 rref=0
[RNG] frames=20286 last=41 min=12 max=159 nrdy=0 dxfer=0 dstat=0 lst=0 nrdyerr=0 dclr=0
[DRV] init=0 id=7 mode=0x1 lib=0x2 seq=0x1 odc=0x8b sts=0xe0 armed=1
[TRG] pulses=237 suppressed=96 cyc=1600 rst=1 rstmode=0x40
[HLT] polls=405 faults=0x0 cfglost=0
[EFF] n=5 last=58555 min=58548 max=58555 late=0 stuck=0 rderr=0
[IMU] init=0 addr=0x68 who=0x68 rst=1 pmrb0=0x40 pmrb=0x1 sr=19 cfg=4 gcfg=0x0 acfg=0x8 icfg=0x30 ien=0x1 armed=1
[ACC] reads=20287 stale=20265 rderr=1 ax=54 ay=-18 az=1121
[PWR] pm=0x1 drift=1 rderr=0
[DWT] ok=1 cyc=2394159722 cyc_per_ms=799999
[HB] up_ms=449790 frames=20334 inf=20334 hazard=333 canary_err=0 q=0 qovr=0
[I2C] init=0 gate=0 whoami=0x140e0 wr=0 wrseen=0x27 addr=0x5a ok=125543 err=1 tmo=0 recov=0 pclk1=200000000 sysclk=400000000
[NAK] nacks=1
[CLK] cpu=800000000 sysb=400000000 pclk1=200000000
[TOF] res=0 step=0 id=0xeacc blk=0xeacc10 ctl=0x0
[RNG] init=0 step=99 id=0xeacc boot=1 calls=93 xerr=0 dm=1 tb=15
[RNG] osc=41 imp=881 imprb=881 mstart=0x40 cfg=91 cfgfail=0x0 vhv=0 vpolls=0
[PRT] calls=81457 xerr=0 ler=1 lidx=0x0 perr=0 maxcnt=17 addr8=0x52
[RTY] wr=0 wmax=0 wref=0  rd=0 rmax=0 rref=0
[RNG] frames=20336 last=39 min=12 max=159 nrdy=0 dxfer=0 dstat=0 lst=0 nrdyerr=0 dclr=0
[DRV] init=0 id=7 mode=0x1 lib=0x2 seq=0x1 odc=0x8b sts=0xe0 armed=1
[TRG] pulses=237 suppressed=96 cyc=1600 rst=1 rstmode=0x40
[HLT] polls=406 faults=0x0 cfglost=0
[EFF] n=5 last=58555 min=58548 max=58555 late=0 stuck=0 rderr=0
[IMU] init=0 addr=0x68 who=0x68 rst=1 pmrb0=0x40 pmrb=0x1 sr=19 cfg=4 gcfg=0x0 acfg=0x8 icfg=0x30 ien=0x1 armed=1
[ACC] reads=20337 stale=20315 rderr=1 ax=54 ay=-21 az=1120
[PWR] pm=0x1 drift=1 rderr=0
[DWT] ok=1 cyc=3275759622 cyc_per_ms=799999
[HB] up_ms=450892 frames=20384 inf=20384 hazard=335 canary_err=0 q=0 qovr=0
[I2C] init=0 gate=0 whoami=0x140e0 wr=0 wrseen=0x27 addr=0x5a ok=125845 err=1 tmo=0 recov=0 pclk1=200000000 sysclk=400000000
[NAK] nacks=1
[CLK] cpu=800000000 sysb=400000000 pclk1=200000000
[TOF] res=0 step=0 id=0xeacc blk=0xeacc10 ctl=0x0
[RNG] init=0 step=99 id=0xeacc boot=1 calls=93 xerr=0 dm=1 tb=15
[RNG] osc=41 imp=881 imprb=881 mstart=0x40 cfg=91 cfgfail=0x0 vhv=0 vpolls=0
[PRT] calls=81657 xerr=0 ler=1 lidx=0x0 perr=0 maxcnt=17 addr8=0x52
[RTY] wr=0 wmax=0 wref=0  rd=0 rmax=0 rref=0
[RNG] frames=20386 last=33 min=12 max=159 nrdy=0 dxfer=0 dstat=0 lst=0 nrdyerr=0 dclr=0
[DRV] init=0 id=7 mode=0x1 lib=0x2 seq=0x1 odc=0x8b sts=0xe0 armed=1
[TRG] pulses=238 suppressed=97 cyc=1600 rst=1 rstmode=0x40
[HLT] polls=407 faults=0x0 cfglost=0
[EFF] n=5 last=58555 min=58548 max=58555 late=0 stuck=0 rderr=0
[IMU] init=0 addr=0x68 who=0x68 rst=1 pmrb0=0x40 pmrb=0x1 sr=19 cfg=4 gcfg=0x0 acfg=0x8 icfg=0x30 ien=0x1 armed=1
[ACC] reads=20387 stale=20364 rderr=1 ax=54 ay=-20 az=1123
[PWR] pm=0x1 drift=1 rderr=0
[DWT] ok=1 cyc=4157359714 cyc_per_ms=800000
[HB] up_ms=451994 frames=20434 inf=20434 hazard=336 canary_err=0 q=0 qovr=0
[I2C] init=0 gate=0 whoami=0x140e0 wr=0 wrseen=0x27 addr=0x5a ok=126147 err=1 tmo=0 recov=0 pclk1=200000000 sysclk=400000000
[NAK] nacks=1
[CLK] cpu=800000000 sysb=400000000 pclk1=200000000
[TOF] res=0 step=0 id=0xeacc blk=0xeacc10 ctl=0x0
[RNG] init=0 step=99 id=0xeacc boot=1 calls=93 xerr=0 dm=1 tb=15
[RNG] osc=41 imp=881 imprb=881 mstart=0x40 cfg=91 cfgfail=0x0 vhv=0 vpolls=0
[PRT] calls=81856 xerr=0 ler=1 lidx=0x0 perr=0 maxcnt=17 addr8=0x52
[RTY] wr=0 wmax=0 wref=0  rd=0 rmax=0 rref=0
[RNG] frames=20436 last=32 min=12 max=159 nrdy=0 dxfer=0 dstat=0 lst=0 nrdyerr=0 dclr=0
[DRV] init=0 id=7 mode=0x1 lib=0x2 seq=0x1 odc=0x8b sts=0xe0 armed=1
[TRG] pulses=239 suppressed=97 cyc=1600 rst=1 rstmode=0x40
[HLT] polls=408 faults=0x0 cfglost=0
[EFF] n=5 last=58555 min=58548 max=58555 late=0 stuck=0 rderr=0
[IMU] init=0 addr=0x68 who=0x68 rst=1 pmrb0=0x40 pmrb=0x1 sr=19 cfg=4 gcfg=0x0 acfg=0x8 icfg=0x30 ien=0x1 armed=1
[ACC] reads=20437 stale=20414 rderr=1 ax=55 ay=-20 az=1126
[PWR] pm=0x1 drift=1 rderr=0
[DWT] ok=1 cyc=743992306 cyc_per_ms=799999
[HB] up_ms=453096 frames=20484 inf=20484 hazard=336 canary_err=0 q=0 qovr=0
[I2C] init=0 gate=0 whoami=0x140e0 wr=0 wrseen=0x27 addr=0x5a ok=126449 err=1 tmo=0 recov=0 pclk1=200000000 sysclk=400000000
[NAK] nacks=1
[CLK] cpu=800000000 sysb=400000000 pclk1=200000000
[TOF] res=0 step=0 id=0xeacc blk=0xeacc10 ctl=0x0
[RNG] init=0 step=99 id=0xeacc boot=1 calls=93 xerr=0 dm=1 tb=15
[RNG] osc=41 imp=881 imprb=881 mstart=0x40 cfg=91 cfgfail=0x0 vhv=0 vpolls=0
[PRT] calls=82053 xerr=0 ler=1 lidx=0x0 perr=0 maxcnt=17 addr8=0x52
[RTY] wr=0 wmax=0 wref=0  rd=0 rmax=0 rref=0
[RNG] frames=20486 last=37 min=12 max=159 nrdy=0 dxfer=0 dstat=0 lst=0 nrdyerr=0 dclr=0
[DRV] init=0 id=7 mode=0x1 lib=0x2 seq=0x1 odc=0x8b sts=0xe0 armed=1
[TRG] pulses=239 suppressed=97 cyc=1600 rst=1 rstmode=0x40
[HLT] polls=409 faults=0x0 cfglost=0
[EFF] n=5 last=58555 min=58548 max=58555 late=0 stuck=0 rderr=0
