1788557450.295392 [HB] up_ms=3576 frames=139 inf=139 hazard=19 canary_err=0 q=0 qovr=0
1788557450.306492 [I2C] init=0 gate=0 whoami=0x201e0 wr=0 wrseen=0x27 addr=0x5a ok=2010 err=0 tmo=0 recov=0 pclk1=200000000 sysclk=400000000
1788557450.307850 [NAK] nacks=0
1788557450.312490 [CLK] cpu=800000000 sysb=400000000 pclk1=200000000
1788557450.316988 [TOF] res=0 step=0 id=0xeacc blk=0xeacc10 ctl=0x0
1788557450.323005 [RNG] init=0 step=99 id=0xeacc boot=1 calls=93 xerr=0 dm=1 tb=15
1788557450.329861 [RNG] osc=41 imp=881 imprb=881 mstart=0x40 cfg=91 cfgfail=0x0 vhv=0 vpolls=0
1788557450.335726 [PRT] calls=677 xerr=0 ler=1 lidx=0x0 perr=0 maxcnt=17 addr8=0x52
1788557450.339856 [RTY] wr=0 wmax=0 wref=0  rd=0 rmax=0 rref=0
1788557450.347605 [RNG] frames=141 last=67 min=53 max=69 nrdy=0 dxfer=0 dstat=0 lst=0 nrdyerr=0 dclr=0
1788557450.353848 [DRV] init=0 id=7 mode=0x1 lib=0x2 seq=0x1 odc=0x8b sts=0xe0 armed=1
1788557450.358974 [TRG] pulses=2 suppressed=20 cyc=1600 rst=1 rstmode=0x40
1788557450.362130 [HLT] polls=2 faults=0x0 cfglost=0
1788557450.368133 [EFF] n=2 last=58512 min=58512 max=58515 late=0 stuck=0 rderr=0
1788557450.378238 [IMU] init=0 addr=0x68 who=0x68 rst=1 pmrb0=0x40 pmrb=0x1 sr=19 cfg=4 gcfg=0x0 acfg=0x8 icfg=0x30 ien=0x1 armed=1
1788557450.383224 [ACC] reads=143 stale=143 rderr=0 ax=55 ay=-69 az=1127
1788557450.385866 [PWR] pm=0x1 drift=0 rderr=0
1788557450.389987 [DWT] ok=1 cyc=2785279339 cyc_per_ms=804683
1788557451.404359 [HB] up_ms=4676 frames=184 inf=184 hazard=41 canary_err=0 q=0 qovr=0
1788557451.415503 [I2C] init=0 gate=0 whoami=0x201e0 wr=0 wrseen=0x27 addr=0x5a ok=3292 err=0 tmo=0 recov=0 pclk1=200000000 sysclk=400000000
1788557451.416847 [NAK] nacks=0
1788557451.421491 [CLK] cpu=800000000 sysb=400000000 pclk1=200000000
1788557451.426007 [TOF] res=0 step=0 id=0xeacc blk=0xeacc10 ctl=0x0
1788557451.431723 [RNG] init=0 step=99 id=0xeacc boot=1 calls=93 xerr=0 dm=1 tb=15
1788557451.438737 [RNG] osc=41 imp=881 imprb=881 mstart=0x40 cfg=91 cfgfail=0x0 vhv=0 vpolls=0
1788557451.444735 [PRT] calls=855 xerr=0 ler=1 lidx=0x0 perr=0 maxcnt=17 addr8=0x52
1788557451.448853 [RTY] wr=0 wmax=0 wref=0  rd=0 rmax=0 rref=0
1788557451.456492 [RNG] frames=186 last=64 min=53 max=70 nrdy=0 dxfer=0 dstat=0 lst=0 nrdyerr=0 dclr=0
1788557451.462729 [DRV] init=0 id=7 mode=0x1 lib=0x2 seq=0x1 odc=0x8b sts=0xe0 armed=1
1788557451.467846 [TRG] pulses=4 suppressed=37 cyc=1600 rst=1 rstmode=0x40
1788557451.471117 [HLT] polls=3 faults=0x0 cfglost=0
1788557451.476989 [EFF] n=4 last=58504 min=58450 max=58515 late=0 stuck=0 rderr=0
1788557451.487221 [IMU] init=0 addr=0x68 who=0x68 rst=1 pmrb0=0x40 pmrb=0x1 sr=19 cfg=4 gcfg=0x0 acfg=0x8 icfg=0x30 ien=0x1 armed=1
1788557451.492135 [ACC] reads=188 stale=188 rderr=0 ax=55 ay=-69 az=1125
1788557451.494727 [PWR] pm=0x1 drift=0 rderr=0
1788557451.498716 [DWT] ok=1 cyc=3665275659 cyc_per_ms=799996
1788557452.513348 [HB] up_ms=5776 frames=234 inf=234 hazard=41 canary_err=0 q=0 qovr=0
1788557452.525527 [I2C] init=0 gate=0 whoami=0x201e0 wr=0 wrseen=0x27 addr=0x5a ok=3594 err=0 tmo=0 recov=0 pclk1=200000000 sysclk=400000000
1788557452.525719 [NAK] nacks=0
1788557452.530339 [CLK] cpu=800000000 sysb=400000000 pclk1=200000000
1788557452.534962 [TOF] res=0 step=0 id=0xeacc blk=0xeacc10 ctl=0x0
1788557452.540723 [RNG] init=0 step=99 id=0xeacc boot=1 calls=93 xerr=0 dm=1 tb=15
1788557452.547593 [RNG] osc=41 imp=881 imprb=881 mstart=0x40 cfg=91 cfgfail=0x0 vhv=0 vpolls=0
1788557452.553837 [PRT] calls=1053 xerr=0 ler=1 lidx=0x0 perr=0 maxcnt=17 addr8=0x52
1788557452.557967 [RTY] wr=0 wmax=0 wref=0  rd=0 rmax=0 rref=0
1788557452.565461 [RNG] frames=236 last=60 min=53 max=70 nrdy=0 dxfer=0 dstat=0 lst=0 nrdyerr=0 dclr=0
1788557452.571784 [DRV] init=0 id=7 mode=0x1 lib=0x2 seq=0x1 odc=0x8b sts=0xe0 armed=1
1788557452.576970 [TRG] pulses=4 suppressed=37 cyc=1600 rst=1 rstmode=0x40
1788557452.580214 [HLT] polls=4 faults=0x0 cfglost=0
1788557452.585959 [EFF] n=4 last=58504 min=58450 max=58515 late=0 stuck=0 rderr=0
1788557452.596107 [IMU] init=0 addr=0x68 who=0x68 rst=1 pmrb0=0x40 pmrb=0x1 sr=19 cfg=4 gcfg=0x0 acfg=0x8 icfg=0x30 ien=0x1 armed=1
1788557452.601205 [ACC] reads=237 stale=237 rderr=0 ax=55 ay=-68 az=1129
1788557452.603835 [PWR] pm=0x1 drift=0 rderr=0
1788557452.607846 [DWT] ok=1 cyc=250378251 cyc_per_ms=800063
1788557453.622858 [HB] up_ms=6876 frames=283 inf=283 hazard=41 canary_err=0 q=0 qovr=0
1788557453.633842 [I2C] init=0 gate=0 whoami=0x201e0 wr=0 wrseen=0x27 addr=0x5a ok=3896 err=0 tmo=0 recov=0 pclk1=200000000 sysclk=400000000
1788557453.635101 [NAK] nacks=0
1788557453.639764 [CLK] cpu=800000000 sysb=400000000 pclk1=200000000
1788557453.644352 [TOF] res=0 step=0 id=0xeacc blk=0xeacc10 ctl=0x0
1788557453.650210 [RNG] init=0 step=99 id=0xeacc boot=1 calls=93 xerr=0 dm=1 tb=15
1788557453.657115 [RNG] osc=41 imp=881 imprb=881 mstart=0x40 cfg=91 cfgfail=0x0 vhv=0 vpolls=0
1788557453.663104 [PRT] calls=1253 xerr=0 ler=1 lidx=0x0 perr=0 maxcnt=17 addr8=0x52
1788557453.667325 [RTY] wr=0 wmax=0 wref=0  rd=0 rmax=0 rref=0
1788557453.675271 [RNG] frames=286 last=60 min=52 max=70 nrdy=0 dxfer=0 dstat=0 lst=0 nrdyerr=0 dclr=0
1788557453.681217 [DRV] init=0 id=7 mode=0x1 lib=0x2 seq=0x1 odc=0x8b sts=0xe0 armed=1
1788557453.686328 [TRG] pulses=4 suppressed=37 cyc=1600 rst=1 rstmode=0x40
1788557453.689599 [HLT] polls=5 faults=0x0 cfglost=0
1788557453.695349 [EFF] n=4 last=58504 min=58450 max=58515 late=0 stuck=0 rderr=0
1788557453.705580 [IMU] init=0 addr=0x68 who=0x68 rst=1 pmrb0=0x40 pmrb=0x1 sr=19 cfg=4 gcfg=0x0 acfg=0x8 icfg=0x30 ien=0x1 armed=1
1788557453.710586 [ACC] reads=287 stale=287 rderr=0 ax=55 ay=-68 az=1127
1788557453.713391 [PWR] pm=0x1 drift=0 rderr=0
1788557453.717404 [DWT] ok=1 cyc=1130500499 cyc_per_ms=800111
1788557454.733200 [HB] up_ms=7977 frames=333 inf=333 hazard=41 canary_err=0 q=0 qovr=0
1788557454.744329 [I2C] init=0 gate=0 whoami=0x201e0 wr=0 wrseen=0x27 addr=0x5a ok=4192 err=0 tmo=0 recov=0 pclk1=200000000 sysclk=400000000
1788557454.745570 [NAK] nacks=0
1788557454.750195 [CLK] cpu=800000000 sysb=400000000 pclk1=200000000
1788557454.754735 [TOF] res=0 step=0 id=0xeacc blk=0xeacc10 ctl=0x0
1788557454.760701 [RNG] init=0 step=99 id=0xeacc boot=1 calls=93 xerr=0 dm=1 tb=15
1788557454.767691 [RNG] osc=41 imp=881 imprb=881 mstart=0x40 cfg=91 cfgfail=0x0 vhv=0 vpolls=0
1788557454.773719 [PRT] calls=1453 xerr=0 ler=1 lidx=0x0 perr=0 maxcnt=17 addr8=0x52
1788557454.777713 [RTY] wr=0 wmax=0 wref=0  rd=0 rmax=0 rref=0
1788557454.785572 [RNG] frames=335 last=55 min=52 max=70 nrdy=0 dxfer=0 dstat=0 lst=0 nrdyerr=0 dclr=0
1788557454.791704 [DRV] init=0 id=7 mode=0x1 lib=0x2 seq=0x1 odc=0x8b sts=0xe0 armed=1
1788557454.796821 [TRG] pulses=4 suppressed=37 cyc=1600 rst=1 rstmode=0x40
1788557454.800065 [HLT] polls=6 faults=0x0 cfglost=0
1788557454.805943 [EFF] n=4 last=58504 min=58450 max=58515 late=0 stuck=0 rderr=0
1788557454.816073 [IMU] init=0 addr=0x68 who=0x68 rst=1 pmrb0=0x40 pmrb=0x1 sr=19 cfg=4 gcfg=0x0 acfg=0x8 icfg=0x30 ien=0x1 armed=1
1788557454.821092 [ACC] reads=337 stale=337 rderr=0 ax=55 ay=-69 az=1127
1788557454.823734 [PWR] pm=0x1 drift=0 rderr=0
1788557454.827843 [DWT] ok=1 cyc=2011178383 cyc_per_ms=799889
1788557455.843447 [HB] up_ms=9078 frames=383 inf=383 hazard=41 canary_err=0 q=0 qovr=0
1788557455.854568 [I2C] init=0 gate=0 whoami=0x201e0 wr=0 wrseen=0x27 addr=0x5a ok=4494 err=0 tmo=0 recov=0 pclk1=200000000 sysclk=400000000
1788557455.855954 [NAK] nacks=0
1788557455.860629 [CLK] cpu=800000000 sysb=400000000 pclk1=200000000
1788557455.865069 [TOF] res=0 step=0 id=0xeacc blk=0xeacc10 ctl=0x0
1788557455.870939 [RNG] init=0 step=99 id=0xeacc boot=1 calls=93 xerr=0 dm=1 tb=15
1788557455.877941 [RNG] osc=41 imp=881 imprb=881 mstart=0x40 cfg=91 cfgfail=0x0 vhv=0 vpolls=0
1788557455.883952 [PRT] calls=1653 xerr=0 ler=1 lidx=0x0 perr=0 maxcnt=17 addr8=0x52
1788557455.888063 [RTY] wr=0 wmax=0 wref=0  rd=0 rmax=0 rref=0
1788557455.895819 [RNG] frames=385 last=60 min=52 max=70 nrdy=0 dxfer=0 dstat=0 lst=0 nrdyerr=0 dclr=0
1788557455.902069 [DRV] init=0 id=7 mode=0x1 lib=0x2 seq=0x1 odc=0x8b sts=0xe0 armed=1
1788557455.907279 [TRG] pulses=4 suppressed=37 cyc=1600 rst=1 rstmode=0x40
1788557455.910320 [HLT] polls=7 faults=0x0 cfglost=0
1788557455.916067 [EFF] n=4 last=58504 min=58450 max=58515 late=0 stuck=0 rderr=0
1788557455.926516 [IMU] init=0 addr=0x68 who=0x68 rst=1 pmrb0=0x40 pmrb=0x1 sr=19 cfg=4 gcfg=0x0 acfg=0x8 icfg=0x30 ien=0x1 armed=1
1788557455.931326 [ACC] reads=387 stale=387 rderr=0 ax=55 ay=-68 az=1125
1788557455.934065 [PWR] pm=0x1 drift=0 rderr=0
1788557455.937938 [DWT] ok=1 cyc=2891978395 cyc_per_ms=800000
1788557456.952318 [HB] up_ms=10178 frames=433 inf=433 hazard=41 canary_err=0 q=0 qovr=0
1788557456.963430 [I2C] init=0 gate=0 whoami=0x201e0 wr=0 wrseen=0x27 addr=0x5a ok=4796 err=0 tmo=0 recov=0 pclk1=200000000 sysclk=400000000
1788557456.964681 [NAK] nacks=0
1788557456.969305 [CLK] cpu=800000000 sysb=400000000 pclk1=200000000
1788557456.973838 [TOF] res=0 step=0 id=0xeacc blk=0xeacc10 ctl=0x0
1788557456.979689 [RNG] init=0 step=99 id=0xeacc boot=1 calls=93 xerr=0 dm=1 tb=15
1788557456.986697 [RNG] osc=41 imp=881 imprb=881 mstart=0x40 cfg=91 cfgfail=0x0 vhv=0 vpolls=0
1788557456.992711 [PRT] calls=1853 xerr=0 ler=1 lidx=0x0 perr=0 maxcnt=17 addr8=0x52
1788557456.996819 [RTY] wr=0 wmax=0 wref=0  rd=0 rmax=0 rref=0
1788557457.004436 [RNG] frames=435 last=61 min=52 max=70 nrdy=0 dxfer=0 dstat=0 lst=0 nrdyerr=0 dclr=0
1788557457.010813 [DRV] init=0 id=7 mode=0x1 lib=0x2 seq=0x1 odc=0x8b sts=0xe0 armed=1
1788557457.015932 [TRG] pulses=4 suppressed=37 cyc=1600 rst=1 rstmode=0x40
1788557457.019054 [HLT] polls=8 faults=0x0 cfglost=0
1788557457.024853 [EFF] n=4 last=58504 min=58450 max=58515 late=0 stuck=0 rderr=0
1788557457.035190 [IMU] init=0 addr=0x68 who=0x68 rst=1 pmrb0=0x40 pmrb=0x1 sr=19 cfg=4 gcfg=0x0 acfg=0x8 icfg=0x30 ien=0x1 armed=1
1788557457.040198 [ACC] reads=437 stale=437 rderr=0 ax=55 ay=-69 az=1125
1788557457.042808 [PWR] pm=0x1 drift=0 rderr=0
1788557457.046805 [DWT] ok=1 cyc=3772049045 cyc_per_ms=800064
1788557458.061704 [HB] up_ms=11278 frames=480 inf=480 hazard=81 canary_err=0 q=0 qovr=0
1788557458.072944 [I2C] init=0 gate=0 whoami=0x201e0 wr=0 wrseen=0x27 addr=0x5a ok=5587 err=0 tmo=0 recov=0 pclk1=200000000 sysclk=400000000
1788557458.075441 [NAK] nacks=0
1788557458.078804 [CLK] cpu=800000000 sysb=400000000 pclk1=200000000
1788557458.083306 [TOF] res=0 step=0 id=0xeacc blk=0xeacc10 ctl=0x0
1788557458.089248 [RNG] init=0 step=99 id=0xeacc boot=1 calls=93 xerr=0 dm=1 tb=15
1788557458.096193 [RNG] osc=41 imp=881 imprb=881 mstart=0x40 cfg=91 cfgfail=0x0 vhv=0 vpolls=0
1788557458.102187 [PRT] calls=2041 xerr=0 ler=1 lidx=0x0 perr=0 maxcnt=17 addr8=0x52
1788557458.106308 [RTY] wr=0 wmax=0 wref=0  rd=0 rmax=0 rref=0
1788557458.114046 [RNG] frames=482 last=54 min=52 max=70 nrdy=0 dxfer=0 dstat=0 lst=0 nrdyerr=0 dclr=0
1788557458.120325 [DRV] init=0 id=7 mode=0x1 lib=0x2 seq=0x1 odc=0x8b sts=0xe0 armed=1
1788557458.125468 [TRG] pulses=8 suppressed=74 cyc=1600 rst=1 rstmode=0x40
1788557458.128567 [HLT] polls=9 faults=0x0 cfglost=0
1788557458.134319 [EFF] n=5 last=58512 min=58450 max=58515 late=0 stuck=0 rderr=0
1788557458.144768 [IMU] init=0 addr=0x68 who=0x68 rst=1 pmrb0=0x40 pmrb=0x1 sr=19 cfg=4 gcfg=0x0 acfg=0x8 icfg=0x30 ien=0x1 armed=1
1788557458.149559 [ACC] reads=484 stale=484 rderr=0 ax=57 ay=-67 az=1129
1788557458.152296 [PWR] pm=0x1 drift=0 rderr=0
1788557458.156335 [DWT] ok=1 cyc=357082721 cyc_per_ms=800000
1788557459.170811 [HB] up_ms=12378 frames=530 inf=530 hazard=82 canary_err=0 q=0 qovr=0
1788557459.182057 [I2C] init=0 gate=0 whoami=0x201e0 wr=0 wrseen=0x27 addr=0x5a ok=5889 err=0 tmo=0 recov=0 pclk1=200000000 sysclk=400000000
1788557459.183295 [NAK] nacks=0
1788557459.187931 [CLK] cpu=800000000 sysb=400000000 pclk1=200000000
1788557459.192447 [TOF] res=0 step=0 id=0xeacc blk=0xeacc10 ctl=0x0
1788557459.198291 [RNG] init=0 step=99 id=0xeacc boot=1 calls=93 xerr=0 dm=1 tb=15
1788557459.205293 [RNG] osc=41 imp=881 imprb=881 mstart=0x40 cfg=91 cfgfail=0x0 vhv=0 vpolls=0
1788557459.211326 [PRT] calls=2241 xerr=0 ler=1 lidx=0x0 perr=0 maxcnt=17 addr8=0x52
1788557459.215414 [RTY] wr=0 wmax=0 wref=0  rd=0 rmax=0 rref=0
1788557459.223057 [RNG] frames=532 last=62 min=52 max=70 nrdy=0 dxfer=0 dstat=0 lst=0 nrdyerr=0 dclr=0
1788557459.229423 [DRV] init=0 id=7 mode=0x1 lib=0x2 seq=0x1 odc=0x8b sts=0xe0 armed=1
1788557459.234544 [TRG] pulses=8 suppressed=74 cyc=1600 rst=1 rstmode=0x40
1788557459.237790 [HLT] polls=10 faults=0x0 cfglost=0
1788557459.243556 [EFF] n=5 last=58512 min=58450 max=58515 late=0 stuck=0 rderr=0
1788557459.253908 [IMU] init=0 addr=0x68 who=0x68 rst=1 pmrb0=0x40 pmrb=0x1 sr=19 cfg=4 gcfg=0x0 acfg=0x8 icfg=0x30 ien=0x1 armed=1
1788557459.258791 [ACC] reads=534 stale=534 rderr=0 ax=57 ay=-69 az=1125
1788557459.261540 [PWR] pm=0x1 drift=0 rderr=0
1788557459.265427 [DWT] ok=1 cyc=1237151657 cyc_per_ms=800062
1788557460.281207 [HB] up_ms=13479 frames=580 inf=580 hazard=82 canary_err=0 q=0 qovr=0
1788557460.292218 [I2C] init=0 gate=0 whoami=0x201e0 wr=0 wrseen=0x27 addr=0x5a ok=6191 err=0 tmo=0 recov=0 pclk1=200000000 sysclk=400000000
1788557460.293660 [NAK] nacks=0
1788557460.298304 [CLK] cpu=800000000 sysb=400000000 pclk1=200000000
1788557460.302807 [TOF] res=0 step=0 id=0xeacc blk=0xeacc10 ctl=0x0
1788557460.308687 [RNG] init=0 step=99 id=0xeacc boot=1 calls=93 xerr=0 dm=1 tb=15
1788557460.315538 [RNG] osc=41 imp=881 imprb=881 mstart=0x40 cfg=91 cfgfail=0x0 vhv=0 vpolls=0
1788557460.321670 [PRT] calls=2437 xerr=0 ler=1 lidx=0x0 perr=0 maxcnt=17 addr8=0x52
1788557460.325833 [RTY] wr=0 wmax=0 wref=0  rd=0 rmax=0 rref=0
1788557460.333412 [RNG] frames=582 last=60 min=50 max=70 nrdy=0 dxfer=0 dstat=0 lst=0 nrdyerr=0 dclr=0
1788557460.339688 [DRV] init=0 id=7 mode=0x1 lib=0x2 seq=0x1 odc=0x8b sts=0xe0 armed=1
1788557460.344911 [TRG] pulses=8 suppressed=74 cyc=1600 rst=1 rstmode=0x40
1788557460.348244 [HLT] polls=11 faults=0x0 cfglost=0
1788557460.353904 [EFF] n=5 last=58512 min=58450 max=58515 late=0 stuck=0 rderr=0
1788557460.364190 [IMU] init=0 addr=0x68 who=0x68 rst=1 pmrb0=0x40 pmrb=0x1 sr=19 cfg=4 gcfg=0x0 acfg=0x8 icfg=0x30 ien=0x1 armed=1
1788557460.369196 [ACC] reads=584 stale=584 rderr=0 ax=57 ay=-67 az=1127
1788557460.371785 [PWR] pm=0x1 drift=0 rderr=0
1788557460.375806 [DWT] ok=1 cyc=2117952305 cyc_per_ms=800000
1788557461.391283 [HB] up_ms=14580 frames=630 inf=630 hazard=82 canary_err=0 q=0 qovr=0
1788557461.402275 [I2C] init=0 gate=0 whoami=0x201e0 wr=0 wrseen=0x27 addr=0x5a ok=6493 err=0 tmo=0 recov=0 pclk1=200000000 sysclk=400000000
1788557461.403650 [NAK] nacks=0
1788557461.408457 [CLK] cpu=800000000 sysb=400000000 pclk1=200000000
1788557461.412896 [TOF] res=0 step=0 id=0xeacc blk=0xeacc10 ctl=0x0
1788557461.418780 [RNG] init=0 step=99 id=0xeacc boot=1 calls=93 xerr=0 dm=1 tb=15
1788557461.425704 [RNG] osc=41 imp=881 imprb=881 mstart=0x40 cfg=91 cfgfail=0x0 vhv=0 vpolls=0
1788557461.431780 [PRT] calls=2637 xerr=0 ler=1 lidx=0x0 perr=0 maxcnt=17 addr8=0x52
1788557461.435901 [RTY] wr=0 wmax=0 wref=0  rd=0 rmax=0 rref=0
1788557461.443435 [RNG] frames=632 last=60 min=50 max=70 nrdy=0 dxfer=0 dstat=0 lst=0 nrdyerr=0 dclr=0
1788557461.449646 [DRV] init=0 id=7 mode=0x1 lib=0x2 seq=0x1 odc=0x8b sts=0xe0 armed=1
1788557461.454899 [TRG] pulses=8 suppressed=74 cyc=1600 rst=1 rstmode=0x40
1788557461.458191 [HLT] polls=12 faults=0x0 cfglost=0
1788557461.463910 [EFF] n=5 last=58512 min=58450 max=58515 late=0 stuck=0 rderr=0
1788557461.474236 [IMU] init=0 addr=0x68 who=0x68 rst=1 pmrb0=0x40 pmrb=0x1 sr=19 cfg=4 gcfg=0x0 acfg=0x8 icfg=0x30 ien=0x1 armed=1
1788557461.479283 [ACC] reads=633 stale=633 rderr=0 ax=55 ay=-70 az=1124
1788557461.481907 [PWR] pm=0x1 drift=0 rderr=0
1788557461.485896 [DWT] ok=1 cyc=2998751701 cyc_per_ms=799999
1788557462.501400 [HB] up_ms=15681 frames=679 inf=679 hazard=82 canary_err=0 q=0 qovr=0
1788557462.512334 [I2C] init=0 gate=0 whoami=0x201e0 wr=0 wrseen=0x27 addr=0x5a ok=6795 err=0 tmo=0 recov=0 pclk1=200000000 sysclk=400000000
1788557462.513659 [NAK] nacks=0
1788557462.518274 [CLK] cpu=800000000 sysb=400000000 pclk1=200000000
1788557462.522921 [TOF] res=0 step=0 id=0xeacc blk=0xeacc10 ctl=0x0
1788557462.528776 [RNG] init=0 step=99 id=0xeacc boot=1 calls=93 xerr=0 dm=1 tb=15
1788557462.535644 [RNG] osc=41 imp=881 imprb=881 mstart=0x40 cfg=91 cfgfail=0x0 vhv=0 vpolls=0
1788557462.541664 [PRT] calls=2837 xerr=0 ler=1 lidx=0x0 perr=0 maxcnt=17 addr8=0x52
1788557462.545892 [RTY] wr=0 wmax=0 wref=0  rd=0 rmax=0 rref=0
1788557462.553520 [RNG] frames=682 last=58 min=50 max=70 nrdy=0 dxfer=0 dstat=0 lst=0 nrdyerr=0 dclr=0
1788557462.559713 [DRV] init=0 id=7 mode=0x1 lib=0x2 seq=0x1 odc=0x8b sts=0xe0 armed=1
1788557462.564808 [TRG] pulses=8 suppressed=74 cyc=1600 rst=1 rstmode=0x40
1788557462.568263 [HLT] polls=13 faults=0x0 cfglost=0
1788557462.574029 [EFF] n=5 last=58512 min=58450 max=58515 late=0 stuck=0 rderr=0
1788557462.584175 [IMU] init=0 addr=0x68 who=0x68 rst=1 pmrb0=0x40 pmrb=0x1 sr=19 cfg=4 gcfg=0x0 acfg=0x8 icfg=0x30 ien=0x1 armed=1
1788557462.589183 [ACC] reads=683 stale=683 rderr=0 ax=55 ay=-69 az=1130
1788557462.591911 [PWR] pm=0x1 drift=0 rderr=0
1788557462.595891 [DWT] ok=1 cyc=3879685695 cyc_per_ms=800121
1788557463.611638 [HB] up_ms=16782 frames=729 inf=729 hazard=82 canary_err=0 q=0 qovr=0
1788557463.622637 [I2C] init=0 gate=0 whoami=0x201e0 wr=0 wrseen=0x27 addr=0x5a ok=7094 err=0 tmo=0 recov=0 pclk1=200000000 sysclk=400000000
1788557463.634876 [NAK] nacks=0
1788557463.635012 [CLK] cpu=800000000 sysb=400000000 pclk1=200000000
1788557463.635127 [TOF] res=0 step=0 id=0xeacc blk=0xeacc10 ctl=0x0
1788557463.639179 [RNG] init=0 step=99 id=0xeacc boot=1 calls=93 xerr=0 dm=1 tb=15
1788557463.646011 [RNG] osc=41 imp=881 imprb=881 mstart=0x40 cfg=91 cfgfail=0x0 vhv=0 vpolls=0
1788557463.652010 [PRT] calls=3037 xerr=0 ler=1 lidx=0x0 perr=0 maxcnt=17 addr8=0x52
1788557463.656153 [RTY] wr=0 wmax=0 wref=0  rd=0 rmax=0 rref=0
1788557463.663888 [RNG] frames=731 last=59 min=50 max=70 nrdy=0 dxfer=0 dstat=0 lst=0 nrdyerr=0 dclr=0
1788557463.670170 [DRV] init=0 id=7 mode=0x1 lib=0x2 seq=0x1 odc=0x8b sts=0xe0 armed=1
1788557463.675284 [TRG] pulses=8 suppressed=74 cyc=1600 rst=1 rstmode=0x40
1788557463.678520 [HLT] polls=14 faults=0x0 cfglost=0
1788557463.684382 [EFF] n=5 last=58512 min=58450 max=58515 late=0 stuck=0 rderr=0
1788557463.694519 [IMU] init=0 addr=0x68 who=0x68 rst=1 pmrb0=0x40 pmrb=0x1 sr=19 cfg=4 gcfg=0x0 acfg=0x8 icfg=0x30 ien=0x1 armed=1
1788557463.699512 [ACC] reads=733 stale=733 rderr=0 ax=55 ay=-68 az=1128
1788557463.702159 [PWR] pm=0x1 drift=0 rderr=0
1788557463.706288 [DWT] ok=1 cyc=465384357 cyc_per_ms=799878
1788557464.721913 [HB] up_ms=17883 frames=779 inf=779 hazard=101 canary_err=0 q=0 qovr=0
1788557464.733006 [I2C] init=0 gate=0 whoami=0x201e0 wr=0 wrseen=0x27 addr=0x5a ok=7393 err=0 tmo=0 recov=0 pclk1=200000000 sysclk=400000000
1788557464.734378 [NAK] nacks=0
1788557464.739003 [CLK] cpu=800000000 sysb=400000000 pclk1=200000000
1788557464.743506 [TOF] res=0 step=0 id=0xeacc blk=0xeacc10 ctl=0x0
1788557464.749504 [RNG] init=0 step=99 id=0xeacc boot=1 calls=93 xerr=0 dm=1 tb=15
1788557464.756466 [RNG] osc=41 imp=881 imprb=881 mstart=0x40 cfg=91 cfgfail=0x0 vhv=0 vpolls=0
1788557464.762385 [PRT] calls=3237 xerr=0 ler=1 lidx=0x0 perr=0 maxcnt=17 addr8=0x52
1788557464.766504 [RTY] wr=0 wmax=0 wref=0  rd=0 rmax=0 rref=0
1788557464.774281 [RNG] frames=781 last=65 min=50 max=70 nrdy=0 dxfer=0 dstat=0 lst=0 nrdyerr=0 dclr=0
1788557464.780509 [DRV] init=0 id=7 mode=0x1 lib=0x2 seq=0x1 odc=0x8b sts=0xe0 armed=1
1788557464.785747 [TRG] pulses=10 suppressed=94 cyc=1600 rst=1 rstmode=0x40
1788557464.789006 [HLT] polls=15 faults=0x0 cfglost=0
1788557464.794759 [EFF] n=5 last=58512 min=58450 max=58515 late=0 stuck=0 rderr=0
1788557464.805152 [IMU] init=0 addr=0x68 who=0x68 rst=1 pmrb0=0x40 pmrb=0x1 sr=19 cfg=4 gcfg=0x0 acfg=0x8 icfg=0x30 ien=0x1 armed=1
1788557464.810006 [ACC] reads=783 stale=783 rderr=0 ax=57 ay=-67 az=1127
1788557464.812617 [PWR] pm=0x1 drift=0 rderr=0
1788557464.816621 [DWT] ok=1 cyc=1346327931 cyc_per_ms=800130
1788557465.832163 [HB] up_ms=18984 frames=829 inf=829 hazard=123 canary_err=0 q=0 qovr=0
1788557465.843249 [I2C] init=0 gate=0 whoami=0x201e0 wr=0 wrseen=0x27 addr=0x5a ok=7695 err=0 tmo=0 recov=0 pclk1=200000000 sysclk=400000000
1788557465.844624 [NAK] nacks=0
1788557465.849244 [CLK] cpu=800000000 sysb=400000000 pclk1=200000000
1788557465.853740 [TOF] res=0 step=0 id=0xeacc blk=0xeacc10 ctl=0x0
1788557465.859506 [RNG] init=0 step=99 id=0xeacc boot=1 calls=93 xerr=0 dm=1 tb=15
1788557465.866618 [RNG] osc=41 imp=881 imprb=881 mstart=0x40 cfg=91 cfgfail=0x0 vhv=0 vpolls=0
1788557465.873192 [PRT] calls=3437 xerr=0 ler=1 lidx=0x0 perr=0 maxcnt=17 addr8=0x52
1788557465.876661 [RTY] wr=0 wmax=0 wref=0  rd=0 rmax=0 rref=0
1788557465.884270 [RNG] frames=831 last=63 min=50 max=70 nrdy=0 dxfer=0 dstat=0 lst=0 nrdyerr=0 dclr=0
1788557465.890616 [DRV] init=0 id=7 mode=0x1 lib=0x2 seq=0x1 odc=0x8b sts=0xe0 armed=1
1788557465.895995 [TRG] pulses=11 suppressed=112 cyc=1600 rst=1 rstmode=0x40
1788557465.899242 [HLT] polls=16 faults=0x0 cfglost=0
1788557465.905000 [EFF] n=5 last=58512 min=58450 max=58515 late=0 stuck=0 rderr=0
1788557465.915256 [IMU] init=0 addr=0x68 who=0x68 rst=1 pmrb0=0x40 pmrb=0x1 sr=19 cfg=4 gcfg=0x0 acfg=0x8 icfg=0x30 ien=0x1 armed=1
1788557465.920239 [ACC] reads=833 stale=833 rderr=0 ax=53 ay=-66 az=1122
1788557465.922905 [PWR] pm=0x1 drift=0 rderr=0
1788557465.926923 [DWT] ok=1 cyc=2227194583 cyc_per_ms=800060
1788557466.941746 [HB] up_ms=20085 frames=879 inf=879 hazard=123 canary_err=0 q=0 qovr=0
1788557466.952861 [I2C] init=0 gate=0 whoami=0x201e0 wr=0 wrseen=0x27 addr=0x5a ok=7997 err=0 tmo=0 recov=0 pclk1=200000000 sysclk=400000000
1788557466.954237 [NAK] nacks=0
1788557466.958744 [CLK] cpu=800000000 sysb=400000000 pclk1=200000000
1788557466.963235 [TOF] res=0 step=0 id=0xeacc blk=0xeacc10 ctl=0x0
1788557466.969145 [RNG] init=0 step=99 id=0xeacc boot=1 calls=93 xerr=0 dm=1 tb=15
1788557466.976244 [RNG] osc=41 imp=881 imprb=881 mstart=0x40 cfg=91 cfgfail=0x0 vhv=0 vpolls=0
1788557466.982258 [PRT] calls=3637 xerr=0 ler=1 lidx=0x0 perr=0 maxcnt=17 addr8=0x52
1788557466.986237 [RTY] wr=0 wmax=0 wref=0  rd=0 rmax=0 rref=0
1788557466.993865 [RNG] frames=881 last=55 min=50 max=70 nrdy=0 dxfer=0 dstat=0 lst=0 nrdyerr=0 dclr=0
1788557467.000232 [DRV] init=0 id=7 mode=0x1 lib=0x2 seq=0x1 odc=0x8b sts=0xe0 armed=1
1788557467.005489 [TRG] pulses=11 suppressed=112 cyc=1600 rst=1 rstmode=0x40
1788557467.008732 [HLT] polls=17 faults=0x0 cfglost=0
1788557467.014478 [EFF] n=5 last=58512 min=58450 max=58515 late=0 stuck=0 rderr=0
1788557467.024913 [IMU] init=0 addr=0x68 who=0x68 rst=1 pmrb0=0x40 pmrb=0x1 sr=19 cfg=4 gcfg=0x0 acfg=0x8 icfg=0x30 ien=0x1 armed=1
1788557467.029871 [ACC] reads=883 stale=883 rderr=0 ax=61 ay=-56 az=1123
1788557467.032489 [PWR] pm=0x1 drift=0 rderr=0
1788557467.036485 [DWT] ok=1 cyc=3107994367 cyc_per_ms=799999
1788557468.051987 [HB] up_ms=21186 frames=929 inf=929 hazard=123 canary_err=0 q=0 qovr=0
1788557468.062859 [I2C] init=0 gate=0 whoami=0x201e0 wr=0 wrseen=0x27 addr=0x5a ok=8299 err=0 tmo=0 recov=0 pclk1=200000000 sysclk=400000000
1788557468.064227 [NAK] nacks=0
1788557468.068997 [CLK] cpu=800000000 sysb=400000000 pclk1=200000000
1788557468.073487 [TOF] res=0 step=0 id=0xeacc blk=0xeacc10 ctl=0x0
1788557468.079366 [RNG] init=0 step=99 id=0xeacc boot=1 calls=93 xerr=0 dm=1 tb=15
1788557468.086229 [RNG] osc=41 imp=881 imprb=881 mstart=0x40 cfg=91 cfgfail=0x0 vhv=0 vpolls=0
1788557468.092484 [PRT] calls=3833 xerr=0 ler=1 lidx=0x0 perr=0 maxcnt=17 addr8=0x52
1788557468.096542 [RTY] wr=0 wmax=0 wref=0  rd=0 rmax=0 rref=0
1788557468.104133 [RNG] frames=931 last=60 min=50 max=70 nrdy=0 dxfer=0 dstat=0 lst=0 nrdyerr=0 dclr=0
1788557468.110354 [DRV] init=0 id=7 mode=0x1 lib=0x2 seq=0x1 odc=0x8b sts=0xe0 armed=1
1788557468.115734 [TRG] pulses=11 suppressed=112 cyc=1600 rst=1 rstmode=0x40
1788557468.119130 [HLT] polls=18 faults=0x0 cfglost=0
1788557468.125713 [EFF] n=5 last=58512 min=58450 max=58515 late=0 stuck=0 rderr=0
1788557468.135134 [IMU] init=0 addr=0x68 who=0x68 rst=1 pmrb0=0x40 pmrb=0x1 sr=19 cfg=4 gcfg=0x0 acfg=0x8 icfg=0x30 ien=0x1 armed=1
1788557468.140140 [ACC] reads=933 stale=932 rderr=0 ax=61 ay=-60 az=1125
1788557468.142726 [PWR] pm=0x1 drift=0 rderr=0
1788557468.146737 [DWT] ok=1 cyc=3988794339 cyc_per_ms=799999
1788557469.162229 [HB] up_ms=22287 frames=979 inf=979 hazard=123 canary_err=0 q=0 qovr=0
1788557469.173263 [I2C] init=0 gate=0 whoami=0x201e0 wr=0 wrseen=0x27 addr=0x5a ok=8601 err=0 tmo=0 recov=0 pclk1=200000000 sysclk=400000000
1788557469.174509 [NAK] nacks=0
1788557469.179227 [CLK] cpu=800000000 sysb=400000000 pclk1=200000000
1788557469.183846 [TOF] res=0 step=0 id=0xeacc blk=0xeacc10 ctl=0x0
1788557469.189605 [RNG] init=0 step=99 id=0xeacc boot=1 calls=93 xerr=0 dm=1 tb=15
1788557469.196477 [RNG] osc=41 imp=881 imprb=881 mstart=0x40 cfg=91 cfgfail=0x0 vhv=0 vpolls=0
1788557469.202715 [PRT] calls=4033 xerr=0 ler=1 lidx=0x0 perr=0 maxcnt=17 addr8=0x52
1788557469.206734 [RTY] wr=0 wmax=0 wref=0  rd=0 rmax=0 rref=0
1788557469.214347 [RNG] frames=981 last=56 min=50 max=70 nrdy=0 dxfer=0 dstat=0 lst=0 nrdyerr=0 dclr=0
1788557469.220592 [DRV] init=0 id=7 mode=0x1 lib=0x2 seq=0x1 odc=0x8b sts=0xe0 armed=1
1788557469.226021 [TRG] pulses=11 suppressed=112 cyc=1600 rst=1 rstmode=0x40
1788557469.229352 [HLT] polls=19 faults=0x0 cfglost=0
1788557469.235127 [EFF] n=5 last=58512 min=58450 max=58515 late=0 stuck=0 rderr=0
1788557469.245220 [IMU] init=0 addr=0x68 who=0x68 rst=1 pmrb0=0x40 pmrb=0x1 sr=19 cfg=4 gcfg=0x0 acfg=0x8 icfg=0x30 ien=0x1 armed=1
1788557469.250347 [ACC] reads=982 stale=981 rderr=0 ax=60 ay=-69 az=1127
1788557469.252965 [PWR] pm=0x1 drift=0 rderr=0
1788557469.256846 [DWT] ok=1 cyc=574655335 cyc_per_ms=800025
1788557470.272126 [HB] up_ms=23388 frames=1028 inf=1028 hazard=123 canary_err=0 q=0 qovr=0
1788557470.283112 [I2C] init=0 gate=0 whoami=0x201e0 wr=0 wrseen=0x27 addr=0x5a ok=8903 err=0 tmo=0 recov=0 pclk1=200000000 sysclk=400000000
1788557470.284334 [NAK] nacks=0
1788557470.288993 [CLK] cpu=800000000 sysb=400000000 pclk1=200000000
1788557470.293719 [TOF] res=0 step=0 id=0xeacc blk=0xeacc10 ctl=0x0
1788557470.299473 [RNG] init=0 step=99 id=0xeacc boot=1 calls=93 xerr=0 dm=1 tb=15
1788557470.306363 [RNG] osc=41 imp=881 imprb=881 mstart=0x40 cfg=91 cfgfail=0x0 vhv=0 vpolls=0
1788557470.312475 [PRT] calls=4233 xerr=0 ler=1 lidx=0x0 perr=0 maxcnt=17 addr8=0x52
1788557470.316591 [RTY] wr=0 wmax=0 wref=0  rd=0 rmax=0 rref=0
1788557470.324408 [RNG] frames=1031 last=61 min=50 max=70 nrdy=0 dxfer=0 dstat=0 lst=0 nrdyerr=0 dclr=0
1788557470.330472 [DRV] init=0 id=7 mode=0x1 lib=0x2 seq=0x1 odc=0x8b sts=0xe0 armed=1
1788557470.335833 [TRG] pulses=11 suppressed=112 cyc=1600 rst=1 rstmode=0x40
1788557470.339223 [HLT] polls=20 faults=0x0 cfglost=0
1788557470.344963 [EFF] n=5 last=58512 min=58450 max=58515 late=0 stuck=0 rderr=0
1788557470.355210 [IMU] init=0 addr=0x68 who=0x68 rst=1 pmrb0=0x40 pmrb=0x1 sr=19 cfg=4 gcfg=0x0 acfg=0x8 icfg=0x30 ien=0x1 armed=1
1788557470.360334 [ACC] reads=1032 stale=1031 rderr=0 ax=62 ay=-64 az=1123
1788557470.363104 [PWR] pm=0x1 drift=0 rderr=0
1788557470.367104 [DWT] ok=1 cyc=1455911407 cyc_per_ms=800414
1788557471.381455 [HB] up_ms=24489 frames=1078 inf=1078 hazard=123 canary_err=0 q=0 qovr=0
1788557471.392578 [I2C] init=0 gate=0 whoami=0x201e0 wr=0 wrseen=0x27 addr=0x5a ok=9200 err=0 tmo=0 recov=0 pclk1=200000000 sysclk=400000000
1788557471.393821 [NAK] nacks=0
1788557471.398447 [CLK] cpu=800000000 sysb=400000000 pclk1=200000000
1788557471.402939 [TOF] res=0 step=0 id=0xeacc blk=0xeacc10 ctl=0x0
1788557471.408954 [RNG] init=0 step=99 id=0xeacc boot=1 calls=93 xerr=0 dm=1 tb=15
1788557471.415844 [RNG] osc=41 imp=881 imprb=881 mstart=0x40 cfg=91 cfgfail=0x0 vhv=0 vpolls=0
1788557471.421815 [PRT] calls=4433 xerr=0 ler=1 lidx=0x0 perr=0 maxcnt=17 addr8=0x52
1788557471.426143 [RTY] wr=0 wmax=0 wref=0  rd=0 rmax=0 rref=0
1788557471.433823 [RNG] frames=1080 last=61 min=50 max=70 nrdy=0 dxfer=0 dstat=0 lst=0 nrdyerr=0 dclr=0
1788557471.439961 [DRV] init=0 id=7 mode=0x1 lib=0x2 seq=0x1 odc=0x8b sts=0xe0 armed=1
1788557471.445320 [TRG] pulses=12 suppressed=112 cyc=1600 rst=1 rstmode=0x40
1788557471.448578 [HLT] polls=21 faults=0x0 cfglost=0
1788557471.454447 [EFF] n=5 last=58512 min=58450 max=58515 late=0 stuck=0 rderr=0
1788557471.464707 [IMU] init=0 addr=0x68 who=0x68 rst=1 pmrb0=0x40 pmrb=0x1 sr=19 cfg=4 gcfg=0x0 acfg=0x8 icfg=0x30 ien=0x1 armed=1
1788557471.469952 [ACC] reads=1082 stale=1081 rderr=0 ax=65 ay=-60 az=1128
1788557471.472457 [PWR] pm=0x1 drift=0 rderr=0
1788557471.476610 [DWT] ok=1 cyc=2336581315 cyc_per_ms=799881
1788557472.490816 [HB] up_ms=25590 frames=1128 inf=1128 hazard=164 canary_err=0 q=0 qovr=0
1788557472.501936 [I2C] init=0 gate=0 whoami=0x201e0 wr=0 wrseen=0x27 addr=0x5a ok=9501 err=0 tmo=0 recov=0 pclk1=200000000 sysclk=400000000
1788557472.503298 [NAK] nacks=0
1788557472.507936 [CLK] cpu=800000000 sysb=400000000 pclk1=200000000
1788557472.512448 [TOF] res=0 step=0 id=0xeacc blk=0xeacc10 ctl=0x0
1788557472.518367 [RNG] init=0 step=99 id=0xeacc boot=1 calls=93 xerr=0 dm=1 tb=15
1788557472.525319 [RNG] osc=41 imp=881 imprb=881 mstart=0x40 cfg=91 cfgfail=0x0 vhv=0 vpolls=0
1788557472.531353 [PRT] calls=4633 xerr=0 ler=1 lidx=0x0 perr=0 maxcnt=17 addr8=0x52
1788557472.535441 [RTY] wr=0 wmax=0 wref=0  rd=0 rmax=0 rref=0
1788557472.543311 [RNG] frames=1130 last=59 min=50 max=70 nrdy=0 dxfer=0 dstat=0 lst=0 nrdyerr=0 dclr=0
1788557472.549434 [DRV] init=0 id=7 mode=0x1 lib=0x2 seq=0x1 odc=0x8b sts=0xe0 armed=1
1788557472.554825 [TRG] pulses=14 suppressed=150 cyc=1600 rst=1 rstmode=0x40
1788557472.558102 [HLT] polls=22 faults=0x0 cfglost=0
1788557472.563844 [EFF] n=5 last=58512 min=58450 max=58515 late=0 stuck=0 rderr=0
1788557472.574107 [IMU] init=0 addr=0x68 who=0x68 rst=1 pmrb0=0x40 pmrb=0x1 sr=19 cfg=4 gcfg=0x0 acfg=0x8 icfg=0x30 ien=0x1 armed=1
1788557472.579199 [ACC] reads=1132 stale=1131 rderr=0 ax=55 ay=-70 az=1128
1788557472.581815 [PWR] pm=0x1 drift=0 rderr=0
1788557472.585805 [DWT] ok=1 cyc=3217376935 cyc_per_ms=799996
1788557473.599951 [HB] up_ms=26691 frames=1178 inf=1178 hazard=164 canary_err=0 q=0 qovr=0
1788557473.611109 [I2C] init=0 gate=0 whoami=0x201e0 wr=0 wrseen=0x27 addr=0x5a ok=9803 err=0 tmo=0 recov=0 pclk1=200000000 sysclk=400000000
1788557473.612320 [NAK] nacks=0
1788557473.616927 [CLK] cpu=800000000 sysb=400000000 pclk1=200000000
1788557473.621418 [TOF] res=0 step=0 id=0xeacc blk=0xeacc10 ctl=0x0
1788557473.627314 [RNG] init=0 step=99 id=0xeacc boot=1 calls=93 xerr=0 dm=1 tb=15
1788557473.634306 [RNG] osc=41 imp=881 imprb=881 mstart=0x40 cfg=91 cfgfail=0x0 vhv=0 vpolls=0
1788557473.640328 [PRT] calls=4833 xerr=0 ler=1 lidx=0x0 perr=0 maxcnt=17 addr8=0x52
1788557473.644451 [RTY] wr=0 wmax=0 wref=0  rd=0 rmax=0 rref=0
1788557473.652049 [RNG] frames=1180 last=63 min=50 max=70 nrdy=0 dxfer=0 dstat=0 lst=0 nrdyerr=0 dclr=0
1788557473.658438 [DRV] init=0 id=7 mode=0x1 lib=0x2 seq=0x1 odc=0x8b sts=0xe0 armed=1
1788557473.663683 [TRG] pulses=14 suppressed=150 cyc=1600 rst=1 rstmode=0x40
1788557473.667044 [HLT] polls=23 faults=0x0 cfglost=0
1788557473.672843 [EFF] n=5 last=58512 min=58450 max=58515 late=0 stuck=0 rderr=0
1788557473.683257 [IMU] init=0 addr=0x68 who=0x68 rst=1 pmrb0=0x40 pmrb=0x1 sr=19 cfg=4 gcfg=0x0 acfg=0x8 icfg=0x30 ien=0x1 armed=1
1788557473.688203 [ACC] reads=1182 stale=1181 rderr=0 ax=59 ay=-71 az=1125
1788557473.690835 [PWR] pm=0x1 drift=0 rderr=0
1788557473.694820 [DWT] ok=1 cyc=4098177107 cyc_per_ms=800000
1788557474.709816 [HB] up_ms=27792 frames=1228 inf=1228 hazard=164 canary_err=0 q=0 qovr=0
1788557474.721051 [I2C] init=0 gate=0 whoami=0x201e0 wr=0 wrseen=0x27 addr=0x5a ok=10105 err=0 tmo=0 recov=0 pclk1=200000000 sysclk=400000000
1788557474.722415 [NAK] nacks=0
1788557474.726956 [CLK] cpu=800000000 sysb=400000000 pclk1=200000000
1788557474.731459 [TOF] res=0 step=0 id=0xeacc blk=0xeacc10 ctl=0x0
1788557474.737300 [RNG] init=0 step=99 id=0xeacc boot=1 calls=93 xerr=0 dm=1 tb=15
1788557474.744427 [RNG] osc=41 imp=881 imprb=881 mstart=0x40 cfg=91 cfgfail=0x0 vhv=0 vpolls=0
1788557474.750414 [PRT] calls=5032 xerr=0 ler=1 lidx=0x0 perr=0 maxcnt=17 addr8=0x52
1788557474.754426 [RTY] wr=0 wmax=0 wref=0  rd=0 rmax=0 rref=0
1788557474.762229 [RNG] frames=1230 last=57 min=49 max=70 nrdy=0 dxfer=0 dstat=0 lst=0 nrdyerr=0 dclr=0
1788557474.768595 [DRV] init=0 id=7 mode=0x1 lib=0x2 seq=0x1 odc=0x8b sts=0xe0 armed=1
1788557474.773801 [TRG] pulses=14 suppressed=150 cyc=1600 rst=1 rstmode=0x40
1788557474.777321 [HLT] polls=24 faults=0x0 cfglost=0
1788557474.782918 [EFF] n=5 last=58512 min=58450 max=58515 late=0 stuck=0 rderr=0
1788557474.793187 [IMU] init=0 addr=0x68 who=0x68 rst=1 pmrb0=0x40 pmrb=0x1 sr=19 cfg=4 gcfg=0x0 acfg=0x8 icfg=0x30 ien=0x1 armed=1
1788557474.798295 [ACC] reads=1232 stale=1231 rderr=0 ax=57 ay=-70 az=1125
1788557474.801058 [PWR] pm=0x1 drift=0 rderr=0
1788557474.804924 [DWT] ok=1 cyc=684079839 cyc_per_ms=800063
1788557475.820198 [HB] up_ms=28893 frames=1278 inf=1278 hazard=164 canary_err=0 q=0 qovr=0
1788557475.831213 [I2C] init=0 gate=0 whoami=0x201e0 wr=0 wrseen=0x27 addr=0x5a ok=10407 err=0 tmo=0 recov=0 pclk1=200000000 sysclk=400000000
1788557475.832555 [NAK] nacks=0
1788557475.837293 [CLK] cpu=800000000 sysb=400000000 pclk1=200000000
1788557475.841871 [TOF] res=0 step=0 id=0xeacc blk=0xeacc10 ctl=0x0
1788557475.847682 [RNG] init=0 step=99 id=0xeacc boot=1 calls=93 xerr=0 dm=1 tb=15
1788557475.854554 [RNG] osc=41 imp=881 imprb=881 mstart=0x40 cfg=91 cfgfail=0x0 vhv=0 vpolls=0
1788557475.860712 [PRT] calls=5229 xerr=0 ler=1 lidx=0x0 perr=0 maxcnt=17 addr8=0x52
1788557475.864837 [RTY] wr=0 wmax=0 wref=0  rd=0 rmax=0 rref=0
1788557475.872597 [RNG] frames=1280 last=66 min=49 max=70 nrdy=0 dxfer=0 dstat=0 lst=0 nrdyerr=0 dclr=0
1788557475.878681 [DRV] init=0 id=7 mode=0x1 lib=0x2 seq=0x1 odc=0x8b sts=0xe0 armed=1
1788557475.884177 [TRG] pulses=14 suppressed=150 cyc=1600 rst=1 rstmode=0x40
1788557475.887418 [HLT] polls=25 faults=0x0 cfglost=0
1788557475.893206 [EFF] n=5 last=58512 min=58450 max=58515 late=0 stuck=0 rderr=0
1788557475.903430 [IMU] init=0 addr=0x68 who=0x68 rst=1 pmrb0=0x40 pmrb=0x1 sr=19 cfg=4 gcfg=0x0 acfg=0x8 icfg=0x30 ien=0x1 armed=1
1788557475.908671 [ACC] reads=1282 stale=1281 rderr=0 ax=58 ay=-71 az=1125
1788557475.911350 [PWR] pm=0x1 drift=0 rderr=0
1788557475.915306 [DWT] ok=1 cyc=1564879751 cyc_per_ms=799999
1788557476.930399 [HB] up_ms=29994 frames=1327 inf=1327 hazard=164 canary_err=0 q=0 qovr=0
1788557476.941428 [I2C] init=0 gate=0 whoami=0x201e0 wr=0 wrseen=0x27 addr=0x5a ok=10709 err=0 tmo=0 recov=0 pclk1=200000000 sysclk=400000000
1788557476.942798 [NAK] nacks=0
1788557476.947431 [CLK] cpu=800000000 sysb=400000000 pclk1=200000000
1788557476.952041 [TOF] res=0 step=0 id=0xeacc blk=0xeacc10 ctl=0x0
1788557476.957836 [RNG] init=0 step=99 id=0xeacc boot=1 calls=93 xerr=0 dm=1 tb=15
1788557476.964801 [RNG] osc=41 imp=881 imprb=881 mstart=0x40 cfg=91 cfgfail=0x0 vhv=0 vpolls=0
1788557476.970785 [PRT] calls=5429 xerr=0 ler=1 lidx=0x0 perr=0 maxcnt=17 addr8=0x52
1788557476.974911 [RTY] wr=0 wmax=0 wref=0  rd=0 rmax=0 rref=0
1788557476.982733 [RNG] frames=1330 last=58 min=49 max=70 nrdy=0 dxfer=0 dstat=0 lst=0 nrdyerr=0 dclr=0
1788557476.988914 [DRV] init=0 id=7 mode=0x1 lib=0x2 seq=0x1 odc=0x8b sts=0xe0 armed=1
1788557476.994310 [TRG] pulses=14 suppressed=150 cyc=1600 rst=1 rstmode=0x40
1788557476.997552 [HLT] polls=26 faults=0x0 cfglost=0
1788557477.003292 [EFF] n=5 last=58512 min=58450 max=58515 late=0 stuck=0 rderr=0
1788557477.013585 [IMU] init=0 addr=0x68 who=0x68 rst=1 pmrb0=0x40 pmrb=0x1 sr=19 cfg=4 gcfg=0x0 acfg=0x8 icfg=0x30 ien=0x1 armed=1
1788557477.018777 [ACC] reads=1331 stale=1330 rderr=0 ax=56 ay=-69 az=1124
1788557477.021445 [PWR] pm=0x1 drift=0 rderr=0
1788557477.025487 [DWT] ok=1 cyc=2445813653 cyc_per_ms=800121
1788557478.040170 [HB] up_ms=31095 frames=1377 inf=1377 hazard=164 canary_err=0 q=0 qovr=0
1788557478.051166 [I2C] init=0 gate=0 whoami=0x201e0 wr=0 wrseen=0x27 addr=0x5a ok=11011 err=0 tmo=0 recov=0 pclk1=200000000 sysclk=400000000
1788557478.052517 [NAK] nacks=0
1788557478.057391 [CLK] cpu=800000000 sysb=400000000 pclk1=200000000
1788557478.061651 [TOF] res=0 step=0 id=0xeacc blk=0xeacc10 ctl=0x0
1788557478.067653 [RNG] init=0 step=99 id=0xeacc boot=1 calls=93 xerr=0 dm=1 tb=15
1788557478.074694 [RNG] osc=41 imp=881 imprb=881 mstart=0x40 cfg=91 cfgfail=0x0 vhv=0 vpolls=0
1788557478.080559 [PRT] calls=5629 xerr=0 ler=1 lidx=0x0 perr=0 maxcnt=17 addr8=0x52
1788557478.084650 [RTY] wr=0 wmax=0 wref=0  rd=0 rmax=0 rref=0
1788557478.092429 [RNG] frames=1379 last=62 min=49 max=70 nrdy=0 dxfer=0 dstat=0 lst=0 nrdyerr=0 dclr=0
1788557478.098679 [DRV] init=0 id=7 mode=0x1 lib=0x2 seq=0x1 odc=0x8b sts=0xe0 armed=1
1788557478.103907 [TRG] pulses=14 suppressed=150 cyc=1600 rst=1 rstmode=0x40
1788557478.107619 [HLT] polls=27 faults=0x0 cfglost=0
1788557478.113203 [EFF] n=5 last=58512 min=58450 max=58515 late=0 stuck=0 rderr=0
1788557478.123520 [IMU] init=0 addr=0x68 who=0x68 rst=1 pmrb0=0x40 pmrb=0x1 sr=19 cfg=4 gcfg=0x0 acfg=0x8 icfg=0x30 ien=0x1 armed=1
1788557478.128406 [ACC] reads=1381 stale=1379 rderr=0 ax=58 ay=-69 az=1126
1788557478.131140 [PWR] pm=0x1 drift=0 rderr=0
1788557478.135138 [DWT] ok=1 cyc=3326549247 cyc_per_ms=799941
1788557479.150319 [HB] up_ms=32196 frames=1427 inf=1427 hazard=191 canary_err=0 q=0 qovr=0
1788557479.161546 [I2C] init=0 gate=0 whoami=0x201e0 wr=0 wrseen=0x27 addr=0x5a ok=11307 err=0 tmo=0 recov=0 pclk1=200000000 sysclk=400000000
1788557479.162779 [NAK] nacks=0
1788557479.167384 [CLK] cpu=800000000 sysb=400000000 pclk1=200000000
1788557479.171903 [TOF] res=0 step=0 id=0xeacc blk=0xeacc10 ctl=0x0
1788557479.177913 [RNG] init=0 step=99 id=0xeacc boot=1 calls=93 xerr=0 dm=1 tb=15
1788557479.184890 [RNG] osc=41 imp=881 imprb=881 mstart=0x40 cfg=91 cfgfail=0x0 vhv=0 vpolls=0
1788557479.190960 [PRT] calls=5829 xerr=0 ler=1 lidx=0x0 perr=0 maxcnt=17 addr8=0x52
1788557479.194900 [RTY] wr=0 wmax=0 wref=0  rd=0 rmax=0 rref=0
1788557479.202785 [RNG] frames=1429 last=60 min=49 max=70 nrdy=0 dxfer=0 dstat=0 lst=0 nrdyerr=0 dclr=0
1788557479.209047 [DRV] init=0 id=7 mode=0x1 lib=0x2 seq=0x1 odc=0x8b sts=0xe0 armed=1
1788557479.214273 [TRG] pulses=17 suppressed=177 cyc=1600 rst=1 rstmode=0x40
1788557479.217554 [HLT] polls=28 faults=0x0 cfglost=0
1788557479.224877 [EFF] n=5 last=58512 min=58450 max=58515 late=0 stuck=0 rderr=0
1788557479.233747 [IMU] init=0 addr=0x68 who=0x68 rst=1 pmrb0=0x40 pmrb=0x1 sr=19 cfg=4 gcfg=0x0 acfg=0x8 icfg=0x30 ien=0x1 armed=1
1788557479.238770 [ACC] reads=1431 stale=1429 rderr=0 ax=58 ay=-72 az=1125
1788557479.241409 [PWR] pm=0x1 drift=0 rderr=0
1788557479.245399 [DWT] ok=1 cyc=4207285867 cyc_per_ms=799942
1788557480.260510 [HB] up_ms=33297 frames=1477 inf=1477 hazard=205 canary_err=0 q=0 qovr=0
1788557480.271757 [I2C] init=0 gate=0 whoami=0x201e0 wr=0 wrseen=0x27 addr=0x5a ok=11609 err=0 tmo=0 recov=0 pclk1=200000000 sysclk=400000000
1788557480.272999 [NAK] nacks=0
1788557480.277668 [CLK] cpu=800000000 sysb=400000000 pclk1=200000000
1788557480.282160 [TOF] res=0 step=0 id=0xeacc blk=0xeacc10 ctl=0x0
1788557480.288017 [RNG] init=0 step=99 id=0xeacc boot=1 calls=93 xerr=0 dm=1 tb=15
1788557480.295020 [RNG] osc=41 imp=881 imprb=881 mstart=0x40 cfg=91 cfgfail=0x0 vhv=0 vpolls=0
1788557480.301163 [PRT] calls=6029 xerr=0 ler=1 lidx=0x0 perr=0 maxcnt=17 addr8=0x52
1788557480.305169 [RTY] wr=0 wmax=0 wref=0  rd=0 rmax=0 rref=0
1788557480.313007 [RNG] frames=1479 last=61 min=49 max=70 nrdy=0 dxfer=0 dstat=0 lst=0 nrdyerr=0 dclr=0
1788557480.319151 [DRV] init=0 id=7 mode=0x1 lib=0x2 seq=0x1 odc=0x8b sts=0xe0 armed=1
1788557480.324740 [TRG] pulses=17 suppressed=188 cyc=1600 rst=1 rstmode=0x40
1788557480.327791 [HLT] polls=29 faults=0x0 cfglost=0
1788557480.333538 [EFF] n=5 last=58512 min=58450 max=58515 late=0 stuck=0 rderr=0
1788557480.343890 [IMU] init=0 addr=0x68 who=0x68 rst=1 pmrb0=0x40 pmrb=0x1 sr=19 cfg=4 gcfg=0x0 acfg=0x8 icfg=0x30 ien=0x1 armed=1
1788557480.349025 [ACC] reads=1481 stale=1479 rderr=0 ax=58 ay=-70 az=1127
1788557480.351637 [PWR] pm=0x1 drift=0 rderr=0
1788557480.355515 [DWT] ok=1 cyc=793112595 cyc_per_ms=799994
1788557481.370183 [HB] up_ms=34398 frames=1527 inf=1527 hazard=205 canary_err=0 q=0 qovr=0
1788557481.381393 [I2C] init=0 gate=0 whoami=0x201e0 wr=0 wrseen=0x27 addr=0x5a ok=11911 err=0 tmo=0 recov=0 pclk1=200000000 sysclk=400000000
1788557481.382744 [NAK] nacks=0
1788557481.387260 [CLK] cpu=800000000 sysb=400000000 pclk1=200000000
1788557481.391759 [TOF] res=0 step=0 id=0xeacc blk=0xeacc10 ctl=0x0
1788557481.397637 [RNG] init=0 step=99 id=0xeacc boot=1 calls=93 xerr=0 dm=1 tb=15
1788557481.404638 [RNG] osc=41 imp=881 imprb=881 mstart=0x40 cfg=91 cfgfail=0x0 vhv=0 vpolls=0
1788557481.410659 [PRT] calls=6229 xerr=0 ler=1 lidx=0x0 perr=0 maxcnt=17 addr8=0x52
1788557481.414767 [RTY] wr=0 wmax=0 wref=0  rd=0 rmax=0 rref=0
1788557481.422390 [RNG] frames=1529 last=61 min=49 max=70 nrdy=0 dxfer=0 dstat=0 lst=0 nrdyerr=0 dclr=0
1788557481.428777 [DRV] init=0 id=7 mode=0x1 lib=0x2 seq=0x1 odc=0x8b sts=0xe0 armed=1
1788557481.434153 [TRG] pulses=17 suppressed=188 cyc=1600 rst=1 rstmode=0x40
1788557481.437388 [HLT] polls=30 faults=0x0 cfglost=0
1788557481.443201 [EFF] n=5 last=58512 min=58450 max=58515 late=0 stuck=0 rderr=0
1788557481.453439 [IMU] init=0 addr=0x68 who=0x68 rst=1 pmrb0=0x40 pmrb=0x1 sr=19 cfg=4 gcfg=0x0 acfg=0x8 icfg=0x30 ien=0x1 armed=1
1788557481.458541 [ACC] reads=1531 stale=1529 rderr=0 ax=57 ay=-71 az=1128
1788557481.461167 [PWR] pm=0x1 drift=0 rderr=0
1788557481.465140 [DWT] ok=1 cyc=1673912415 cyc_per_ms=799999
1788557482.479248 [HB] up_ms=35499 frames=1577 inf=1577 hazard=205 canary_err=0 q=0 qovr=0
1788557482.490625 [I2C] init=0 gate=0 whoami=0x201e0 wr=0 wrseen=0x27 addr=0x5a ok=12213 err=0 tmo=0 recov=0 pclk1=200000000 sysclk=400000000
1788557482.491733 [NAK] nacks=0
1788557482.496398 [CLK] cpu=800000000 sysb=400000000 pclk1=200000000
1788557482.500857 [TOF] res=0 step=0 id=0xeacc blk=0xeacc10 ctl=0x0
1788557482.506770 [RNG] init=0 step=99 id=0xeacc boot=1 calls=93 xerr=0 dm=1 tb=15
1788557482.513623 [RNG] osc=41 imp=881 imprb=881 mstart=0x40 cfg=91 cfgfail=0x0 vhv=0 vpolls=0
1788557482.519740 [PRT] calls=6425 xerr=0 ler=1 lidx=0x0 perr=0 maxcnt=17 addr8=0x52
1788557482.523943 [RTY] wr=0 wmax=0 wref=0  rd=0 rmax=0 rref=0
1788557482.531517 [RNG] frames=1579 last=64 min=49 max=72 nrdy=0 dxfer=0 dstat=0 lst=0 nrdyerr=0 dclr=0
1788557482.537875 [DRV] init=0 id=7 mode=0x1 lib=0x2 seq=0x1 odc=0x8b sts=0xe0 armed=1
1788557482.543252 [TRG] pulses=17 suppressed=188 cyc=1600 rst=1 rstmode=0x40
1788557482.546509 [HLT] polls=31 faults=0x0 cfglost=0
1788557482.552257 [EFF] n=5 last=58512 min=58450 max=58515 late=0 stuck=0 rderr=0
1788557482.562488 [IMU] init=0 addr=0x68 who=0x68 rst=1 pmrb0=0x40 pmrb=0x1 sr=19 cfg=4 gcfg=0x0 acfg=0x8 icfg=0x30 ien=0x1 armed=1
1788557482.567619 [ACC] reads=1581 stale=1579 rderr=0 ax=58 ay=-70 az=1125
1788557482.570371 [PWR] pm=0x1 drift=0 rderr=0
1788557482.574286 [DWT] ok=1 cyc=2554712651 cyc_per_ms=800000
1788557483.588365 [HB] up_ms=36600 frames=1627 inf=1627 hazard=205 canary_err=0 q=0 qovr=0
1788557483.599353 [I2C] init=0 gate=0 whoami=0x201e0 wr=0 wrseen=0x27 addr=0x5a ok=12515 err=0 tmo=0 recov=0 pclk1=200000000 sysclk=400000000
1788557483.600710 [NAK] nacks=0
1788557483.605466 [CLK] cpu=800000000 sysb=400000000 pclk1=200000000
1788557483.609989 [TOF] res=0 step=0 id=0xeacc blk=0xeacc10 ctl=0x0
1788557483.615853 [RNG] init=0 step=99 id=0xeacc boot=1 calls=93 xerr=0 dm=1 tb=15
1788557483.622722 [RNG] osc=41 imp=881 imprb=881 mstart=0x40 cfg=91 cfgfail=0x0 vhv=0 vpolls=0
1788557483.628891 [PRT] calls=6625 xerr=0 ler=1 lidx=0x0 perr=0 maxcnt=17 addr8=0x52
1788557483.632986 [RTY] wr=0 wmax=0 wref=0  rd=0 rmax=0 rref=0
1788557483.641117 [RNG] frames=1629 last=61 min=49 max=72 nrdy=0 dxfer=0 dstat=0 lst=0 nrdyerr=0 dclr=0
1788557483.646889 [DRV] init=0 id=7 mode=0x1 lib=0x2 seq=0x1 odc=0x8b sts=0xe0 armed=1
1788557483.652368 [TRG] pulses=17 suppressed=188 cyc=1600 rst=1 rstmode=0x40
1788557483.655616 [HLT] polls=32 faults=0x0 cfglost=0
1788557483.661391 [EFF] n=5 last=58512 min=58450 max=58515 late=0 stuck=0 rderr=0
1788557483.671504 [IMU] init=0 addr=0x68 who=0x68 rst=1 pmrb0=0x40 pmrb=0x1 sr=19 cfg=4 gcfg=0x0 acfg=0x8 icfg=0x30 ien=0x1 armed=1
1788557483.676856 [ACC] reads=1630 stale=1627 rderr=0 ax=57 ay=-71 az=1130
1788557483.679379 [PWR] pm=0x1 drift=0 rderr=0
1788557483.683366 [DWT] ok=1 cyc=3435512359 cyc_per_ms=799999
1788557484.697599 [HB] up_ms=37701 frames=1676 inf=1676 hazard=205 canary_err=0 q=0 qovr=0
1788557484.708737 [I2C] init=0 gate=0 whoami=0x201e0 wr=0 wrseen=0x27 addr=0x5a ok=12817 err=0 tmo=0 recov=0 pclk1=200000000 sysclk=400000000
1788557484.709990 [NAK] nacks=0
1788557484.714611 [CLK] cpu=800000000 sysb=400000000 pclk1=200000000
1788557484.719241 [TOF] res=0 step=0 id=0xeacc blk=0xeacc10 ctl=0x0
1788557484.725148 [RNG] init=0 step=99 id=0xeacc boot=1 calls=93 xerr=0 dm=1 tb=15
1788557484.732280 [RNG] osc=41 imp=881 imprb=881 mstart=0x40 cfg=91 cfgfail=0x0 vhv=0 vpolls=0
1788557484.738764 [PRT] calls=6825 xerr=0 ler=1 lidx=0x0 perr=0 maxcnt=17 addr8=0x52
1788557484.742402 [RTY] wr=0 wmax=0 wref=0  rd=0 rmax=0 rref=0
1788557484.749968 [RNG] frames=1679 last=63 min=49 max=72 nrdy=0 dxfer=0 dstat=0 lst=0 nrdyerr=0 dclr=0
1788557484.756146 [DRV] init=0 id=7 mode=0x1 lib=0x2 seq=0x1 odc=0x8b sts=0xe0 armed=1
1788557484.761364 [TRG] pulses=17 suppressed=188 cyc=1600 rst=1 rstmode=0x40
1788557484.764848 [HLT] polls=33 faults=0x0 cfglost=0
1788557484.770603 [EFF] n=5 last=58512 min=58450 max=58515 late=0 stuck=0 rderr=0
1788557484.780726 [IMU] init=0 addr=0x68 who=0x68 rst=1 pmrb0=0x40 pmrb=0x1 sr=19 cfg=4 gcfg=0x0 acfg=0x8 icfg=0x30 ien=0x1 armed=1
1788557484.785970 [ACC] reads=1680 stale=1677 rderr=0 ax=57 ay=-73 az=1125
1788557484.788717 [PWR] pm=0x1 drift=0 rderr=0
1788557484.792465 [DWT] ok=1 cyc=21479709 cyc_per_ms=800122
1788557485.807319 [HB] up_ms=38802 frames=1726 inf=1726 hazard=211 canary_err=0 q=0 qovr=0
1788557485.818339 [I2C] init=0 gate=0 whoami=0x201e0 wr=0 wrseen=0x27 addr=0x5a ok=13117 err=0 tmo=0 recov=0 pclk1=200000000 sysclk=400000000
1788557485.819711 [NAK] nacks=0
1788557485.824219 [CLK] cpu=800000000 sysb=400000000 pclk1=200000000
1788557485.828871 [TOF] res=0 step=0 id=0xeacc blk=0xeacc10 ctl=0x0
1788557485.834737 [RNG] init=0 step=99 id=0xeacc boot=1 calls=93 xerr=0 dm=1 tb=15
1788557485.841716 [RNG] osc=41 imp=881 imprb=881 mstart=0x40 cfg=91 cfgfail=0x0 vhv=0 vpolls=0
1788557485.847740 [PRT] calls=7025 xerr=0 ler=1 lidx=0x0 perr=0 maxcnt=17 addr8=0x52
1788557485.851715 [RTY] wr=0 wmax=0 wref=0  rd=0 rmax=0 rref=0
1788557485.859623 [RNG] frames=1728 last=61 min=49 max=72 nrdy=0 dxfer=0 dstat=0 lst=0 nrdyerr=0 dclr=0
1788557485.865839 [DRV] init=0 id=7 mode=0x1 lib=0x2 seq=0x1 odc=0x8b sts=0xe0 armed=1
1788557485.871124 [TRG] pulses=18 suppressed=196 cyc=1600 rst=1 rstmode=0x40
1788557485.874379 [HLT] polls=34 faults=0x0 cfglost=0
1788557485.880235 [EFF] n=5 last=58512 min=58450 max=58515 late=0 stuck=0 rderr=0
1788557485.890841 [IMU] init=0 addr=0x68 who=0x68 rst=1 pmrb0=0x40 pmrb=0x1 sr=19 cfg=4 gcfg=0x0 acfg=0x8 icfg=0x30 ien=0x1 armed=1
1788557485.895592 [ACC] reads=1730 stale=1727 rderr=0 ax=57 ay=-70 az=1126
1788557485.898198 [PWR] pm=0x1 drift=0 rderr=0
1788557485.902200 [DWT] ok=1 cyc=902148651 cyc_per_ms=799880
1788557486.916835 [HB] up_ms=39903 frames=1776 inf=1776 hazard=246 canary_err=0 q=0 qovr=0
1788557486.928209 [I2C] init=0 gate=0 whoami=0x201e0 wr=0 wrseen=0x27 addr=0x5a ok=13415 err=0 tmo=0 recov=0 pclk1=200000000 sysclk=400000000
1788557486.929524 [NAK] nacks=0
1788557486.934221 [CLK] cpu=800000000 sysb=400000000 pclk1=200000000
1788557486.938509 [TOF] res=0 step=0 id=0xeacc blk=0xeacc10 ctl=0x0
1788557486.944471 [RNG] init=0 step=99 id=0xeacc boot=1 calls=93 xerr=0 dm=1 tb=15
1788557486.951461 [RNG] osc=41 imp=881 imprb=881 mstart=0x40 cfg=91 cfgfail=0x0 vhv=0 vpolls=0
1788557486.957486 [PRT] calls=7225 xerr=0 ler=1 lidx=0x0 perr=0 maxcnt=17 addr8=0x52
1788557486.961473 [RTY] wr=0 wmax=0 wref=0  rd=0 rmax=0 rref=0
1788557486.969336 [RNG] frames=1778 last=61 min=49 max=72 nrdy=0 dxfer=0 dstat=0 lst=0 nrdyerr=0 dclr=0
1788557486.975642 [DRV] init=0 id=7 mode=0x1 lib=0x2 seq=0x1 odc=0x8b sts=0xe0 armed=1
1788557486.980849 [TRG] pulses=20 suppressed=226 cyc=1600 rst=1 rstmode=0x40
1788557486.984122 [HLT] polls=35 faults=0x0 cfglost=0
1788557486.990107 [EFF] n=5 last=58512 min=58450 max=58515 late=0 stuck=0 rderr=0
1788557487.000203 [IMU] init=0 addr=0x68 who=0x68 rst=1 pmrb0=0x40 pmrb=0x1 sr=19 cfg=4 gcfg=0x0 acfg=0x8 icfg=0x30 ien=0x1 armed=1
1788557487.005331 [ACC] reads=1780 stale=1777 rderr=0 ax=57 ay=-71 az=1127
1788557487.007980 [PWR] pm=0x1 drift=0 rderr=0
1788557487.011967 [DWT] ok=1 cyc=1782945235 cyc_per_ms=799996
1788557488.026492 [HB] up_ms=41004 frames=1826 inf=1826 hazard=246 canary_err=0 q=0 qovr=0
1788557488.037733 [I2C] init=0 gate=0 whoami=0x201e0 wr=0 wrseen=0x27 addr=0x5a ok=13717 err=0 tmo=0 recov=0 pclk1=200000000 sysclk=400000000
1788557488.039106 [NAK] nacks=0
1788557488.043610 [CLK] cpu=800000000 sysb=400000000 pclk1=200000000
1788557488.048092 [TOF] res=0 step=0 id=0xeacc blk=0xeacc10 ctl=0x0
1788557488.053959 [RNG] init=0 step=99 id=0xeacc boot=1 calls=93 xerr=0 dm=1 tb=15
1788557488.060989 [RNG] osc=41 imp=881 imprb=881 mstart=0x40 cfg=91 cfgfail=0x0 vhv=0 vpolls=0
1788557488.067103 [PRT] calls=7425 xerr=0 ler=1 lidx=0x0 perr=0 maxcnt=17 addr8=0x52
1788557488.071107 [RTY] wr=0 wmax=0 wref=0  rd=0 rmax=0 rref=0
1788557488.078855 [RNG] frames=1828 last=66 min=49 max=72 nrdy=0 dxfer=0 dstat=0 lst=0 nrdyerr=0 dclr=0
1788557488.085121 [DRV] init=0 id=7 mode=0x1 lib=0x2 seq=0x1 odc=0x8b sts=0xe0 armed=1
1788557488.090466 [TRG] pulses=20 suppressed=226 cyc=1600 rst=1 rstmode=0x40
1788557488.093733 [HLT] polls=36 faults=0x0 cfglost=0
1788557488.099468 [EFF] n=5 last=58512 min=58450 max=58515 late=0 stuck=0 rderr=0
1788557488.109842 [IMU] init=0 addr=0x68 who=0x68 rst=1 pmrb0=0x40 pmrb=0x1 sr=19 cfg=4 gcfg=0x0 acfg=0x8 icfg=0x30 ien=0x1 armed=1
1788557488.114958 [ACC] reads=1830 stale=1827 rderr=0 ax=58 ay=-68 az=1124
1788557488.117585 [PWR] pm=0x1 drift=0 rderr=0
1788557488.121599 [DWT] ok=1 cyc=2663745427 cyc_per_ms=800000
1788557489.135830 [HB] up_ms=42105 frames=1876 inf=1876 hazard=246 canary_err=0 q=0 qovr=0
1788557489.147111 [I2C] init=0 gate=0 whoami=0x201e0 wr=0 wrseen=0x27 addr=0x5a ok=14019 err=0 tmo=0 recov=0 pclk1=200000000 sysclk=400000000
1788557489.148346 [NAK] nacks=0
1788557489.152948 [CLK] cpu=800000000 sysb=400000000 pclk1=200000000
1788557489.157528 [TOF] res=0 step=0 id=0xeacc blk=0xeacc10 ctl=0x0
1788557489.163395 [RNG] init=0 step=99 id=0xeacc boot=1 calls=93 xerr=0 dm=1 tb=15
1788557489.170338 [RNG] osc=41 imp=881 imprb=881 mstart=0x40 cfg=91 cfgfail=0x0 vhv=0 vpolls=0
1788557489.176951 [PRT] calls=7625 xerr=0 ler=1 lidx=0x0 perr=0 maxcnt=17 addr8=0x52
1788557489.180446 [RTY] wr=0 wmax=0 wref=0  rd=0 rmax=0 rref=0
1788557489.188209 [RNG] frames=1878 last=58 min=49 max=72 nrdy=0 dxfer=0 dstat=0 lst=0 nrdyerr=0 dclr=0
1788557489.194471 [DRV] init=0 id=7 mode=0x1 lib=0x2 seq=0x1 odc=0x8b sts=0xe0 armed=1
1788557489.199829 [TRG] pulses=20 suppressed=226 cyc=1600 rst=1 rstmode=0x40
1788557489.203058 [HLT] polls=37 faults=0x0 cfglost=0
1788557489.208835 [EFF] n=5 last=58512 min=58450 max=58515 late=0 stuck=0 rderr=0
1788557489.219191 [IMU] init=0 addr=0x68 who=0x68 rst=1 pmrb0=0x40 pmrb=0x1 sr=19 cfg=4 gcfg=0x0 acfg=0x8 icfg=0x30 ien=0x1 armed=1
1788557489.224330 [ACC] reads=1880 stale=1877 rderr=0 ax=56 ay=-67 az=1123
1788557489.226965 [PWR] pm=0x1 drift=0 rderr=0
1788557489.230955 [DWT] ok=1 cyc=3544545011 cyc_per_ms=799999
1788557490.245780 [HB] up_ms=43206 frames=1926 inf=1926 hazard=246 canary_err=0 q=0 qovr=0
1788557490.257244 [I2C] init=0 gate=0 whoami=0x201e0 wr=0 wrseen=0x27 addr=0x5a ok=14321 err=0 tmo=0 recov=0 pclk1=200000000 sysclk=400000000
1788557490.258121 [NAK] nacks=0
1788557490.262974 [CLK] cpu=800000000 sysb=400000000 pclk1=200000000
1788557490.267367 [TOF] res=0 step=0 id=0xeacc blk=0xeacc10 ctl=0x0
1788557490.273104 [RNG] init=0 step=99 id=0xeacc boot=1 calls=93 xerr=0 dm=1 tb=15
1788557490.280191 [RNG] osc=41 imp=881 imprb=881 mstart=0x40 cfg=91 cfgfail=0x0 vhv=0 vpolls=0
1788557490.286227 [PRT] calls=7821 xerr=0 ler=1 lidx=0x0 perr=0 maxcnt=17 addr8=0x52
1788557490.290426 [RTY] wr=0 wmax=0 wref=0  rd=0 rmax=0 rref=0
1788557490.297991 [RNG] frames=1928 last=63 min=49 max=72 nrdy=0 dxfer=0 dstat=0 lst=0 nrdyerr=0 dclr=0
1788557490.304244 [DRV] init=0 id=7 mode=0x1 lib=0x2 seq=0x1 odc=0x8b sts=0xe0 armed=1
1788557490.309618 [TRG] pulses=20 suppressed=226 cyc=1600 rst=1 rstmode=0x40
1788557490.312968 [HLT] polls=38 faults=0x0 cfglost=0
1788557490.318725 [EFF] n=5 last=58512 min=58450 max=58515 late=0 stuck=0 rderr=0
1788557490.329000 [IMU] init=0 addr=0x68 who=0x68 rst=1 pmrb0=0x40 pmrb=0x1 sr=19 cfg=4 gcfg=0x0 acfg=0x8 icfg=0x30 ien=0x1 armed=1
1788557490.334189 [ACC] reads=1930 stale=1927 rderr=0 ax=58 ay=-70 az=1124
1788557490.336853 [PWR] pm=0x1 drift=0 rderr=0
1788557490.340733 [DWT] ok=1 cyc=130377927 cyc_per_ms=800000
1788557491.355927 [HB] up_ms=44307 frames=1976 inf=1976 hazard=246 canary_err=0 q=0 qovr=0
1788557491.366921 [I2C] init=0 gate=0 whoami=0x201e0 wr=0 wrseen=0x27 addr=0x5a ok=14623 err=0 tmo=0 recov=0 pclk1=200000000 sysclk=400000000
1788557491.368296 [NAK] nacks=0
1788557491.373057 [CLK] cpu=800000000 sysb=400000000 pclk1=200000000
1788557491.377551 [TOF] res=0 step=0 id=0xeacc blk=0xeacc10 ctl=0x0
1788557491.383516 [RNG] init=0 step=99 id=0xeacc boot=1 calls=93 xerr=0 dm=1 tb=15
1788557491.390931 [RNG] osc=41 imp=881 imprb=881 mstart=0x40 cfg=91 cfgfail=0x0 vhv=0 vpolls=0
1788557491.396554 [PRT] calls=8021 xerr=0 ler=1 lidx=0x0 perr=0 maxcnt=17 addr8=0x52
1788557491.400553 [RTY] wr=0 wmax=0 wref=0  rd=0 rmax=0 rref=0
1788557491.408312 [RNG] frames=1978 last=56 min=49 max=72 nrdy=0 dxfer=0 dstat=0 lst=0 nrdyerr=0 dclr=0
1788557491.414426 [DRV] init=0 id=7 mode=0x1 lib=0x2 seq=0x1 odc=0x8b sts=0xe0 armed=1
1788557491.419911 [TRG] pulses=20 suppressed=226 cyc=1600 rst=1 rstmode=0x40
1788557491.423165 [HLT] polls=39 faults=0x0 cfglost=0
1788557491.428916 [EFF] n=5 last=58512 min=58450 max=58515 late=0 stuck=0 rderr=0
1788557491.439197 [IMU] init=0 addr=0x68 who=0x68 rst=1 pmrb0=0x40 pmrb=0x1 sr=19 cfg=4 gcfg=0x0 acfg=0x8 icfg=0x30 ien=0x1 armed=1
1788557491.444419 [ACC] reads=1979 stale=1975 rderr=0 ax=58 ay=-68 az=1128
1788557491.447049 [PWR] pm=0x1 drift=0 rderr=0
1788557491.451052 [DWT] ok=1 cyc=1011206035 cyc_per_ms=800025
1788557492.465696 [HB] up_ms=45408 frames=2025 inf=2025 hazard=246 canary_err=0 q=0 qovr=0
1788557492.476862 [I2C] init=0 gate=0 whoami=0x201e0 wr=0 wrseen=0x27 addr=0x5a ok=14925 err=0 tmo=0 recov=0 pclk1=200000000 sysclk=400000000
1788557492.478063 [NAK] nacks=0
1788557492.482673 [CLK] cpu=800000000 sysb=400000000 pclk1=200000000
1788557492.487291 [TOF] res=0 step=0 id=0xeacc blk=0xeacc10 ctl=0x0
1788557492.493197 [RNG] init=0 step=99 id=0xeacc boot=1 calls=93 xerr=0 dm=1 tb=15
1788557492.500047 [RNG] osc=41 imp=881 imprb=881 mstart=0x40 cfg=91 cfgfail=0x0 vhv=0 vpolls=0
1788557492.506039 [PRT] calls=8221 xerr=0 ler=1 lidx=0x0 perr=0 maxcnt=17 addr8=0x52
1788557492.510318 [RTY] wr=0 wmax=0 wref=0  rd=0 rmax=0 rref=0
1788557492.518046 [RNG] frames=2028 last=62 min=49 max=72 nrdy=0 dxfer=0 dstat=0 lst=0 nrdyerr=0 dclr=0
1788557492.524267 [DRV] init=0 id=7 mode=0x1 lib=0x2 seq=0x1 odc=0x8b sts=0xe0 armed=1
1788557492.529433 [TRG] pulses=20 suppressed=226 cyc=1600 rst=1 rstmode=0x40
1788557492.532918 [HLT] polls=40 faults=0x0 cfglost=0
1788557492.538673 [EFF] n=5 last=58512 min=58450 max=58515 late=0 stuck=0 rderr=0
1788557492.548797 [IMU] init=0 addr=0x68 who=0x68 rst=1 pmrb0=0x40 pmrb=0x1 sr=19 cfg=4 gcfg=0x0 acfg=0x8 icfg=0x30 ien=0x1 armed=1
1788557492.553929 [ACC] reads=2029 stale=2025 rderr=0 ax=61 ay=-68 az=1126
1788557492.556845 [PWR] pm=0x1 drift=0 rderr=0
1788557492.560690 [DWT] ok=1 cyc=1892112825 cyc_per_ms=800096
1788557493.574944 [HB] up_ms=46509 frames=2075 inf=2075 hazard=281 canary_err=0 q=0 qovr=0
1788557493.586051 [I2C] init=0 gate=0 whoami=0x201e0 wr=0 wrseen=0x27 addr=0x5a ok=15222 err=0 tmo=0 recov=0 pclk1=200000000 sysclk=400000000
1788557493.587458 [NAK] nacks=0
1788557493.592189 [CLK] cpu=800000000 sysb=400000000 pclk1=200000000
1788557493.596571 [TOF] res=0 step=0 id=0xeacc blk=0xeacc10 ctl=0x0
1788557493.602547 [RNG] init=0 step=99 id=0xeacc boot=1 calls=93 xerr=0 dm=1 tb=15
1788557493.609438 [RNG] osc=41 imp=881 imprb=881 mstart=0x40 cfg=91 cfgfail=0x0 vhv=0 vpolls=0
1788557493.615428 [PRT] calls=8421 xerr=0 ler=1 lidx=0x0 perr=0 maxcnt=17 addr8=0x52
1788557493.619417 [RTY] wr=0 wmax=0 wref=0  rd=0 rmax=0 rref=0
1788557493.627569 [RNG] frames=2077 last=59 min=49 max=72 nrdy=0 dxfer=0 dstat=0 lst=0 nrdyerr=0 dclr=0
1788557493.633530 [DRV] init=0 id=7 mode=0x1 lib=0x2 seq=0x1 odc=0x8b sts=0xe0 armed=1
1788557493.638778 [TRG] pulses=23 suppressed=261 cyc=1600 rst=1 rstmode=0x40
1788557493.642028 [HLT] polls=41 faults=0x0 cfglost=0
1788557493.648030 [EFF] n=5 last=58512 min=58450 max=58515 late=0 stuck=0 rderr=0
1788557493.658192 [IMU] init=0 addr=0x68 who=0x68 rst=1 pmrb0=0x40 pmrb=0x1 sr=19 cfg=4 gcfg=0x0 acfg=0x8 icfg=0x30 ien=0x1 armed=1
1788557493.663284 [ACC] reads=2079 stale=2075 rderr=0 ax=55 ay=-66 az=1126
1788557493.665910 [PWR] pm=0x1 drift=0 rderr=0
1788557493.670057 [DWT] ok=1 cyc=2772781371 cyc_per_ms=799880
1788557494.684178 [HB] up_ms=47610 frames=2125 inf=2125 hazard=287 canary_err=0 q=0 qovr=0
1788557494.695448 [I2C] init=0 gate=0 whoami=0x201e0 wr=0 wrseen=0x27 addr=0x5a ok=15523 err=0 tmo=0 recov=0 pclk1=200000000 sysclk=400000000
1788557494.696660 [NAK] nacks=0
1788557494.701300 [CLK] cpu=800000000 sysb=400000000 pclk1=200000000
1788557494.705789 [TOF] res=0 step=0 id=0xeacc blk=0xeacc10 ctl=0x0
1788557494.711666 [RNG] init=0 step=99 id=0xeacc boot=1 calls=93 xerr=0 dm=1 tb=15
1788557494.718671 [RNG] osc=41 imp=881 imprb=881 mstart=0x40 cfg=91 cfgfail=0x0 vhv=0 vpolls=0
1788557494.724704 [PRT] calls=8621 xerr=0 ler=1 lidx=0x0 perr=0 maxcnt=17 addr8=0x52
1788557494.728670 [RTY] wr=0 wmax=0 wref=0  rd=0 rmax=0 rref=0
1788557494.736542 [RNG] frames=2127 last=68 min=49 max=72 nrdy=0 dxfer=0 dstat=0 lst=0 nrdyerr=0 dclr=0
1788557494.742818 [DRV] init=0 id=7 mode=0x1 lib=0x2 seq=0x1 odc=0x8b sts=0xe0 armed=1
1788557494.748045 [TRG] pulses=23 suppressed=264 cyc=1600 rst=1 rstmode=0x40
1788557494.751283 [HLT] polls=42 faults=0x0 cfglost=0
1788557494.757366 [EFF] n=5 last=58512 min=58450 max=58515 late=0 stuck=0 rderr=0
1788557494.767408 [IMU] init=0 addr=0x68 who=0x68 rst=1 pmrb0=0x40 pmrb=0x1 sr=19 cfg=4 gcfg=0x0 acfg=0x8 icfg=0x30 ien=0x1 armed=1
1788557494.772534 [ACC] reads=2129 stale=2125 rderr=0 ax=54 ay=-86 az=1135
1788557494.775240 [PWR] pm=0x1 drift=0 rderr=0
1788557494.779211 [DWT] ok=1 cyc=3653577715 cyc_per_ms=799996
1788557495.793035 [HB] up_ms=48711 frames=2175 inf=2175 hazard=287 canary_err=0 q=0 qovr=0
1788557495.804287 [I2C] init=0 gate=0 whoami=0x201e0 wr=0 wrseen=0x27 addr=0x5a ok=15825 err=0 tmo=0 recov=0 pclk1=200000000 sysclk=400000000
1788557495.805658 [NAK] nacks=0
1788557495.810188 [CLK] cpu=800000000 sysb=400000000 pclk1=200000000
1788557495.814685 [TOF] res=0 step=0 id=0xeacc blk=0xeacc10 ctl=0x0
1788557495.820527 [RNG] init=0 step=99 id=0xeacc boot=1 calls=93 xerr=0 dm=1 tb=15
1788557495.827604 [RNG] osc=41 imp=881 imprb=881 mstart=0x40 cfg=91 cfgfail=0x0 vhv=0 vpolls=0
1788557495.833562 [PRT] calls=8821 xerr=0 ler=1 lidx=0x0 perr=0 maxcnt=17 addr8=0x52
1788557495.837644 [RTY] wr=0 wmax=0 wref=0  rd=0 rmax=0 rref=0
1788557495.845423 [RNG] frames=2177 last=64 min=49 max=72 nrdy=0 dxfer=0 dstat=0 lst=0 nrdyerr=0 dclr=0
1788557495.851651 [DRV] init=0 id=7 mode=0x1 lib=0x2 seq=0x1 odc=0x8b sts=0xe0 armed=1
1788557495.857183 [TRG] pulses=23 suppressed=264 cyc=1600 rst=1 rstmode=0x40
1788557495.860268 [HLT] polls=43 faults=0x0 cfglost=0
1788557495.866006 [EFF] n=5 last=58512 min=58450 max=58515 late=0 stuck=0 rderr=0
1788557495.876282 [IMU] init=0 addr=0x68 who=0x68 rst=1 pmrb0=0x40 pmrb=0x1 sr=19 cfg=4 gcfg=0x0 acfg=0x8 icfg=0x30 ien=0x1 armed=1
1788557495.881411 [ACC] reads=2179 stale=2175 rderr=0 ax=55 ay=-76 az=1123
1788557495.884170 [PWR] pm=0x1 drift=0 rderr=0
1788557495.888033 [DWT] ok=1 cyc=239410571 cyc_per_ms=800000
1788557496.902175 [HB] up_ms=49812 frames=2225 inf=2225 hazard=287 canary_err=0 q=0 qovr=0
1788557496.913316 [I2C] init=0 gate=0 whoami=0x201e0 wr=0 wrseen=0x27 addr=0x5a ok=16127 err=0 tmo=0 recov=0 pclk1=200000000 sysclk=400000000
1788557496.914650 [NAK] nacks=0
1788557496.919261 [CLK] cpu=800000000 sysb=400000000 pclk1=200000000
1788557496.923834 [TOF] res=0 step=0 id=0xeacc blk=0xeacc10 ctl=0x0
1788557496.931163 [RNG] init=0 step=99 id=0xeacc boot=1 calls=93 xerr=0 dm=1 tb=15
1788557496.936656 [RNG] osc=41 imp=881 imprb=881 mstart=0x40 cfg=91 cfgfail=0x0 vhv=0 vpolls=0
1788557496.942667 [PRT] calls=9020 xerr=0 ler=1 lidx=0x0 perr=0 maxcnt=17 addr8=0x52
1788557496.946764 [RTY] wr=0 wmax=0 wref=0  rd=0 rmax=0 rref=0
1788557496.954377 [RNG] frames=2227 last=61 min=49 max=72 nrdy=0 dxfer=0 dstat=0 lst=0 nrdyerr=0 dclr=0
1788557496.960803 [DRV] init=0 id=7 mode=0x1 lib=0x2 seq=0x1 odc=0x8b sts=0xe0 armed=1
1788557496.966023 [TRG] pulses=23 suppressed=264 cyc=1600 rst=1 rstmode=0x40
1788557496.969250 [HLT] polls=44 faults=0x0 cfglost=0
1788557496.975034 [EFF] n=5 last=58512 min=58450 max=58515 late=0 stuck=0 rderr=0
1788557496.985411 [IMU] init=0 addr=0x68 who=0x68 rst=1 pmrb0=0x40 pmrb=0x1 sr=19 cfg=4 gcfg=0x0 acfg=0x8 icfg=0x30 ien=0x1 armed=1
1788557496.990951 [ACC] reads=2229 stale=2225 rderr=0 ax=57 ay=-76 az=1126
1788557496.993225 [PWR] pm=0x1 drift=0 rderr=0
1788557496.997185 [DWT] ok=1 cyc=1120210643 cyc_per_ms=800000
1788557498.010621 [HB] up_ms=50913 frames=2275 inf=2275 hazard=287 canary_err=0 q=0 qovr=0
1788557498.021748 [I2C] init=0 gate=0 whoami=0x201e0 wr=0 wrseen=0x27 addr=0x5a ok=16429 err=0 tmo=0 recov=0 pclk1=200000000 sysclk=400000000
1788557498.022993 [NAK] nacks=0
1788557498.027963 [CLK] cpu=800000000 sysb=400000000 pclk1=200000000
1788557498.032279 [TOF] res=0 step=0 id=0xeacc blk=0xeacc10 ctl=0x0
1788557498.038142 [RNG] init=0 step=99 id=0xeacc boot=1 calls=93 xerr=0 dm=1 tb=15
1788557498.045027 [RNG] osc=41 imp=881 imprb=881 mstart=0x40 cfg=91 cfgfail=0x0 vhv=0 vpolls=0
1788557498.051158 [PRT] calls=9217 xerr=0 ler=1 lidx=0x0 perr=0 maxcnt=17 addr8=0x52
1788557498.055268 [RTY] wr=0 wmax=0 wref=0  rd=0 rmax=0 rref=0
1788557498.062904 [RNG] frames=2277 last=61 min=49 max=72 nrdy=0 dxfer=0 dstat=0 lst=0 nrdyerr=0 dclr=0
1788557498.069168 [DRV] init=0 id=7 mode=0x1 lib=0x2 seq=0x1 odc=0x8b sts=0xe0 armed=1
1788557498.074533 [TRG] pulses=23 suppressed=264 cyc=1600 rst=1 rstmode=0x40
1788557498.077778 [HLT] polls=45 faults=0x0 cfglost=0
1788557498.083525 [EFF] n=5 last=58512 min=58450 max=58515 late=0 stuck=0 rderr=0
1788557498.093762 [IMU] init=0 addr=0x68 who=0x68 rst=1 pmrb0=0x40 pmrb=0x1 sr=19 cfg=4 gcfg=0x0 acfg=0x8 icfg=0x30 ien=0x1 armed=1
1788557498.099004 [ACC] reads=2279 stale=2275 rderr=0 ax=56 ay=-75 az=1124
1788557498.101670 [PWR] pm=0x1 drift=0 rderr=0
1788557498.105644 [DWT] ok=1 cyc=2001010627 cyc_per_ms=799999
1788557499.119275 [HB] up_ms=52014 frames=2324 inf=2324 hazard=287 canary_err=0 q=0 qovr=0
1788557499.130267 [I2C] init=0 gate=0 whoami=0x201e0 wr=0 wrseen=0x27 addr=0x5a ok=16731 err=0 tmo=0 recov=0 pclk1=200000000 sysclk=400000000
1788557499.131636 [NAK] nacks=0
1788557499.136255 [CLK] cpu=800000000 sysb=400000000 pclk1=200000000
1788557499.140878 [TOF] res=0 step=0 id=0xeacc blk=0xeacc10 ctl=0x0
1788557499.146771 [RNG] init=0 step=99 id=0xeacc boot=1 calls=93 xerr=0 dm=1 tb=15
1788557499.153628 [RNG] osc=41 imp=881 imprb=881 mstart=0x40 cfg=91 cfgfail=0x0 vhv=0 vpolls=0
1788557499.159646 [PRT] calls=9417 xerr=0 ler=1 lidx=0x0 perr=0 maxcnt=17 addr8=0x52
1788557499.163778 [RTY] wr=0 wmax=0 wref=0  rd=0 rmax=0 rref=0
1788557499.171538 [RNG] frames=2327 last=59 min=49 max=72 nrdy=0 dxfer=0 dstat=0 lst=0 nrdyerr=0 dclr=0
1788557499.177623 [DRV] init=0 id=7 mode=0x1 lib=0x2 seq=0x1 odc=0x8b sts=0xe0 armed=1
1788557499.183019 [TRG] pulses=23 suppressed=264 cyc=1600 rst=1 rstmode=0x40
1788557499.186376 [HLT] polls=46 faults=0x0 cfglost=0
1788557499.192153 [EFF] n=5 last=58512 min=58450 max=58515 late=0 stuck=0 rderr=0
1788557499.202310 [IMU] init=0 addr=0x68 who=0x68 rst=1 pmrb0=0x40 pmrb=0x1 sr=19 cfg=4 gcfg=0x0 acfg=0x8 icfg=0x30 ien=0x1 armed=1
1788557499.207769 [ACC] reads=2328 stale=2323 rderr=0 ax=55 ay=-73 az=1122
1788557499.210268 [PWR] pm=0x1 drift=0 rderr=0
1788557499.214262 [DWT] ok=1 cyc=2881944545 cyc_per_ms=800121
1788557500.227907 [HB] up_ms=53115 frames=2374 inf=2374 hazard=301 canary_err=0 q=0 qovr=0
1788557500.238619 [I2C] init=0 gate=0 whoami=0x201e0 wr=0 wrseen=0x27 addr=0x5a ok=17033 err=0 tmo=0 recov=0 pclk1=200000000 sysclk=400000000
1788557500.239998 [NAK] nacks=0
1788557500.244516 [CLK] cpu=800000000 sysb=400000000 pclk1=200000000
1788557500.249130 [TOF] res=0 step=0 id=0xeacc blk=0xeacc10 ctl=0x0
1788557500.254987 [RNG] init=0 step=99 id=0xeacc boot=1 calls=93 xerr=0 dm=1 tb=15
1788557500.261885 [RNG] osc=41 imp=881 imprb=881 mstart=0x40 cfg=91 cfgfail=0x0 vhv=0 vpolls=0
1788557500.268342 [PRT] calls=9617 xerr=0 ler=1 lidx=0x0 perr=0 maxcnt=17 addr8=0x52
1788557500.271981 [RTY] wr=0 wmax=0 wref=0  rd=0 rmax=0 rref=0
1788557500.279900 [RNG] frames=2376 last=67 min=49 max=72 nrdy=0 dxfer=0 dstat=0 lst=0 nrdyerr=0 dclr=0
1788557500.285991 [DRV] init=0 id=7 mode=0x1 lib=0x2 seq=0x1 odc=0x8b sts=0xe0 armed=1
1788557500.291250 [TRG] pulses=25 suppressed=279 cyc=1600 rst=1 rstmode=0x40
1788557500.294634 [HLT] polls=47 faults=0x0 cfglost=0
1788557500.300494 [EFF] n=5 last=58512 min=58450 max=58515 late=0 stuck=0 rderr=0
1788557500.310639 [IMU] init=0 addr=0x68 who=0x68 rst=1 pmrb0=0x40 pmrb=0x1 sr=19 cfg=4 gcfg=0x0 acfg=0x8 icfg=0x30 ien=0x1 armed=1
1788557500.315737 [ACC] reads=2378 stale=2373 rderr=0 ax=59 ay=-72 az=1122
1788557500.318481 [PWR] pm=0x1 drift=0 rderr=0
1788557500.322479 [DWT] ok=1 cyc=3762687151 cyc_per_ms=799947
1788557501.335864 [HB] up_ms=54216 frames=2424 inf=2424 hazard=328 canary_err=0 q=0 qovr=0
1788557501.346985 [I2C] init=0 gate=0 whoami=0x201e0 wr=0 wrseen=0x27 addr=0x5a ok=17329 err=0 tmo=0 recov=0 pclk1=200000000 sysclk=400000000
1788557501.348368 [NAK] nacks=0
1788557501.352995 [CLK] cpu=800000000 sysb=400000000 pclk1=200000000
1788557501.357566 [TOF] res=0 step=0 id=0xeacc blk=0xeacc10 ctl=0x0
1788557501.363500 [RNG] init=0 step=99 id=0xeacc boot=1 calls=93 xerr=0 dm=1 tb=15
1788557501.370364 [RNG] osc=41 imp=881 imprb=881 mstart=0x40 cfg=91 cfgfail=0x0 vhv=0 vpolls=0
1788557501.376439 [PRT] calls=9817 xerr=0 ler=1 lidx=0x0 perr=0 maxcnt=17 addr8=0x52
1788557501.380366 [RTY] wr=0 wmax=0 wref=0  rd=0 rmax=0 rref=0
1788557501.388229 [RNG] frames=2426 last=62 min=49 max=73 nrdy=0 dxfer=0 dstat=0 lst=0 nrdyerr=0 dclr=0
1788557501.394497 [DRV] init=0 id=7 mode=0x1 lib=0x2 seq=0x1 odc=0x8b sts=0xe0 armed=1
1788557501.399742 [TRG] pulses=26 suppressed=302 cyc=1600 rst=1 rstmode=0x40
1788557501.402976 [HLT] polls=48 faults=0x0 cfglost=0
1788557501.408899 [EFF] n=5 last=58512 min=58450 max=58515 late=0 stuck=0 rderr=0
1788557501.419124 [IMU] init=0 addr=0x68 who=0x68 rst=1 pmrb0=0x40 pmrb=0x1 sr=19 cfg=4 gcfg=0x0 acfg=0x8 icfg=0x30 ien=0x1 armed=1
1788557501.424290 [ACC] reads=2428 stale=2423 rderr=0 ax=56 ay=-74 az=1124
1788557501.427005 [PWR] pm=0x1 drift=0 rderr=0
1788557501.430733 [DWT] ok=1 cyc=348444091 cyc_per_ms=799931
1788557502.444609 [HB] up_ms=55317 frames=2474 inf=2474 hazard=328 canary_err=0 q=0 qovr=0
1788557502.455855 [I2C] init=0 gate=0 whoami=0x201e0 wr=0 wrseen=0x27 addr=0x5a ok=17631 err=0 tmo=0 recov=0 pclk1=200000000 sysclk=400000000
1788557502.457094 [NAK] nacks=0
1788557502.461748 [CLK] cpu=800000000 sysb=400000000 pclk1=200000000
1788557502.466258 [TOF] res=0 step=0 id=0xeacc blk=0xeacc10 ctl=0x0
1788557502.472129 [RNG] init=0 step=99 id=0xeacc boot=1 calls=93 xerr=0 dm=1 tb=15
1788557502.479154 [RNG] osc=41 imp=881 imprb=881 mstart=0x40 cfg=91 cfgfail=0x0 vhv=0 vpolls=0
1788557502.485228 [PRT] calls=10017 xerr=0 ler=1 lidx=0x0 perr=0 maxcnt=17 addr8=0x52
1788557502.489224 [RTY] wr=0 wmax=0 wref=0  rd=0 rmax=0 rref=0
1788557502.497122 [RNG] frames=2476 last=64 min=49 max=73 nrdy=0 dxfer=0 dstat=0 lst=0 nrdyerr=0 dclr=0
1788557502.503384 [DRV] init=0 id=7 mode=0x1 lib=0x2 seq=0x1 odc=0x8b sts=0xe0 armed=1
1788557502.508732 [TRG] pulses=26 suppressed=302 cyc=1600 rst=1 rstmode=0x40
1788557502.511857 [HLT] polls=49 faults=0x0 cfglost=0
1788557502.517599 [EFF] n=5 last=58512 min=58450 max=58515 late=0 stuck=0 rderr=0
1788557502.527981 [IMU] init=0 addr=0x68 who=0x68 rst=1 pmrb0=0x40 pmrb=0x1 sr=19 cfg=4 gcfg=0x0 acfg=0x8 icfg=0x30 ien=0x1 armed=1
1788557502.533126 [ACC] reads=2478 stale=2473 rderr=0 ax=56 ay=-75 az=1123
1788557502.535731 [PWR] pm=0x1 drift=0 rderr=0
1788557502.539729 [DWT] ok=1 cyc=1229313415 cyc_per_ms=800062
1788557503.553269 [HB] up_ms=56418 frames=2524 inf=2524 hazard=328 canary_err=0 q=0 qovr=0
1788557503.564374 [I2C] init=0 gate=0 whoami=0x201e0 wr=0 wrseen=0x27 addr=0x5a ok=17933 err=0 tmo=0 recov=0 pclk1=200000000 sysclk=400000000
1788557503.565721 [NAK] nacks=0
1788557503.570215 [CLK] cpu=800000000 sysb=400000000 pclk1=200000000
1788557503.574786 [TOF] res=0 step=0 id=0xeacc blk=0xeacc10 ctl=0x0
1788557503.580603 [RNG] init=0 step=99 id=0xeacc boot=1 calls=93 xerr=0 dm=1 tb=15
1788557503.587722 [RNG] osc=41 imp=881 imprb=881 mstart=0x40 cfg=91 cfgfail=0x0 vhv=0 vpolls=0
1788557503.593753 [PRT] calls=10217 xerr=0 ler=1 lidx=0x0 perr=0 maxcnt=17 addr8=0x52
1788557503.597894 [RTY] wr=0 wmax=0 wref=0  rd=0 rmax=0 rref=0
1788557503.605488 [RNG] frames=2526 last=59 min=49 max=73 nrdy=0 dxfer=0 dstat=0 lst=0 nrdyerr=0 dclr=0
1788557503.611893 [DRV] init=0 id=7 mode=0x1 lib=0x2 seq=0x1 odc=0x8b sts=0xe0 armed=1
1788557503.617142 [TRG] pulses=26 suppressed=302 cyc=1600 rst=1 rstmode=0x40
1788557503.620492 [HLT] polls=50 faults=0x0 cfglost=0
1788557503.626192 [EFF] n=5 last=58512 min=58450 max=58515 late=0 stuck=0 rderr=0
1788557503.636502 [IMU] init=0 addr=0x68 who=0x68 rst=1 pmrb0=0x40 pmrb=0x1 sr=19 cfg=4 gcfg=0x0 acfg=0x8 icfg=0x30 ien=0x1 armed=1
1788557503.641690 [ACC] reads=2528 stale=2523 rderr=0 ax=56 ay=-72 az=1130
1788557503.644292 [PWR] pm=0x1 drift=0 rderr=0
1788557503.648273 [DWT] ok=1 cyc=2110113163 cyc_per_ms=799999
1788557504.661231 [HB] up_ms=57519 frames=2574 inf=2574 hazard=328 canary_err=0 q=0 qovr=0
1788557504.672340 [I2C] init=0 gate=0 whoami=0x201e0 wr=0 wrseen=0x27 addr=0x5a ok=18235 err=0 tmo=0 recov=0 pclk1=200000000 sysclk=400000000
1788557504.673753 [NAK] nacks=0
1788557504.678352 [CLK] cpu=800000000 sysb=400000000 pclk1=200000000
1788557504.682831 [TOF] res=0 step=0 id=0xeacc blk=0xeacc10 ctl=0x0
1788557504.688729 [RNG] init=0 step=99 id=0xeacc boot=1 calls=93 xerr=0 dm=1 tb=15
1788557504.695604 [RNG] osc=41 imp=881 imprb=881 mstart=0x40 cfg=91 cfgfail=0x0 vhv=0 vpolls=0
1788557504.701837 [PRT] calls=10413 xerr=0 ler=1 lidx=0x0 perr=0 maxcnt=17 addr8=0x52
1788557504.705838 [RTY] wr=0 wmax=0 wref=0  rd=0 rmax=0 rref=0
1788557504.713676 [RNG] frames=2576 last=60 min=49 max=73 nrdy=0 dxfer=0 dstat=0 lst=0 nrdyerr=0 dclr=0
1788557504.719850 [DRV] init=0 id=7 mode=0x1 lib=0x2 seq=0x1 odc=0x8b sts=0xe0 armed=1
1788557504.725206 [TRG] pulses=26 suppressed=302 cyc=1600 rst=1 rstmode=0x40
1788557504.728466 [HLT] polls=51 faults=0x0 cfglost=0
1788557504.734221 [EFF] n=5 last=58512 min=58450 max=58515 late=0 stuck=0 rderr=0
1788557504.744583 [IMU] init=0 addr=0x68 who=0x68 rst=1 pmrb0=0x40 pmrb=0x1 sr=19 cfg=4 gcfg=0x0 acfg=0x8 icfg=0x30 ien=0x1 armed=1
1788557504.749719 [ACC] reads=2578 stale=2573 rderr=0 ax=55 ay=-74 az=1124
1788557504.752330 [PWR] pm=0x1 drift=0 rderr=0
1788557504.756378 [DWT] ok=1 cyc=2990913283 cyc_per_ms=800000
1788557505.769585 [HB] up_ms=58620 frames=2624 inf=2624 hazard=328 canary_err=0 q=0 qovr=0
1788557505.780609 [I2C] init=0 gate=0 whoami=0x201e0 wr=0 wrseen=0x27 addr=0x5a ok=18537 err=0 tmo=0 recov=0 pclk1=200000000 sysclk=400000000
1788557505.782019 [NAK] nacks=0
1788557505.786710 [CLK] cpu=800000000 sysb=400000000 pclk1=200000000
1788557505.791320 [TOF] res=0 step=0 id=0xeacc blk=0xeacc10 ctl=0x0
1788557505.797088 [RNG] init=0 step=99 id=0xeacc boot=1 calls=93 xerr=0 dm=1 tb=15
1788557505.803987 [RNG] osc=41 imp=881 imprb=881 mstart=0x40 cfg=91 cfgfail=0x0 vhv=0 vpolls=0
1788557505.810291 [PRT] calls=10613 xerr=0 ler=1 lidx=0x0 perr=0 maxcnt=17 addr8=0x52
1788557505.814239 [RTY] wr=0 wmax=0 wref=0  rd=0 rmax=0 rref=0
1788557505.821986 [RNG] frames=2626 last=62 min=49 max=73 nrdy=0 dxfer=0 dstat=0 lst=0 nrdyerr=0 dclr=0
1788557505.828162 [DRV] init=0 id=7 mode=0x1 lib=0x2 seq=0x1 odc=0x8b sts=0xe0 armed=1
1788557505.833594 [TRG] pulses=26 suppressed=302 cyc=1600 rst=1 rstmode=0x40
1788557505.836861 [HLT] polls=52 faults=0x0 cfglost=0
1788557505.842601 [EFF] n=5 last=58512 min=58450 max=58515 late=0 stuck=0 rderr=0
1788557505.852733 [IMU] init=0 addr=0x68 who=0x68 rst=1 pmrb0=0x40 pmrb=0x1 sr=19 cfg=4 gcfg=0x0 acfg=0x8 icfg=0x30 ien=0x1 armed=1
1788557505.858340 [ACC] reads=2627 stale=2622 rderr=0 ax=56 ay=-73 az=1125
1788557505.860753 [PWR] pm=0x1 drift=0 rderr=0
1788557505.864740 [DWT] ok=1 cyc=3871713375 cyc_per_ms=800000
1788557506.879266 [HB] up_ms=59721 frames=2673 inf=2673 hazard=328 canary_err=0 q=0 qovr=0
1788557506.889349 [I2C] init=0 gate=0 whoami=0x201e0 wr=0 wrseen=0x27 addr=0x5a ok=18839 err=0 tmo=0 recov=0 pclk1=200000000 sysclk=400000000
1788557506.890741 [NAK] nacks=0
1788557506.895343 [CLK] cpu=800000000 sysb=400000000 pclk1=200000000
1788557506.899957 [TOF] res=0 step=0 id=0xeacc blk=0xeacc10 ctl=0x0
1788557506.905826 [RNG] init=0 step=99 id=0xeacc boot=1 calls=93 xerr=0 dm=1 tb=15
1788557506.912708 [RNG] osc=41 imp=881 imprb=881 mstart=0x40 cfg=91 cfgfail=0x0 vhv=0 vpolls=0
1788557506.918706 [PRT] calls=10813 xerr=0 ler=1 lidx=0x0 perr=0 maxcnt=17 addr8=0x52
1788557506.922940 [RTY] wr=0 wmax=0 wref=0  rd=0 rmax=0 rref=0
1788557506.930720 [RNG] frames=2676 last=61 min=49 max=73 nrdy=0 dxfer=0 dstat=0 lst=0 nrdyerr=0 dclr=0
1788557506.936828 [DRV] init=0 id=7 mode=0x1 lib=0x2 seq=0x1 odc=0x8b sts=0xe0 armed=1
1788557506.942070 [TRG] pulses=26 suppressed=302 cyc=1600 rst=1 rstmode=0x40
1788557506.945598 [HLT] polls=53 faults=0x0 cfglost=0
1788557506.951318 [EFF] n=5 last=58512 min=58450 max=58515 late=0 stuck=0 rderr=0
1788557506.961474 [IMU] init=0 addr=0x68 who=0x68 rst=1 pmrb0=0x40 pmrb=0x1 sr=19 cfg=4 gcfg=0x0 acfg=0x8 icfg=0x30 ien=0x1 armed=1
1788557506.966764 [ACC] reads=2677 stale=2672 rderr=0 ax=56 ay=-72 az=1125
1788557506.969485 [PWR] pm=0x1 drift=0 rderr=0
1788557506.973358 [DWT] ok=1 cyc=457680737 cyc_per_ms=800122
1788557507.986957 [HB] up_ms=60822 frames=2723 inf=2723 hazard=369 canary_err=0 q=0 qovr=0
1788557507.998057 [I2C] init=0 gate=0 whoami=0x201e0 wr=0 wrseen=0x27 addr=0x5a ok=19139 err=0 tmo=0 recov=0 pclk1=200000000 sysclk=400000000
1788557507.999298 [NAK] nacks=0
1788557508.003930 [CLK] cpu=800000000 sysb=400000000 pclk1=200000000
1788557508.008875 [TOF] res=0 step=0 id=0xeacc blk=0xeacc10 ctl=0x0
1788557508.014435 [RNG] init=0 step=99 id=0xeacc boot=1 calls=93 xerr=0 dm=1 tb=15
1788557508.021302 [RNG] osc=41 imp=881 imprb=881 mstart=0x40 cfg=91 cfgfail=0x0 vhv=0 vpolls=0
1788557508.027610 [PRT] calls=11013 xerr=0 ler=1 lidx=0x0 perr=0 maxcnt=17 addr8=0x52
1788557508.031446 [RTY] wr=0 wmax=0 wref=0  rd=0 rmax=0 rref=0
1788557508.039299 [RNG] frames=2725 last=67 min=49 max=73 nrdy=0 dxfer=0 dstat=0 lst=0 nrdyerr=0 dclr=0
1788557508.045574 [DRV] init=0 id=7 mode=0x1 lib=0x2 seq=0x1 odc=0x8b sts=0xe0 armed=1
1788557508.050833 [TRG] pulses=29 suppressed=340 cyc=1600 rst=1 rstmode=0x40
1788557508.054072 [HLT] polls=54 faults=0x0 cfglost=0
1788557508.060109 [EFF] n=5 last=58512 min=58450 max=58515 late=0 stuck=0 rderr=0
1788557508.070187 [IMU] init=0 addr=0x68 who=0x68 rst=1 pmrb0=0x40 pmrb=0x1 sr=19 cfg=4 gcfg=0x0 acfg=0x8 icfg=0x30 ien=0x1 armed=1
1788557508.075336 [ACC] reads=2727 stale=2722 rderr=0 ax=55 ay=-73 az=1127
1788557508.077954 [PWR] pm=0x1 drift=0 rderr=0
1788557508.082068 [DWT] ok=1 cyc=1338345903 cyc_per_ms=799877
1788557509.097288 [HB] up_ms=61924 frames=2773 inf=2773 hazard=369 canary_err=0 q=0 qovr=0
1788557509.108427 [I2C] init=0 gate=0 whoami=0x201e0 wr=0 wrseen=0x27 addr=0x5a ok=19437 err=0 tmo=0 recov=0 pclk1=200000000 sysclk=400000000
1788557509.109708 [NAK] nacks=0
1788557509.114315 [CLK] cpu=800000000 sysb=400000000 pclk1=200000000
1788557509.118831 [TOF] res=0 step=0 id=0xeacc blk=0xeacc10 ctl=0x0
1788557509.124814 [RNG] init=0 step=99 id=0xeacc boot=1 calls=93 xerr=0 dm=1 tb=15
1788557509.131678 [RNG] osc=41 imp=881 imprb=881 mstart=0x40 cfg=91 cfgfail=0x0 vhv=0 vpolls=0
1788557509.137796 [PRT] calls=11213 xerr=0 ler=1 lidx=0x0 perr=0 maxcnt=17 addr8=0x52
1788557509.141940 [RTY] wr=0 wmax=0 wref=0  rd=0 rmax=0 rref=0
1788557509.149813 [RNG] frames=2775 last=63 min=49 max=73 nrdy=0 dxfer=0 dstat=0 lst=0 nrdyerr=0 dclr=0
1788557509.155922 [DRV] init=0 id=7 mode=0x1 lib=0x2 seq=0x1 odc=0x8b sts=0xe0 armed=1
1788557509.161205 [TRG] pulses=29 suppressed=340 cyc=1600 rst=1 rstmode=0x40
1788557509.164582 [HLT] polls=55 faults=0x0 cfglost=0
1788557509.170431 [EFF] n=5 last=58512 min=58450 max=58515 late=0 stuck=0 rderr=0
1788557509.180615 [IMU] init=0 addr=0x68 who=0x68 rst=1 pmrb0=0x40 pmrb=0x1 sr=19 cfg=4 gcfg=0x0 acfg=0x8 icfg=0x30 ien=0x1 armed=1
1788557509.185680 [ACC] reads=2777 stale=2772 rderr=0 ax=56 ay=-71 az=1128
1788557509.188304 [PWR] pm=0x1 drift=0 rderr=0
1788557509.192486 [DWT] ok=1 cyc=2219946759 cyc_per_ms=800000
1788557510.206301 [HB] up_ms=63025 frames=2823 inf=2823 hazard=369 canary_err=0 q=0 qovr=0
1788557510.217533 [I2C] init=0 gate=0 whoami=0x201e0 wr=0 wrseen=0x27 addr=0x5a ok=19739 err=0 tmo=0 recov=0 pclk1=200000000 sysclk=400000000
1788557510.218804 [NAK] nacks=0
1788557510.223400 [CLK] cpu=800000000 sysb=400000000 pclk1=200000000
1788557510.229336 [TOF] res=0 step=0 id=0xeacc blk=0xeacc10 ctl=0x0
1788557510.233796 [RNG] init=0 step=99 id=0xeacc boot=1 calls=93 xerr=0 dm=1 tb=15
1788557510.240805 [RNG] osc=41 imp=881 imprb=881 mstart=0x40 cfg=91 cfgfail=0x0 vhv=0 vpolls=0
1788557510.246910 [PRT] calls=11413 xerr=0 ler=1 lidx=0x0 perr=0 maxcnt=17 addr8=0x52
1788557510.250912 [RTY] wr=0 wmax=0 wref=0  rd=0 rmax=0 rref=0
1788557510.258897 [RNG] frames=2825 last=60 min=49 max=73 nrdy=0 dxfer=0 dstat=0 lst=0 nrdyerr=0 dclr=0
1788557510.265033 [DRV] init=0 id=7 mode=0x1 lib=0x2 seq=0x1 odc=0x8b sts=0xe0 armed=1
1788557510.270276 [TRG] pulses=29 suppressed=340 cyc=1600 rst=1 rstmode=0x40
1788557510.273527 [HLT] polls=56 faults=0x0 cfglost=0
1788557510.279285 [EFF] n=5 last=58512 min=58450 max=58515 late=0 stuck=0 rderr=0
1788557510.289664 [IMU] init=0 addr=0x68 who=0x68 rst=1 pmrb0=0x40 pmrb=0x1 sr=19 cfg=4 gcfg=0x0 acfg=0x8 icfg=0x30 ien=0x1 armed=1
1788557510.294798 [ACC] reads=2827 stale=2822 rderr=0 ax=57 ay=-70 az=1128
1788557510.297418 [PWR] pm=0x1 drift=0 rderr=0
1788557510.301400 [DWT] ok=1 cyc=3100746079 cyc_per_ms=799999
1788557511.314928 [HB] up_ms=64126 frames=2873 inf=2873 hazard=369 canary_err=0 q=0 qovr=0
1788557511.326112 [I2C] init=0 gate=0 whoami=0x201e0 wr=0 wrseen=0x27 addr=0x5a ok=20041 err=0 tmo=0 recov=0 pclk1=200000000 sysclk=400000000
1788557511.327699 [NAK] nacks=0
1788557511.332048 [CLK] cpu=800000000 sysb=400000000 pclk1=200000000
1788557511.336540 [TOF] res=0 step=0 id=0xeacc blk=0xeacc10 ctl=0x0
1788557511.342281 [RNG] init=0 step=99 id=0xeacc boot=1 calls=93 xerr=0 dm=1 tb=15
1788557511.349436 [RNG] osc=41 imp=881 imprb=881 mstart=0x40 cfg=91 cfgfail=0x0 vhv=0 vpolls=0
1788557511.355543 [PRT] calls=11613 xerr=0 ler=1 lidx=0x0 perr=0 maxcnt=17 addr8=0x52
1788557511.359642 [RTY] wr=0 wmax=0 wref=0  rd=0 rmax=0 rref=0
1788557511.367290 [RNG] frames=2875 last=67 min=49 max=73 nrdy=0 dxfer=0 dstat=0 lst=0 nrdyerr=0 dclr=0
1788557511.373681 [DRV] init=0 id=7 mode=0x1 lib=0x2 seq=0x1 odc=0x8b sts=0xe0 armed=1
1788557511.379001 [TRG] pulses=29 suppressed=340 cyc=1600 rst=1 rstmode=0x40
1788557511.382213 [HLT] polls=57 faults=0x0 cfglost=0
1788557511.387915 [EFF] n=5 last=58512 min=58450 max=58515 late=0 stuck=0 rderr=0
1788557511.398300 [IMU] init=0 addr=0x68 who=0x68 rst=1 pmrb0=0x40 pmrb=0x1 sr=19 cfg=4 gcfg=0x0 acfg=0x8 icfg=0x30 ien=0x1 armed=1
1788557511.403414 [ACC] reads=2877 stale=2872 rderr=0 ax=57 ay=-69 az=1123
1788557511.406034 [PWR] pm=0x1 drift=0 rderr=0
1788557511.410066 [DWT] ok=1 cyc=3981545859 cyc_per_ms=799999
1788557512.425069 [HB] up_ms=65227 frames=2923 inf=2923 hazard=369 canary_err=0 q=0 qovr=0
1788557512.435979 [I2C] init=0 gate=0 whoami=0x201e0 wr=0 wrseen=0x27 addr=0x5a ok=20343 err=0 tmo=0 recov=0 pclk1=200000000 sysclk=400000000
1788557512.437130 [NAK] nacks=0
1788557512.442001 [CLK] cpu=800000000 sysb=400000000 pclk1=200000000
1788557512.446194 [TOF] res=0 step=0 id=0xeacc blk=0xeacc10 ctl=0x0
1788557512.452029 [RNG] init=0 step=99 id=0xeacc boot=1 calls=93 xerr=0 dm=1 tb=15
1788557512.458968 [RNG] osc=41 imp=881 imprb=881 mstart=0x40 cfg=91 cfgfail=0x0 vhv=0 vpolls=0
1788557512.465190 [PRT] calls=11809 xerr=0 ler=1 lidx=0x0 perr=0 maxcnt=17 addr8=0x52
1788557512.469265 [RTY] wr=0 wmax=0 wref=0  rd=0 rmax=0 rref=0
1788557512.476951 [RNG] frames=2925 last=62 min=49 max=73 nrdy=0 dxfer=0 dstat=0 lst=0 nrdyerr=0 dclr=0
1788557512.483327 [DRV] init=0 id=7 mode=0x1 lib=0x2 seq=0x1 odc=0x8b sts=0xe0 armed=1
1788557512.488524 [TRG] pulses=29 suppressed=340 cyc=1600 rst=1 rstmode=0x40
1788557512.491820 [HLT] polls=58 faults=0x0 cfglost=0
1788557512.497540 [EFF] n=5 last=58512 min=58450 max=58515 late=0 stuck=0 rderr=0
1788557512.507927 [IMU] init=0 addr=0x68 who=0x68 rst=1 pmrb0=0x40 pmrb=0x1 sr=19 cfg=4 gcfg=0x0 acfg=0x8 icfg=0x30 ien=0x1 armed=1
1788557512.513114 [ACC] reads=2927 stale=2922 rderr=0 ax=57 ay=-70 az=1125
1788557512.515676 [PWR] pm=0x1 drift=0 rderr=0
1788557512.519532 [DWT] ok=1 cyc=567378695 cyc_per_ms=800000
1788557513.534036 [HB] up_ms=66328 frames=2973 inf=2973 hazard=369 canary_err=0 q=0 qovr=0
1788557513.545029 [I2C] init=0 gate=0 whoami=0x201e0 wr=0 wrseen=0x27 addr=0x5a ok=20645 err=0 tmo=0 recov=0 pclk1=200000000 sysclk=400000000
1788557513.546424 [NAK] nacks=0
1788557513.551189 [CLK] cpu=800000000 sysb=400000000 pclk1=200000000
1788557513.555656 [TOF] res=0 step=0 id=0xeacc blk=0xeacc10 ctl=0x0
1788557513.561521 [RNG] init=0 step=99 id=0xeacc boot=1 calls=93 xerr=0 dm=1 tb=15
1788557513.568389 [RNG] osc=41 imp=881 imprb=881 mstart=0x40 cfg=91 cfgfail=0x0 vhv=0 vpolls=0
1788557513.574655 [PRT] calls=12009 xerr=0 ler=1 lidx=0x0 perr=0 maxcnt=17 addr8=0x52
1788557513.578802 [RTY] wr=0 wmax=0 wref=0  rd=0 rmax=0 rref=0
1788557513.586401 [RNG] frames=2975 last=65 min=49 max=73 nrdy=0 dxfer=0 dstat=0 lst=0 nrdyerr=0 dclr=0
1788557513.592729 [DRV] init=0 id=7 mode=0x1 lib=0x2 seq=0x1 odc=0x8b sts=0xe0 armed=1
1788557513.598182 [TRG] pulses=29 suppressed=340 cyc=1600 rst=1 rstmode=0x40
1788557513.601410 [HLT] polls=59 faults=0x0 cfglost=0
1788557513.607255 [EFF] n=5 last=58512 min=58450 max=58515 late=0 stuck=0 rderr=0
1788557513.617282 [IMU] init=0 addr=0x68 who=0x68 rst=1 pmrb0=0x40 pmrb=0x1 sr=19 cfg=4 gcfg=0x0 acfg=0x8 icfg=0x30 ien=0x1 armed=1
1788557513.622544 [ACC] reads=2976 stale=2971 rderr=0 ax=57 ay=-70 az=1125
1788557513.625383 [PWR] pm=0x1 drift=0 rderr=0
1788557513.629165 [DWT] ok=1 cyc=1448178707 cyc_per_ms=800000
1788557514.643902 [HB] up_ms=67429 frames=3022 inf=3022 hazard=391 canary_err=0 q=0 qovr=0
1788557514.654904 [I2C] init=0 gate=0 whoami=0x201e0 wr=0 wrseen=0x27 addr=0x5a ok=20947 err=0 tmo=0 recov=0 pclk1=200000000 sysclk=400000000
1788557514.656275 [NAK] nacks=0
1788557514.660810 [CLK] cpu=800000000 sysb=400000000 pclk1=200000000
1788557514.665519 [TOF] res=0 step=0 id=0xeacc blk=0xeacc10 ctl=0x0
1788557514.671263 [RNG] init=0 step=99 id=0xeacc boot=1 calls=93 xerr=0 dm=1 tb=15
1788557514.678162 [RNG] osc=41 imp=881 imprb=881 mstart=0x40 cfg=91 cfgfail=0x0 vhv=0 vpolls=0
1788557514.684273 [PRT] calls=12209 xerr=0 ler=1 lidx=0x0 perr=0 maxcnt=17 addr8=0x52
1788557514.688513 [RTY] wr=0 wmax=0 wref=0  rd=0 rmax=0 rref=0
1788557514.696272 [RNG] frames=3025 last=64 min=49 max=73 nrdy=0 dxfer=0 dstat=0 lst=0 nrdyerr=0 dclr=0
1788557514.702382 [DRV] init=0 id=7 mode=0x1 lib=0x2 seq=0x1 odc=0x8b sts=0xe0 armed=1
1788557514.707624 [TRG] pulses=31 suppressed=363 cyc=1600 rst=1 rstmode=0x40
1788557514.711174 [HLT] polls=60 faults=0x0 cfglost=0
1788557514.716894 [EFF] n=5 last=58512 min=58450 max=58515 late=0 stuck=0 rderr=0
1788557514.727136 [IMU] init=0 addr=0x68 who=0x68 rst=1 pmrb0=0x40 pmrb=0x1 sr=19 cfg=4 gcfg=0x0 acfg=0x8 icfg=0x30 ien=0x1 armed=1
1788557514.732271 [ACC] reads=3026 stale=3021 rderr=0 ax=57 ay=-69 az=1124
1788557514.735012 [PWR] pm=0x1 drift=0 rderr=0
1788557514.739004 [DWT] ok=1 cyc=2329117805 cyc_per_ms=800126
1788557515.754382 [HB] up_ms=68531 frames=3072 inf=3072 hazard=410 canary_err=0 q=0 qovr=0
1788557515.765411 [I2C] init=0 gate=0 whoami=0x201e0 wr=0 wrseen=0x27 addr=0x5a ok=21249 err=0 tmo=0 recov=0 pclk1=200000000 sysclk=400000000
1788557515.766796 [NAK] nacks=0
1788557515.771393 [CLK] cpu=800000000 sysb=400000000 pclk1=200000000
1788557515.775936 [TOF] res=0 step=0 id=0xeacc blk=0xeacc10 ctl=0x0
1788557515.781891 [RNG] init=0 step=99 id=0xeacc boot=1 calls=93 xerr=0 dm=1 tb=15
1788557515.788756 [RNG] osc=41 imp=881 imprb=881 mstart=0x40 cfg=91 cfgfail=0x0 vhv=0 vpolls=0
1788557515.794908 [PRT] calls=12409 xerr=0 ler=1 lidx=0x0 perr=0 maxcnt=17 addr8=0x52
1788557515.799005 [RTY] wr=0 wmax=0 wref=0  rd=0 rmax=0 rref=0
1788557515.806773 [RNG] frames=3074 last=65 min=49 max=73 nrdy=0 dxfer=0 dstat=0 lst=0 nrdyerr=0 dclr=0
1788557515.813009 [DRV] init=0 id=7 mode=0x1 lib=0x2 seq=0x1 odc=0x8b sts=0xe0 armed=1
1788557515.818264 [TRG] pulses=32 suppressed=378 cyc=1600 rst=1 rstmode=0x40
1788557515.821501 [HLT] polls=61 faults=0x0 cfglost=0
1788557515.827535 [EFF] n=5 last=58512 min=58450 max=58515 late=0 stuck=0 rderr=0
1788557515.837630 [IMU] init=0 addr=0x68 who=0x68 rst=1 pmrb0=0x40 pmrb=0x1 sr=19 cfg=4 gcfg=0x0 acfg=0x8 icfg=0x30 ien=0x1 armed=1
1788557515.842747 [ACC] reads=3076 stale=3071 rderr=0 ax=56 ay=-69 az=1125
1788557515.845500 [PWR] pm=0x1 drift=0 rderr=0
1788557515.849504 [DWT] ok=1 cyc=3210650971 cyc_per_ms=799939
1788557516.864896 [HB] up_ms=69633 frames=3122 inf=3122 hazard=410 canary_err=0 q=0 qovr=0
1788557516.876208 [I2C] init=0 gate=0 whoami=0x201e0 wr=0 wrseen=0x27 addr=0x5a ok=21545 err=0 tmo=0 recov=0 pclk1=200000000 sysclk=400000000
1788557516.877421 [NAK] nacks=0
1788557516.882009 [CLK] cpu=800000000 sysb=400000000 pclk1=200000000
1788557516.886517 [TOF] res=0 step=0 id=0xeacc blk=0xeacc10 ctl=0x0
1788557516.892519 [RNG] init=0 step=99 id=0xeacc boot=1 calls=93 xerr=0 dm=1 tb=15
1788557516.899368 [RNG] osc=41 imp=881 imprb=881 mstart=0x40 cfg=91 cfgfail=0x0 vhv=0 vpolls=0
1788557516.905534 [PRT] calls=12609 xerr=0 ler=1 lidx=0x0 perr=0 maxcnt=17 addr8=0x52
1788557516.909639 [RTY] wr=0 wmax=0 wref=0  rd=0 rmax=0 rref=0
1788557516.917513 [RNG] frames=3124 last=66 min=49 max=73 nrdy=0 dxfer=0 dstat=0 lst=0 nrdyerr=0 dclr=0
1788557516.923629 [DRV] init=0 id=7 mode=0x1 lib=0x2 seq=0x1 odc=0x8b sts=0xe0 armed=1
1788557516.928896 [TRG] pulses=32 suppressed=378 cyc=1600 rst=1 rstmode=0x40
1788557516.932243 [HLT] polls=62 faults=0x0 cfglost=0
1788557516.938227 [EFF] n=5 last=58512 min=58450 max=58515 late=0 stuck=0 rderr=0
1788557516.948272 [IMU] init=0 addr=0x68 who=0x68 rst=1 pmrb0=0x40 pmrb=0x1 sr=19 cfg=4 gcfg=0x0 acfg=0x8 icfg=0x30 ien=0x1 armed=1
1788557516.953381 [ACC] reads=3126 stale=3121 rderr=0 ax=56 ay=-70 az=1126
1788557516.956014 [PWR] pm=0x1 drift=0 rderr=0
1788557516.960169 [DWT] ok=1 cyc=4092178867 cyc_per_ms=799934
1788557517.975179 [HB] up_ms=70735 frames=3172 inf=3172 hazard=410 canary_err=0 q=0 qovr=0
1788557517.986368 [I2C] init=0 gate=0 whoami=0x201e0 wr=0 wrseen=0x27 addr=0x5a ok=21847 err=0 tmo=0 recov=0 pclk1=200000000 sysclk=400000000
1788557517.987602 [NAK] nacks=0
1788557517.992250 [CLK] cpu=800000000 sysb=400000000 pclk1=200000000
1788557517.996742 [TOF] res=0 step=0 id=0xeacc blk=0xeacc10 ctl=0x0
1788557518.002623 [RNG] init=0 step=99 id=0xeacc boot=1 calls=93 xerr=0 dm=1 tb=15
1788557518.009686 [RNG] osc=41 imp=881 imprb=881 mstart=0x40 cfg=91 cfgfail=0x0 vhv=0 vpolls=0
1788557518.015742 [PRT] calls=12809 xerr=0 ler=1 lidx=0x0 perr=0 maxcnt=17 addr8=0x52
1788557518.019852 [RTY] wr=0 wmax=0 wref=0  rd=0 rmax=0 rref=0
1788557518.027652 [RNG] frames=3174 last=59 min=49 max=73 nrdy=0 dxfer=0 dstat=0 lst=0 nrdyerr=0 dclr=0
1788557518.033881 [DRV] init=0 id=7 mode=0x1 lib=0x2 seq=0x1 odc=0x8b sts=0xe0 armed=1
1788557518.039135 [TRG] pulses=32 suppressed=378 cyc=1600 rst=1 rstmode=0x40
1788557518.042428 [HLT] polls=63 faults=0x0 cfglost=0
1788557518.048133 [EFF] n=5 last=58512 min=58450 max=58515 late=0 stuck=0 rderr=0
1788557518.058507 [IMU] init=0 addr=0x68 who=0x68 rst=1 pmrb0=0x40 pmrb=0x1 sr=19 cfg=4 gcfg=0x0 acfg=0x8 icfg=0x30 ien=0x1 armed=1
1788557518.063625 [ACC] reads=3176 stale=3171 rderr=0 ax=56 ay=-68 az=1124
1788557518.066228 [PWR] pm=0x1 drift=0 rderr=0
1788557518.070143 [DWT] ok=1 cyc=678811275 cyc_per_ms=799999
1788557519.084010 [HB] up_ms=71836 frames=3222 inf=3222 hazard=410 canary_err=0 q=0 qovr=0
1788557519.095153 [I2C] init=0 gate=0 whoami=0x201e0 wr=0 wrseen=0x27 addr=0x5a ok=22149 err=0 tmo=0 recov=0 pclk1=200000000 sysclk=400000000
1788557519.096478 [NAK] nacks=0
1788557519.100974 [CLK] cpu=800000000 sysb=400000000 pclk1=200000000
1788557519.105487 [TOF] res=0 step=0 id=0xeacc blk=0xeacc10 ctl=0x0
1788557519.111378 [RNG] init=0 step=99 id=0xeacc boot=1 calls=93 xerr=0 dm=1 tb=15
1788557519.118478 [RNG] osc=41 imp=881 imprb=881 mstart=0x40 cfg=91 cfgfail=0x0 vhv=0 vpolls=0
1788557519.124519 [PRT] calls=13009 xerr=0 ler=1 lidx=0x0 perr=0 maxcnt=17 addr8=0x52
1788557519.129120 [RTY] wr=0 wmax=0 wref=0  rd=0 rmax=0 rref=0
1788557519.136233 [RNG] frames=3224 last=60 min=49 max=73 nrdy=0 dxfer=0 dstat=0 lst=0 nrdyerr=0 dclr=0
1788557519.142602 [DRV] init=0 id=7 mode=0x1 lib=0x2 seq=0x1 odc=0x8b sts=0xe0 armed=1
1788557519.148010 [TRG] pulses=32 suppressed=378 cyc=1600 rst=1 rstmode=0x40
1788557519.151243 [HLT] polls=64 faults=0x0 cfglost=0
1788557519.156986 [EFF] n=5 last=58512 min=58450 max=58515 late=0 stuck=0 rderr=0
1788557519.167255 [IMU] init=0 addr=0x68 who=0x68 rst=1 pmrb0=0x40 pmrb=0x1 sr=19 cfg=4 gcfg=0x0 acfg=0x8 icfg=0x30 ien=0x1 armed=1
1788557519.172378 [ACC] reads=3226 stale=3221 rderr=0 ax=57 ay=-70 az=1129
1788557519.175331 [PWR] pm=0x1 drift=0 rderr=0
1788557519.179019 [DWT] ok=1 cyc=1559611395 cyc_per_ms=800000
1788557520.193429 [HB] up_ms=72937 frames=3272 inf=3272 hazard=410 canary_err=0 q=0 qovr=0
1788557520.204513 [I2C] init=0 gate=0 whoami=0x201e0 wr=0 wrseen=0x27 addr=0x5a ok=22451 err=0 tmo=0 recov=0 pclk1=200000000 sysclk=400000000
1788557520.205884 [NAK] nacks=0
1788557520.210515 [CLK] cpu=800000000 sysb=400000000 pclk1=200000000
1788557520.215004 [TOF] res=0 step=0 id=0xeacc blk=0xeacc10 ctl=0x0
1788557520.220873 [RNG] init=0 step=99 id=0xeacc boot=1 calls=93 xerr=0 dm=1 tb=15
1788557520.228207 [RNG] osc=41 imp=881 imprb=881 mstart=0x40 cfg=91 cfgfail=0x0 vhv=0 vpolls=0
1788557520.234013 [PRT] calls=13208 xerr=0 ler=1 lidx=0x0 perr=0 maxcnt=17 addr8=0x52
1788557520.238160 [RTY] wr=0 wmax=0 wref=0  rd=0 rmax=0 rref=0
1788557520.245747 [RNG] frames=3274 last=61 min=49 max=73 nrdy=0 dxfer=0 dstat=0 lst=0 nrdyerr=0 dclr=0
1788557520.252193 [DRV] init=0 id=7 mode=0x1 lib=0x2 seq=0x1 odc=0x8b sts=0xe0 armed=1
1788557520.257642 [TRG] pulses=32 suppressed=378 cyc=1600 rst=1 rstmode=0x40
1788557520.260816 [HLT] polls=65 faults=0x0 cfglost=0
1788557520.266387 [EFF] n=5 last=58512 min=58450 max=58515 late=0 stuck=0 rderr=0
1788557520.276773 [IMU] init=0 addr=0x68 who=0x68 rst=1 pmrb0=0x40 pmrb=0x1 sr=19 cfg=4 gcfg=0x0 acfg=0x8 icfg=0x30 ien=0x1 armed=1
1788557520.281860 [ACC] reads=3276 stale=3271 rderr=0 ax=57 ay=-68 az=1124
1788557520.284486 [PWR] pm=0x1 drift=0 rderr=0
1788557520.288478 [DWT] ok=1 cyc=2440411443 cyc_per_ms=800000
1788557521.302497 [HB] up_ms=74038 frames=3322 inf=3322 hazard=412 canary_err=0 q=0 qovr=0
1788557521.313489 [I2C] init=0 gate=0 whoami=0x201e0 wr=0 wrseen=0x27 addr=0x5a ok=22753 err=0 tmo=0 recov=0 pclk1=200000000 sysclk=400000000
1788557521.314833 [NAK] nacks=0
1788557521.319589 [CLK] cpu=800000000 sysb=400000000 pclk1=200000000
1788557521.324145 [TOF] res=0 step=0 id=0xeacc blk=0xeacc10 ctl=0x0
1788557521.329872 [RNG] init=0 step=99 id=0xeacc boot=1 calls=93 xerr=0 dm=1 tb=15
1788557521.336849 [RNG] osc=41 imp=881 imprb=881 mstart=0x40 cfg=91 cfgfail=0x0 vhv=0 vpolls=0
1788557521.343152 [PRT] calls=13405 xerr=0 ler=1 lidx=0x0 perr=0 maxcnt=17 addr8=0x52
1788557521.347100 [RTY] wr=0 wmax=0 wref=0  rd=0 rmax=0 rref=0
1788557521.354842 [RNG] frames=3324 last=61 min=49 max=73 nrdy=0 dxfer=0 dstat=0 lst=0 nrdyerr=0 dclr=0
1788557521.360983 [DRV] init=0 id=7 mode=0x1 lib=0x2 seq=0x1 odc=0x8b sts=0xe0 armed=1
1788557521.366528 [TRG] pulses=33 suppressed=381 cyc=1600 rst=1 rstmode=0x40
1788557521.369722 [HLT] polls=66 faults=0x0 cfglost=0
1788557521.375662 [EFF] n=5 last=58512 min=58450 max=58515 late=0 stuck=0 rderr=0
1788557521.385729 [IMU] init=0 addr=0x68 who=0x68 rst=1 pmrb0=0x40 pmrb=0x1 sr=19 cfg=4 gcfg=0x0 acfg=0x8 icfg=0x30 ien=0x1 armed=1
1788557521.390969 [ACC] reads=3326 stale=3321 rderr=0 ax=59 ay=-72 az=1126
1788557521.393590 [PWR] pm=0x1 drift=0 rderr=0
1788557521.397611 [DWT] ok=1 cyc=3321215075 cyc_per_ms=800003
1788557522.412101 [HB] up_ms=75139 frames=3371 inf=3371 hazard=451 canary_err=0 q=0 qovr=0
1788557522.423219 [I2C] init=0 gate=0 whoami=0x201e0 wr=0 wrseen=0x27 addr=0x5a ok=23055 err=0 tmo=0 recov=0 pclk1=200000000 sysclk=400000000
1788557522.424469 [NAK] nacks=0
1788557522.429206 [CLK] cpu=800000000 sysb=400000000 pclk1=200000000
1788557522.433833 [TOF] res=0 step=0 id=0xeacc blk=0xeacc10 ctl=0x0
1788557522.439602 [RNG] init=0 step=99 id=0xeacc boot=1 calls=93 xerr=0 dm=1 tb=15
1788557522.446496 [RNG] osc=41 imp=881 imprb=881 mstart=0x40 cfg=91 cfgfail=0x0 vhv=0 vpolls=0
1788557522.452720 [PRT] calls=13605 xerr=0 ler=1 lidx=0x0 perr=0 maxcnt=17 addr8=0x52
1788557522.456825 [RTY] wr=0 wmax=0 wref=0  rd=0 rmax=0 rref=0
1788557522.464579 [RNG] frames=3374 last=61 min=49 max=73 nrdy=0 dxfer=0 dstat=0 lst=0 nrdyerr=0 dclr=0
1788557522.470724 [DRV] init=0 id=7 mode=0x1 lib=0x2 seq=0x1 odc=0x8b sts=0xe0 armed=1
1788557522.476289 [TRG] pulses=35 suppressed=416 cyc=1600 rst=1 rstmode=0x40
1788557522.479496 [HLT] polls=67 faults=0x0 cfglost=0
1788557522.485214 [EFF] n=5 last=58512 min=58450 max=58515 late=0 stuck=0 rderr=0
1788557522.495419 [IMU] init=0 addr=0x68 who=0x68 rst=1 pmrb0=0x40 pmrb=0x1 sr=19 cfg=4 gcfg=0x0 acfg=0x8 icfg=0x30 ien=0x1 armed=1
1788557522.500743 [ACC] reads=3375 stale=3370 rderr=0 ax=57 ay=-71 az=1124
1788557522.503326 [PWR] pm=0x1 drift=0 rderr=0
1788557522.507361 [DWT] ok=1 cyc=4202145325 cyc_per_ms=800118
1788557523.522960 [HB] up_ms=76241 frames=3421 inf=3421 hazard=451 canary_err=0 q=0 qovr=0
1788557523.534094 [I2C] init=0 gate=0 whoami=0x201e0 wr=0 wrseen=0x27 addr=0x5a ok=23357 err=0 tmo=0 recov=0 pclk1=200000000 sysclk=400000000
1788557523.535324 [NAK] nacks=0
1788557523.539981 [CLK] cpu=800000000 sysb=400000000 pclk1=200000000
1788557523.544623 [TOF] res=0 step=0 id=0xeacc blk=0xeacc10 ctl=0x0
1788557523.550438 [RNG] init=0 step=99 id=0xeacc boot=1 calls=93 xerr=0 dm=1 tb=15
1788557523.557321 [RNG] osc=41 imp=881 imprb=881 mstart=0x40 cfg=91 cfgfail=0x0 vhv=0 vpolls=0
1788557523.563445 [PRT] calls=13805 xerr=0 ler=1 lidx=0x0 perr=0 maxcnt=17 addr8=0x52
1788557523.567692 [RTY] wr=0 wmax=0 wref=0  rd=0 rmax=0 rref=0
1788557523.575580 [RNG] frames=3423 last=64 min=49 max=73 nrdy=0 dxfer=0 dstat=0 lst=0 nrdyerr=0 dclr=0
1788557523.581601 [DRV] init=0 id=7 mode=0x1 lib=0x2 seq=0x1 odc=0x8b sts=0xe0 armed=1
1788557523.586829 [TRG] pulses=35 suppressed=416 cyc=1600 rst=1 rstmode=0x40
1788557523.590215 [HLT] polls=68 faults=0x0 cfglost=0
1788557523.596185 [EFF] n=5 last=58512 min=58450 max=58515 late=0 stuck=0 rderr=0
1788557523.606211 [IMU] init=0 addr=0x68 who=0x68 rst=1 pmrb0=0x40 pmrb=0x1 sr=19 cfg=4 gcfg=0x0 acfg=0x8 icfg=0x30 ien=0x1 armed=1
1788557523.611314 [ACC] reads=3425 stale=3420 rderr=0 ax=59 ay=-68 az=1126
1788557523.614112 [PWR] pm=0x1 drift=0 rderr=0
1788557523.618107 [DWT] ok=1 cyc=788766307 cyc_per_ms=799989
1788557524.632194 [HB] up_ms=77342 frames=3471 inf=3471 hazard=451 canary_err=0 q=0 qovr=0
1788557524.643460 [I2C] init=0 gate=0 whoami=0x201e0 wr=0 wrseen=0x27 addr=0x5a ok=23653 err=0 tmo=0 recov=0 pclk1=200000000 sysclk=400000000
1788557524.644729 [NAK] nacks=0
1788557524.649332 [CLK] cpu=800000000 sysb=400000000 pclk1=200000000
1788557524.653813 [TOF] res=0 step=0 id=0xeacc blk=0xeacc10 ctl=0x0
1788557524.659835 [RNG] init=0 step=99 id=0xeacc boot=1 calls=93 xerr=0 dm=1 tb=15
1788557524.666708 [RNG] osc=41 imp=881 imprb=881 mstart=0x40 cfg=91 cfgfail=0x0 vhv=0 vpolls=0
1788557524.672859 [PRT] calls=14005 xerr=0 ler=1 lidx=0x0 perr=0 maxcnt=17 addr8=0x52
1788557524.676882 [RTY] wr=0 wmax=0 wref=0  rd=0 rmax=0 rref=0
1788557524.684719 [RNG] frames=3473 last=60 min=49 max=73 nrdy=0 dxfer=0 dstat=0 lst=0 nrdyerr=0 dclr=0
1788557524.690947 [DRV] init=0 id=7 mode=0x1 lib=0x2 seq=0x1 odc=0x8b sts=0xe0 armed=1
1788557524.696201 [TRG] pulses=35 suppressed=416 cyc=1600 rst=1 rstmode=0x40
1788557524.699479 [HLT] polls=69 faults=0x0 cfglost=0
1788557524.705321 [EFF] n=5 last=58512 min=58450 max=58515 late=0 stuck=0 rderr=0
1788557524.715636 [IMU] init=0 addr=0x68 who=0x68 rst=1 pmrb0=0x40 pmrb=0x1 sr=19 cfg=4 gcfg=0x0 acfg=0x8 icfg=0x30 ien=0x1 armed=1
1788557524.720694 [ACC] reads=3475 stale=3470 rderr=0 ax=54 ay=-71 az=1134
1788557524.723321 [PWR] pm=0x1 drift=0 rderr=0
1788557524.727477 [DWT] ok=1 cyc=1669444319 cyc_per_ms=799889
1788557525.742970 [HB] up_ms=78444 frames=3521 inf=3521 hazard=451 canary_err=0 q=0 qovr=0
1788557525.753681 [I2C] init=0 gate=0 whoami=0x201e0 wr=0 wrseen=0x27 addr=0x5a ok=23955 err=0 tmo=0 recov=0 pclk1=200000000 sysclk=400000000
1788557525.754936 [NAK] nacks=0
1788557525.759594 [CLK] cpu=800000000 sysb=400000000 pclk1=200000000
1788557525.764092 [TOF] res=0 step=0 id=0xeacc blk=0xeacc10 ctl=0x0
