[HB] up_ms=2393 frames=100 inf=100 hazard=0 canary_err=0 q=0 qovr=0
[I2C] init=0 gate=0 whoami=0x140e0 wr=0 wrseen=0x27 addr=0x5a ok=28 err=1 tmo=0 recov=0 pclk1=200000000 sysclk=400000000
[NAK] nacks=1
[CLK] cpu=800000000 sysb=400000000 pclk1=200000000
[TOF] res=-42 step=1 id=0xa5 blk=0x0 ctl=0x1ff
[DRV] init=0 id=7 mode=0x1 lib=0x2 seq=0x1 odc=0x8b sts=0xe0 armed=1
[TRG] pulses=0 suppressed=0 cyc=1600 rst=1 rstmode=0x40
[HLT] polls=2 faults=0x0 cfglost=0
[DWT] ok=1 cyc=1795172684 cyc_per_ms=800133
[HB] up_ms=3439 frames=143 inf=143 hazard=23 canary_err=0 q=0 qovr=0
[I2C] init=0 gate=0 whoami=0x140e0 wr=0 wrseen=0x27 addr=0x5a ok=1375 err=1 tmo=0 recov=0 pclk1=200000000 sysclk=400000000
[NAK] nacks=1
[CLK] cpu=800000000 sysb=400000000 pclk1=200000000
[TOF] res=-42 step=1 id=0xa5 blk=0x0 ctl=0x1ff
[DRV] init=0 id=7 mode=0x1 lib=0x2 seq=0x1 odc=0x8b sts=0xe0 armed=1
[TRG] pulses=3 suppressed=20 cyc=1600 rst=1 rstmode=0x40
[HLT] polls=2 faults=0x0 cfglost=0
[EFF] n=3 last=58645 min=58568 max=58645 late=0 stuck=0
[DWT] ok=1 cyc=2638505574 cyc_per_ms=806245
[HB] up_ms=4493 frames=189 inf=189 hazard=40 canary_err=0 q=0 qovr=0
[I2C] init=0 gate=0 whoami=0x140e0 wr=0 wrseen=0x27 addr=0x5a ok=2001 err=1 tmo=0 recov=0 pclk1=200000000 sysclk=400000000
[NAK] nacks=1
[CLK] cpu=800000000 sysb=400000000 pclk1=200000000
[TOF] res=-42 step=1 id=0xa5 blk=0x0 ctl=0x1ff
[DRV] init=0 id=7 mode=0x1 lib=0x2 seq=0x1 odc=0x8b sts=0xe0 armed=1
[TRG] pulses=4 suppressed=36 cyc=1600 rst=1 rstmode=0x40
[HLT] polls=3 faults=0x0 cfglost=0
[EFF] n=4 last=58568 min=58568 max=58645 late=0 stuck=0
[DWT] ok=1 cyc=3479452642 cyc_per_ms=797862
[HB] up_ms=5544 frames=239 inf=239 hazard=40 canary_err=0 q=0 qovr=0
[I2C] init=0 gate=0 whoami=0x140e0 wr=0 wrseen=0x27 addr=0x5a ok=2003 err=1 tmo=0 recov=0 pclk1=200000000 sysclk=400000000
[NAK] nacks=1
[CLK] cpu=800000000 sysb=400000000 pclk1=200000000
[TOF] res=-42 step=1 id=0xa5 blk=0x0 ctl=0x1ff
[DRV] init=0 id=7 mode=0x1 lib=0x2 seq=0x1 odc=0x8b sts=0xe0 armed=1
[TRG] pulses=4 suppressed=36 cyc=1600 rst=1 rstmode=0x40
[HLT] polls=4 faults=0x0 cfglost=0
[EFF] n=4 last=58568 min=58568 max=58645 late=0 stuck=0
[DWT] ok=1 cyc=25285414 cyc_per_ms=800000
[HB] up_ms=6595 frames=289 inf=289 hazard=40 canary_err=0 q=0 qovr=0
[I2C] init=0 gate=0 whoami=0x140e0 wr=0 wrseen=0x27 addr=0x5a ok=2005 err=1 tmo=0 recov=0 pclk1=200000000 sysclk=400000000
[NAK] nacks=1
[CLK] cpu=800000000 sysb=400000000 pclk1=200000000
[TOF] res=-42 step=1 id=0xa5 blk=0x0 ctl=0x1ff
[DRV] init=0 id=7 mode=0x1 lib=0x2 seq=0x1 odc=0x8b sts=0xe0 armed=1
[TRG] pulses=4 suppressed=36 cyc=1600 rst=1 rstmode=0x40
[HLT] polls=5 faults=0x0 cfglost=0
[EFF] n=4 last=58568 min=58568 max=58645 late=0 stuck=0
[DWT] ok=1 cyc=866085370 cyc_per_ms=799999
[HB] up_ms=7646 frames=339 inf=339 hazard=40 canary_err=0 q=0 qovr=0
[I2C] init=0 gate=0 whoami=0x140e0 wr=0 wrseen=0x27 addr=0x5a ok=2007 err=1 tmo=0 recov=0 pclk1=200000000 sysclk=400000000
[NAK] nacks=1
[CLK] cpu=800000000 sysb=400000000 pclk1=200000000
[TOF] res=-42 step=1 id=0xa5 blk=0x0 ctl=0x1ff
[DRV] init=0 id=7 mode=0x1 lib=0x2 seq=0x1 odc=0x8b sts=0xe0 armed=1
[TRG] pulses=4 suppressed=36 cyc=1600 rst=1 rstmode=0x40
[HLT] polls=6 faults=0x0 cfglost=0
[EFF] n=4 last=58568 min=58568 max=58645 late=0 stuck=0
[DWT] ok=1 cyc=1706885334 cyc_per_ms=799999
[HB] up_ms=8697 frames=389 inf=389 hazard=40 canary_err=0 q=0 qovr=0
[I2C] init=0 gate=0 whoami=0x140e0 wr=0 wrseen=0x27 addr=0x5a ok=2009 err=1 tmo=0 recov=0 pclk1=200000000 sysclk=400000000
[NAK] nacks=1
[CLK] cpu=800000000 sysb=400000000 pclk1=200000000
[TOF] res=-42 step=1 id=0xa5 blk=0x0 ctl=0x1ff
[DRV] init=0 id=7 mode=0x1 lib=0x2 seq=0x1 odc=0x8b sts=0xe0 armed=1
[TRG] pulses=4 suppressed=36 cyc=1600 rst=1 rstmode=0x40
[HLT] polls=7 faults=0x0 cfglost=0
[EFF] n=4 last=58568 min=58568 max=58645 late=0 stuck=0
[DWT] ok=1 cyc=2547685398 cyc_per_ms=800000
[HB] up_ms=9748 frames=439 inf=439 hazard=40 canary_err=0 q=0 qovr=0
[I2C] init=0 gate=0 whoami=0x140e0 wr=0 wrseen=0x27 addr=0x5a ok=2011 err=1 tmo=0 recov=0 pclk1=200000000 sysclk=400000000
[NAK] nacks=1
[CLK] cpu=800000000 sysb=400000000 pclk1=200000000
[TOF] res=-42 step=1 id=0xa5 blk=0x0 ctl=0x1ff
[DRV] init=0 id=7 mode=0x1 lib=0x2 seq=0x1 odc=0x8b sts=0xe0 armed=1
[TRG] pulses=4 suppressed=36 cyc=1600 rst=1 rstmode=0x40
[HLT] polls=8 faults=0x0 cfglost=0
[EFF] n=4 last=58568 min=58568 max=58645 late=0 stuck=0
[DWT] ok=1 cyc=3389618742 cyc_per_ms=801078
[HB] up_ms=10801 frames=486 inf=486 hazard=80 canary_err=0 q=0 qovr=0
[I2C] init=0 gate=0 whoami=0x140e0 wr=0 wrseen=0x27 addr=0x5a ok=2461 err=1 tmo=0 recov=0 pclk1=200000000 sysclk=400000000
[NAK] nacks=1
[CLK] cpu=800000000 sysb=400000000 pclk1=200000000
[TOF] res=-42 step=1 id=0xa5 blk=0x0 ctl=0x1ff
[DRV] init=0 id=7 mode=0x1 lib=0x2 seq=0x1 odc=0x8b sts=0xe0 armed=1
[TRG] pulses=8 suppressed=72 cyc=1600 rst=1 rstmode=0x40
[HLT] polls=9 faults=0x0 cfglost=0
[EFF] n=5 last=58500 min=58500 max=58645 late=0 stuck=0
[DWT] ok=1 cyc=4230955366 cyc_per_ms=798990
[HB] up_ms=11852 frames=536 inf=536 hazard=80 canary_err=0 q=0 qovr=0
[I2C] init=0 gate=0 whoami=0x140e0 wr=0 wrseen=0x27 addr=0x5a ok=2463 err=1 tmo=0 recov=0 pclk1=200000000 sysclk=400000000
[NAK] nacks=1
[CLK] cpu=800000000 sysb=400000000 pclk1=200000000
[TOF] res=-42 step=1 id=0xa5 blk=0x0 ctl=0x1ff
[DRV] init=0 id=7 mode=0x1 lib=0x2 seq=0x1 odc=0x8b sts=0xe0 armed=1
[TRG] pulses=8 suppressed=72 cyc=1600 rst=1 rstmode=0x40
[HLT] polls=10 faults=0x0 cfglost=0
[EFF] n=5 last=58500 min=58500 max=58645 late=0 stuck=0
[DWT] ok=1 cyc=776880050 cyc_per_ms=800087
[HB] up_ms=12903 frames=586 inf=586 hazard=80 canary_err=0 q=0 qovr=0
[I2C] init=0 gate=0 whoami=0x140e0 wr=0 wrseen=0x27 addr=0x5a ok=2465 err=1 tmo=0 recov=0 pclk1=200000000 sysclk=400000000
[NAK] nacks=1
[CLK] cpu=800000000 sysb=400000000 pclk1=200000000
[TOF] res=-42 step=1 id=0xa5 blk=0x0 ctl=0x1ff
[DRV] init=0 id=7 mode=0x1 lib=0x2 seq=0x1 odc=0x8b sts=0xe0 armed=1
[TRG] pulses=8 suppressed=72 cyc=1600 rst=1 rstmode=0x40
[HLT] polls=11 faults=0x0 cfglost=0
[EFF] n=5 last=58500 min=58500 max=58645 late=0 stuck=0
[DWT] ok=1 cyc=1617680066 cyc_per_ms=800000
[HB] up_ms=13954 frames=636 inf=636 hazard=80 canary_err=0 q=0 qovr=0
[I2C] init=0 gate=0 whoami=0x140e0 wr=0 wrseen=0x27 addr=0x5a ok=2467 err=1 tmo=0 recov=0 pclk1=200000000 sysclk=400000000
[NAK] nacks=1
[CLK] cpu=800000000 sysb=400000000 pclk1=200000000
[TOF] res=-42 step=1 id=0xa5 blk=0x0 ctl=0x1ff
[DRV] init=0 id=7 mode=0x1 lib=0x2 seq=0x1 odc=0x8b sts=0xe0 armed=1
[TRG] pulses=8 suppressed=72 cyc=1600 rst=1 rstmode=0x40
[HLT] polls=12 faults=0x0 cfglost=0
[EFF] n=5 last=58500 min=58500 max=58645 late=0 stuck=0
[DWT] ok=1 cyc=2458479966 cyc_per_ms=799999
[HB] up_ms=15005 frames=686 inf=686 hazard=80 canary_err=0 q=0 qovr=0
[I2C] init=0 gate=0 whoami=0x140e0 wr=0 wrseen=0x27 addr=0x5a ok=2469 err=1 tmo=0 recov=0 pclk1=200000000 sysclk=400000000
[NAK] nacks=1
[CLK] cpu=800000000 sysb=400000000 pclk1=200000000
[TOF] res=-42 step=1 id=0xa5 blk=0x0 ctl=0x1ff
[DRV] init=0 id=7 mode=0x1 lib=0x2 seq=0x1 odc=0x8b sts=0xe0 armed=1
[TRG] pulses=8 suppressed=72 cyc=1600 rst=1 rstmode=0x40
[HLT] polls=13 faults=0x0 cfglost=0
[EFF] n=5 last=58500 min=58500 max=58645 late=0 stuck=0
[DWT] ok=1 cyc=3299279986 cyc_per_ms=800000
[HB] up_ms=16056 frames=737 inf=737 hazard=80 canary_err=0 q=0 qovr=0
[I2C] init=0 gate=0 whoami=0x140e0 wr=0 wrseen=0x27 addr=0x5a ok=2471 err=1 tmo=0 recov=0 pclk1=200000000 sysclk=400000000
[NAK] nacks=1
[CLK] cpu=800000000 sysb=400000000 pclk1=200000000
[TOF] res=-42 step=1 id=0xa5 blk=0x0 ctl=0x1ff
[DRV] init=0 id=7 mode=0x1 lib=0x2 seq=0x1 odc=0x8b sts=0xe0 armed=1
[TRG] pulses=8 suppressed=72 cyc=1600 rst=1 rstmode=0x40
[HLT] polls=14 faults=0x0 cfglost=0
[EFF] n=5 last=58500 min=58500 max=58645 late=0 stuck=0
[DWT] ok=1 cyc=4140079274 cyc_per_ms=799999
[HB] up_ms=17107 frames=787 inf=787 hazard=107 canary_err=0 q=0 qovr=0
[I2C] init=0 gate=0 whoami=0x140e0 wr=0 wrseen=0x27 addr=0x5a ok=2473 err=1 tmo=0 recov=0 pclk1=200000000 sysclk=400000000
[NAK] nacks=1
[CLK] cpu=800000000 sysb=400000000 pclk1=200000000
[TOF] res=-42 step=1 id=0xa5 blk=0x0 ctl=0x1ff
[DRV] init=0 id=7 mode=0x1 lib=0x2 seq=0x1 odc=0x8b sts=0xe0 armed=1
[TRG] pulses=10 suppressed=98 cyc=1600 rst=1 rstmode=0x40
[HLT] polls=15 faults=0x0 cfglost=0
[EFF] n=5 last=58500 min=58500 max=58645 late=0 stuck=0
[DWT] ok=1 cyc=686034946 cyc_per_ms=800117
[HB] up_ms=18158 frames=837 inf=837 hazard=120 canary_err=0 q=0 qovr=0
[I2C] init=0 gate=0 whoami=0x140e0 wr=0 wrseen=0x27 addr=0x5a ok=2475 err=1 tmo=0 recov=0 pclk1=200000000 sysclk=400000000
[NAK] nacks=1
[CLK] cpu=800000000 sysb=400000000 pclk1=200000000
[TOF] res=-42 step=1 id=0xa5 blk=0x0 ctl=0x1ff
[DRV] init=0 id=7 mode=0x1 lib=0x2 seq=0x1 odc=0x8b sts=0xe0 armed=1
[TRG] pulses=11 suppressed=109 cyc=1600 rst=1 rstmode=0x40
[HLT] polls=16 faults=0x0 cfglost=0
[EFF] n=5 last=58500 min=58500 max=58645 late=0 stuck=0
[DWT] ok=1 cyc=1526900746 cyc_per_ms=800062
[HB] up_ms=19209 frames=887 inf=887 hazard=120 canary_err=0 q=0 qovr=0
[I2C] init=0 gate=0 whoami=0x140e0 wr=0 wrseen=0x27 addr=0x5a ok=2477 err=1 tmo=0 recov=0 pclk1=200000000 sysclk=400000000
[NAK] nacks=1
[CLK] cpu=800000000 sysb=400000000 pclk1=200000000
[TOF] res=-42 step=1 id=0xa5 blk=0x0 ctl=0x1ff
[DRV] init=0 id=7 mode=0x1 lib=0x2 seq=0x1 odc=0x8b sts=0xe0 armed=1
[TRG] pulses=11 suppressed=109 cyc=1600 rst=1 rstmode=0x40
[HLT] polls=17 faults=0x0 cfglost=0
[EFF] n=5 last=58500 min=58500 max=58645 late=0 stuck=0
[DWT] ok=1 cyc=2367700798 cyc_per_ms=800000
[HB] up_ms=20260 frames=937 inf=937 hazard=120 canary_err=0 q=0 qovr=0
[I2C] init=0 gate=0 whoami=0x140e0 wr=0 wrseen=0x27 addr=0x5a ok=2479 err=1 tmo=0 recov=0 pclk1=200000000 sysclk=400000000
[NAK] nacks=1
[CLK] cpu=800000000 sysb=400000000 pclk1=200000000
[TOF] res=-42 step=1 id=0xa5 blk=0x0 ctl=0x1ff
[DRV] init=0 id=7 mode=0x1 lib=0x2 seq=0x1 odc=0x8b sts=0xe0 armed=1
[TRG] pulses=11 suppressed=109 cyc=1600 rst=1 rstmode=0x40
[HLT] polls=18 faults=0x0 cfglost=0
[EFF] n=5 last=58500 min=58500 max=58645 late=0 stuck=0
[DWT] ok=1 cyc=3208500734 cyc_per_ms=799999
[HB] up_ms=21311 frames=987 inf=987 hazard=120 canary_err=0 q=0 qovr=0
[I2C] init=0 gate=0 whoami=0x140e0 wr=0 wrseen=0x27 addr=0x5a ok=2481 err=1 tmo=0 recov=0 pclk1=200000000 sysclk=400000000
[NAK] nacks=1
[CLK] cpu=800000000 sysb=400000000 pclk1=200000000
[TOF] res=-42 step=1 id=0xa5 blk=0x0 ctl=0x1ff
[DRV] init=0 id=7 mode=0x1 lib=0x2 seq=0x1 odc=0x8b sts=0xe0 armed=1
[TRG] pulses=11 suppressed=109 cyc=1600 rst=1 rstmode=0x40
[HLT] polls=19 faults=0x0 cfglost=0
[EFF] n=5 last=58500 min=58500 max=58645 late=0 stuck=0
[DWT] ok=1 cyc=4049300682 cyc_per_ms=799999
[HB] up_ms=22362 frames=1037 inf=1037 hazard=120 canary_err=0 q=0 qovr=0
[I2C] init=0 gate=0 whoami=0x140e0 wr=0 wrseen=0x27 addr=0x5a ok=2483 err=1 tmo=0 recov=0 pclk1=200000000 sysclk=400000000
[NAK] nacks=1
[CLK] cpu=800000000 sysb=400000000 pclk1=200000000
[TOF] res=-42 step=1 id=0xa5 blk=0x0 ctl=0x1ff
[DRV] init=0 id=7 mode=0x1 lib=0x2 seq=0x1 odc=0x8b sts=0xe0 armed=1
[TRG] pulses=11 suppressed=109 cyc=1600 rst=1 rstmode=0x40
[HLT] polls=20 faults=0x0 cfglost=0
[EFF] n=5 last=58500 min=58500 max=58645 late=0 stuck=0
[DWT] ok=1 cyc=595274172 cyc_per_ms=800133
[HB] up_ms=23414 frames=1087 inf=1087 hazard=127 canary_err=0 q=0 qovr=0
[I2C] init=0 gate=0 whoami=0x140e0 wr=0 wrseen=0x27 addr=0x5a ok=2485 err=1 tmo=0 recov=0 pclk1=200000000 sysclk=400000000
[NAK] nacks=1
[CLK] cpu=800000000 sysb=400000000 pclk1=200000000
[TOF] res=-42 step=1 id=0xa5 blk=0x0 ctl=0x1ff
[DRV] init=0 id=7 mode=0x1 lib=0x2 seq=0x1 odc=0x8b sts=0xe0 armed=1
[TRG] pulses=12 suppressed=116 cyc=1600 rst=1 rstmode=0x40
[HLT] polls=21 faults=0x0 cfglost=0
[EFF] n=5 last=58500 min=58500 max=58645 late=0 stuck=0
[DWT] ok=1 cyc=1436876036 cyc_per_ms=800001
[HB] up_ms=24466 frames=1137 inf=1137 hazard=160 canary_err=0 q=0 qovr=0
[I2C] init=0 gate=0 whoami=0x140e0 wr=0 wrseen=0x27 addr=0x5a ok=2487 err=1 tmo=0 recov=0 pclk1=200000000 sysclk=400000000
[NAK] nacks=1
[CLK] cpu=800000000 sysb=400000000 pclk1=200000000
[TOF] res=-42 step=1 id=0xa5 blk=0x0 ctl=0x1ff
[DRV] init=0 id=7 mode=0x1 lib=0x2 seq=0x1 odc=0x8b sts=0xe0 armed=1
[TRG] pulses=14 suppressed=146 cyc=1600 rst=1 rstmode=0x40
[HLT] polls=22 faults=0x0 cfglost=0
[EFF] n=5 last=58500 min=58500 max=58645 late=0 stuck=0
[DWT] ok=1 cyc=2278474196 cyc_per_ms=799998
[HB] up_ms=25518 frames=1187 inf=1187 hazard=160 canary_err=0 q=0 qovr=0
[I2C] init=0 gate=0 whoami=0x140e0 wr=0 wrseen=0x27 addr=0x5a ok=2489 err=1 tmo=0 recov=0 pclk1=200000000 sysclk=400000000
[NAK] nacks=1
[CLK] cpu=800000000 sysb=400000000 pclk1=200000000
[TOF] res=-42 step=1 id=0xa5 blk=0x0 ctl=0x1ff
[DRV] init=0 id=7 mode=0x1 lib=0x2 seq=0x1 odc=0x8b sts=0xe0 armed=1
[TRG] pulses=14 suppressed=146 cyc=1600 rst=1 rstmode=0x40
[HLT] polls=23 faults=0x0 cfglost=0
[EFF] n=5 last=58500 min=58500 max=58645 late=0 stuck=0
[DWT] ok=1 cyc=3120074124 cyc_per_ms=799999
[HB] up_ms=26570 frames=1237 inf=1237 hazard=160 canary_err=0 q=0 qovr=0
[I2C] init=0 gate=0 whoami=0x140e0 wr=0 wrseen=0x27 addr=0x5a ok=2491 err=1 tmo=0 recov=0 pclk1=200000000 sysclk=400000000
[NAK] nacks=1
[CLK] cpu=800000000 sysb=400000000 pclk1=200000000
[TOF] res=-42 step=1 id=0xa5 blk=0x0 ctl=0x1ff
[DRV] init=0 id=7 mode=0x1 lib=0x2 seq=0x1 odc=0x8b sts=0xe0 armed=1
[TRG] pulses=14 suppressed=146 cyc=1600 rst=1 rstmode=0x40
[HLT] polls=24 faults=0x0 cfglost=0
[EFF] n=5 last=58500 min=58500 max=58645 late=0 stuck=0
[DWT] ok=1 cyc=3961674224 cyc_per_ms=800000
[HB] up_ms=27622 frames=1287 inf=1287 hazard=160 canary_err=0 q=0 qovr=0
[I2C] init=0 gate=0 whoami=0x140e0 wr=0 wrseen=0x27 addr=0x5a ok=2493 err=1 tmo=0 recov=0 pclk1=200000000 sysclk=400000000
[NAK] nacks=1
[CLK] cpu=800000000 sysb=400000000 pclk1=200000000
[TOF] res=-42 step=1 id=0xa5 blk=0x0 ctl=0x1ff
[DRV] init=0 id=7 mode=0x1 lib=0x2 seq=0x1 odc=0x8b sts=0xe0 armed=1
[TRG] pulses=14 suppressed=146 cyc=1600 rst=1 rstmode=0x40
[HLT] polls=25 faults=0x0 cfglost=0
[EFF] n=5 last=58500 min=58500 max=58645 late=0 stuck=0
[DWT] ok=1 cyc=508328884 cyc_per_ms=800020
[HB] up_ms=28674 frames=1337 inf=1337 hazard=160 canary_err=0 q=0 qovr=0
[I2C] init=0 gate=0 whoami=0x140e0 wr=0 wrseen=0x27 addr=0x5a ok=2495 err=1 tmo=0 recov=0 pclk1=200000000 sysclk=400000000
[NAK] nacks=1
[CLK] cpu=800000000 sysb=400000000 pclk1=200000000
[TOF] res=-42 step=1 id=0xa5 blk=0x0 ctl=0x1ff
[DRV] init=0 id=7 mode=0x1 lib=0x2 seq=0x1 odc=0x8b sts=0xe0 armed=1
[TRG] pulses=14 suppressed=146 cyc=1600 rst=1 rstmode=0x40
[HLT] polls=26 faults=0x0 cfglost=0
[EFF] n=5 last=58500 min=58500 max=58645 late=0 stuck=0
[DWT] ok=1 cyc=1349928874 cyc_per_ms=799999
[HB] up_ms=29726 frames=1387 inf=1387 hazard=160 canary_err=0 q=0 qovr=0
[I2C] init=0 gate=0 whoami=0x140e0 wr=0 wrseen=0x27 addr=0x5a ok=2497 err=1 tmo=0 recov=0 pclk1=200000000 sysclk=400000000
[NAK] nacks=1
[CLK] cpu=800000000 sysb=400000000 pclk1=200000000
[TOF] res=-42 step=1 id=0xa5 blk=0x0 ctl=0x1ff
[DRV] init=0 id=7 mode=0x1 lib=0x2 seq=0x1 odc=0x8b sts=0xe0 armed=1
[TRG] pulses=14 suppressed=146 cyc=1600 rst=1 rstmode=0x40
[HLT] polls=27 faults=0x0 cfglost=0
[EFF] n=5 last=58500 min=58500 max=58645 late=0 stuck=0
[DWT] ok=1 cyc=2191528866 cyc_per_ms=799999
[HB] up_ms=30778 frames=1438 inf=1438 hazard=198 canary_err=0 q=0 qovr=0
[I2C] init=0 gate=0 whoami=0x140e0 wr=0 wrseen=0x27 addr=0x5a ok=2499 err=1 tmo=0 recov=0 pclk1=200000000 sysclk=400000000
[NAK] nacks=1
[CLK] cpu=800000000 sysb=400000000 pclk1=200000000
[TOF] res=-42 step=1 id=0xa5 blk=0x0 ctl=0x1ff
[DRV] init=0 id=7 mode=0x1 lib=0x2 seq=0x1 odc=0x8b sts=0xe0 armed=1
[TRG] pulses=17 suppressed=182 cyc=1600 rst=1 rstmode=0x40
[HLT] polls=28 faults=0x0 cfglost=0
[EFF] n=5 last=58500 min=58500 max=58645 late=0 stuck=0
[DWT] ok=1 cyc=3033108708 cyc_per_ms=799980
[HB] up_ms=31830 frames=1488 inf=1488 hazard=200 canary_err=0 q=0 qovr=0
[I2C] init=0 gate=0 whoami=0x140e0 wr=0 wrseen=0x27 addr=0x5a ok=2501 err=1 tmo=0 recov=0 pclk1=200000000 sysclk=400000000
[NAK] nacks=1
[CLK] cpu=800000000 sysb=400000000 pclk1=200000000
[TOF] res=-42 step=1 id=0xa5 blk=0x0 ctl=0x1ff
[DRV] init=0 id=7 mode=0x1 lib=0x2 seq=0x1 odc=0x8b sts=0xe0 armed=1
[TRG] pulses=17 suppressed=183 cyc=1600 rst=1 rstmode=0x40
[HLT] polls=29 faults=0x0 cfglost=0
[EFF] n=5 last=58500 min=58500 max=58645 late=0 stuck=0
[DWT] ok=1 cyc=3874706876 cyc_per_ms=799998
[HB] up_ms=32882 frames=1538 inf=1538 hazard=200 canary_err=0 q=0 qovr=0
[I2C] init=0 gate=0 whoami=0x140e0 wr=0 wrseen=0x27 addr=0x5a ok=2503 err=1 tmo=0 recov=0 pclk1=200000000 sysclk=400000000
[NAK] nacks=1
[CLK] cpu=800000000 sysb=400000000 pclk1=200000000
[TOF] res=-42 step=1 id=0xa5 blk=0x0 ctl=0x1ff
[DRV] init=0 id=7 mode=0x1 lib=0x2 seq=0x1 odc=0x8b sts=0xe0 armed=1
[TRG] pulses=17 suppressed=183 cyc=1600 rst=1 rstmode=0x40
[HLT] polls=30 faults=0x0 cfglost=0
[EFF] n=5 last=58500 min=58500 max=58645 late=0 stuck=0
[DWT] ok=1 cyc=421339620 cyc_per_ms=800000
[HB] up_ms=33934 frames=1588 inf=1588 hazard=200 canary_err=0 q=0 qovr=0
[I2C] init=0 gate=0 whoami=0x140e0 wr=0 wrseen=0x27 addr=0x5a ok=2505 err=1 tmo=0 recov=0 pclk1=200000000 sysclk=400000000
[NAK] nacks=1
[CLK] cpu=800000000 sysb=400000000 pclk1=200000000
[TOF] res=-42 step=1 id=0xa5 blk=0x0 ctl=0x1ff
[DRV] init=0 id=7 mode=0x1 lib=0x2 seq=0x1 odc=0x8b sts=0xe0 armed=1
[TRG] pulses=17 suppressed=183 cyc=1600 rst=1 rstmode=0x40
[HLT] polls=31 faults=0x0 cfglost=0
[EFF] n=5 last=58500 min=58500 max=58645 late=0 stuck=0
[DWT] ok=1 cyc=1262939560 cyc_per_ms=799999
[HB] up_ms=34986 frames=1638 inf=1638 hazard=200 canary_err=0 q=0 qovr=0
[I2C] init=0 gate=0 whoami=0x140e0 wr=0 wrseen=0x27 addr=0x5a ok=2507 err=1 tmo=0 recov=0 pclk1=200000000 sysclk=400000000
[NAK] nacks=1
[CLK] cpu=800000000 sysb=400000000 pclk1=200000000
[TOF] res=-42 step=1 id=0xa5 blk=0x0 ctl=0x1ff
[DRV] init=0 id=7 mode=0x1 lib=0x2 seq=0x1 odc=0x8b sts=0xe0 armed=1
[TRG] pulses=17 suppressed=183 cyc=1600 rst=1 rstmode=0x40
[HLT] polls=32 faults=0x0 cfglost=0
[EFF] n=5 last=58500 min=58500 max=58645 late=0 stuck=0
[DWT] ok=1 cyc=2104539600 cyc_per_ms=800000
[HB] up_ms=36038 frames=1688 inf=1688 hazard=200 canary_err=0 q=0 qovr=0
[I2C] init=0 gate=0 whoami=0x140e0 wr=0 wrseen=0x27 addr=0x5a ok=2509 err=1 tmo=0 recov=0 pclk1=200000000 sysclk=400000000
[NAK] nacks=1
[CLK] cpu=800000000 sysb=400000000 pclk1=200000000
[TOF] res=-42 step=1 id=0xa5 blk=0x0 ctl=0x1ff
[DRV] init=0 id=7 mode=0x1 lib=0x2 seq=0x1 odc=0x8b sts=0xe0 armed=1
[TRG] pulses=17 suppressed=183 cyc=1600 rst=1 rstmode=0x40
[HLT] polls=33 faults=0x0 cfglost=0
[EFF] n=5 last=58500 min=58500 max=58645 late=0 stuck=0
[DWT] ok=1 cyc=2946139628 cyc_per_ms=800000
[HB] up_ms=37090 frames=1738 inf=1738 hazard=218 canary_err=0 q=0 qovr=0
[I2C] init=0 gate=0 whoami=0x140e0 wr=0 wrseen=0x27 addr=0x5a ok=2511 err=1 tmo=0 recov=0 pclk1=200000000 sysclk=400000000
[NAK] nacks=1
[CLK] cpu=800000000 sysb=400000000 pclk1=200000000
[TOF] res=-42 step=1 id=0xa5 blk=0x0 ctl=0x1ff
[DRV] init=0 id=7 mode=0x1 lib=0x2 seq=0x1 odc=0x8b sts=0xe0 armed=1
[TRG] pulses=19 suppressed=201 cyc=1600 rst=1 rstmode=0x40
[HLT] polls=34 faults=0x0 cfglost=0
[EFF] n=5 last=58500 min=58500 max=58645 late=0 stuck=0
[DWT] ok=1 cyc=3787741424 cyc_per_ms=800001
[HB] up_ms=38142 frames=1788 inf=1788 hazard=240 canary_err=0 q=0 qovr=0
[I2C] init=0 gate=0 whoami=0x140e0 wr=0 wrseen=0x27 addr=0x5a ok=2513 err=1 tmo=0 recov=0 pclk1=200000000 sysclk=400000000
[NAK] nacks=1
[CLK] cpu=800000000 sysb=400000000 pclk1=200000000
[TOF] res=-42 step=1 id=0xa5 blk=0x0 ctl=0x1ff
[DRV] init=0 id=7 mode=0x1 lib=0x2 seq=0x1 odc=0x8b sts=0xe0 armed=1
[TRG] pulses=20 suppressed=220 cyc=1600 rst=1 rstmode=0x40
[HLT] polls=35 faults=0x0 cfglost=0
[EFF] n=5 last=58500 min=58500 max=58645 late=0 stuck=0
[DWT] ok=1 cyc=334372240 cyc_per_ms=799998
[HB] up_ms=39194 frames=1838 inf=1838 hazard=240 canary_err=0 q=0 qovr=0
[I2C] init=0 gate=0 whoami=0x140e0 wr=0 wrseen=0x27 addr=0x5a ok=2515 err=1 tmo=0 recov=0 pclk1=200000000 sysclk=400000000
[NAK] nacks=1
[CLK] cpu=800000000 sysb=400000000 pclk1=200000000
[TOF] res=-42 step=1 id=0xa5 blk=0x0 ctl=0x1ff
[DRV] init=0 id=7 mode=0x1 lib=0x2 seq=0x1 odc=0x8b sts=0xe0 armed=1
[TRG] pulses=20 suppressed=220 cyc=1600 rst=1 rstmode=0x40
[HLT] polls=36 faults=0x0 cfglost=0
[EFF] n=5 last=58500 min=58500 max=58645 late=0 stuck=0
[DWT] ok=1 cyc=1175994202 cyc_per_ms=800020
[HB] up_ms=40246 frames=1888 inf=1888 hazard=240 canary_err=0 q=0 qovr=0
[I2C] init=0 gate=0 whoami=0x140e0 wr=0 wrseen=0x27 addr=0x5a ok=2517 err=1 tmo=0 recov=0 pclk1=200000000 sysclk=400000000
[NAK] nacks=1
[CLK] cpu=800000000 sysb=400000000 pclk1=200000000
[TOF] res=-42 step=1 id=0xa5 blk=0x0 ctl=0x1ff
[DRV] init=0 id=7 mode=0x1 lib=0x2 seq=0x1 odc=0x8b sts=0xe0 armed=1
[TRG] pulses=20 suppressed=220 cyc=1600 rst=1 rstmode=0x40
[HLT] polls=37 faults=0x0 cfglost=0
[EFF] n=5 last=58500 min=58500 max=58645 late=0 stuck=0
[DWT] ok=1 cyc=2017594194 cyc_per_ms=799999
[HB] up_ms=41298 frames=1939 inf=1939 hazard=240 canary_err=0 q=0 qovr=0
[I2C] init=0 gate=0 whoami=0x140e0 wr=0 wrseen=0x27 addr=0x5a ok=2519 err=1 tmo=0 recov=0 pclk1=200000000 sysclk=400000000
[NAK] nacks=1
[CLK] cpu=800000000 sysb=400000000 pclk1=200000000
[TOF] res=-42 step=1 id=0xa5 blk=0x0 ctl=0x1ff
[DRV] init=0 id=7 mode=0x1 lib=0x2 seq=0x1 odc=0x8b sts=0xe0 armed=1
[TRG] pulses=20 suppressed=220 cyc=1600 rst=1 rstmode=0x40
[HLT] polls=38 faults=0x0 cfglost=0
[EFF] n=5 last=58500 min=58500 max=58645 late=0 stuck=0
[DWT] ok=1 cyc=2859193546 cyc_per_ms=799999
[HB] up_ms=42350 frames=1989 inf=1989 hazard=240 canary_err=0 q=0 qovr=0
[I2C] init=0 gate=0 whoami=0x140e0 wr=0 wrseen=0x27 addr=0x5a ok=2521 err=1 tmo=0 recov=0 pclk1=200000000 sysclk=400000000
[NAK] nacks=1
[CLK] cpu=800000000 sysb=400000000 pclk1=200000000
[TOF] res=-42 step=1 id=0xa5 blk=0x0 ctl=0x1ff
[DRV] init=0 id=7 mode=0x1 lib=0x2 seq=0x1 odc=0x8b sts=0xe0 armed=1
[TRG] pulses=20 suppressed=220 cyc=1600 rst=1 rstmode=0x40
[HLT] polls=39 faults=0x0 cfglost=0
[EFF] n=5 last=58500 min=58500 max=58645 late=0 stuck=0
[DWT] ok=1 cyc=3700772268 cyc_per_ms=799979
[HB] up_ms=43402 frames=2039 inf=2039 hazard=240 canary_err=0 q=0 qovr=0
[I2C] init=0 gate=0 whoami=0x140e0 wr=0 wrseen=0x27 addr=0x5a ok=2523 err=1 tmo=0 recov=0 pclk1=200000000 sysclk=400000000
[NAK] nacks=1
[CLK] cpu=800000000 sysb=400000000 pclk1=200000000
[TOF] res=-42 step=1 id=0xa5 blk=0x0 ctl=0x1ff
[DRV] init=0 id=7 mode=0x1 lib=0x2 seq=0x1 odc=0x8b sts=0xe0 armed=1
[TRG] pulses=20 suppressed=220 cyc=1600 rst=1 rstmode=0x40
[HLT] polls=40 faults=0x0 cfglost=0
[EFF] n=5 last=58500 min=58500 max=58645 late=0 stuck=0
[DWT] ok=1 cyc=247408324 cyc_per_ms=800003
[HB] up_ms=44454 frames=2089 inf=2089 hazard=280 canary_err=0 q=0 qovr=0
[I2C] init=0 gate=0 whoami=0x140e0 wr=0 wrseen=0x27 addr=0x5a ok=2525 err=1 tmo=0 recov=0 pclk1=200000000 sysclk=400000000
[NAK] nacks=1
[CLK] cpu=800000000 sysb=400000000 pclk1=200000000
[TOF] res=-42 step=1 id=0xa5 blk=0x0 ctl=0x1ff
[DRV] init=0 id=7 mode=0x1 lib=0x2 seq=0x1 odc=0x8b sts=0xe0 armed=1
[TRG] pulses=23 suppressed=257 cyc=1600 rst=1 rstmode=0x40
[HLT] polls=41 faults=0x0 cfglost=0
[EFF] n=5 last=58500 min=58500 max=58645 late=0 stuck=0
[DWT] ok=1 cyc=1089005024 cyc_per_ms=799996
[HB] up_ms=45506 frames=2139 inf=2139 hazard=280 canary_err=0 q=0 qovr=0
[I2C] init=0 gate=0 whoami=0x140e0 wr=0 wrseen=0x27 addr=0x5a ok=2527 err=1 tmo=0 recov=0 pclk1=200000000 sysclk=400000000
[NAK] nacks=1
[CLK] cpu=800000000 sysb=400000000 pclk1=200000000
[TOF] res=-42 step=1 id=0xa5 blk=0x0 ctl=0x1ff
[DRV] init=0 id=7 mode=0x1 lib=0x2 seq=0x1 odc=0x8b sts=0xe0 armed=1
[TRG] pulses=23 suppressed=257 cyc=1600 rst=1 rstmode=0x40
[HLT] polls=42 faults=0x0 cfglost=0
[EFF] n=5 last=58500 min=58500 max=58645 late=0 stuck=0
[DWT] ok=1 cyc=1930604948 cyc_per_ms=799999
[HB] up_ms=46558 frames=2189 inf=2189 hazard=280 canary_err=0 q=0 qovr=0
[I2C] init=0 gate=0 whoami=0x140e0 wr=0 wrseen=0x27 addr=0x5a ok=2529 err=1 tmo=0 recov=0 pclk1=200000000 sysclk=400000000
[NAK] nacks=1
[CLK] cpu=800000000 sysb=400000000 pclk1=200000000
[TOF] res=-42 step=1 id=0xa5 blk=0x0 ctl=0x1ff
[DRV] init=0 id=7 mode=0x1 lib=0x2 seq=0x1 odc=0x8b sts=0xe0 armed=1
[TRG] pulses=23 suppressed=257 cyc=1600 rst=1 rstmode=0x40
[HLT] polls=43 faults=0x0 cfglost=0
[EFF] n=5 last=58500 min=58500 max=58645 late=0 stuck=0
[DWT] ok=1 cyc=2772204988 cyc_per_ms=800000
[HB] up_ms=47610 frames=2239 inf=2239 hazard=280 canary_err=0 q=0 qovr=0
[I2C] init=0 gate=0 whoami=0x140e0 wr=0 wrseen=0x27 addr=0x5a ok=2531 err=1 tmo=0 recov=0 pclk1=200000000 sysclk=400000000
[NAK] nacks=1
[CLK] cpu=800000000 sysb=400000000 pclk1=200000000
[TOF] res=-42 step=1 id=0xa5 blk=0x0 ctl=0x1ff
[DRV] init=0 id=7 mode=0x1 lib=0x2 seq=0x1 odc=0x8b sts=0xe0 armed=1
[TRG] pulses=23 suppressed=257 cyc=1600 rst=1 rstmode=0x40
[HLT] polls=44 faults=0x0 cfglost=0
[EFF] n=5 last=58500 min=58500 max=58645 late=0 stuck=0
[DWT] ok=1 cyc=3613805036 cyc_per_ms=800000
[HB] up_ms=48662 frames=2289 inf=2289 hazard=280 canary_err=0 q=0 qovr=0
[I2C] init=0 gate=0 whoami=0x140e0 wr=0 wrseen=0x27 addr=0x5a ok=2533 err=1 tmo=0 recov=0 pclk1=200000000 sysclk=400000000
[NAK] nacks=1
[CLK] cpu=800000000 sysb=400000000 pclk1=200000000
[TOF] res=-42 step=1 id=0xa5 blk=0x0 ctl=0x1ff
[DRV] init=0 id=7 mode=0x1 lib=0x2 seq=0x1 odc=0x8b sts=0xe0 armed=1
[TRG] pulses=23 suppressed=257 cyc=1600 rst=1 rstmode=0x40
[HLT] polls=45 faults=0x0 cfglost=0
[EFF] n=5 last=58500 min=58500 max=58645 late=0 stuck=0
[DWT] ok=1 cyc=160437736 cyc_per_ms=799999
[HB] up_ms=49714 frames=2339 inf=2339 hazard=280 canary_err=0 q=0 qovr=0
[I2C] init=0 gate=0 whoami=0x140e0 wr=0 wrseen=0x27 addr=0x5a ok=2535 err=1 tmo=0 recov=0 pclk1=200000000 sysclk=400000000
[NAK] nacks=1
[CLK] cpu=800000000 sysb=400000000 pclk1=200000000
[TOF] res=-42 step=1 id=0xa5 blk=0x0 ctl=0x1ff
[DRV] init=0 id=7 mode=0x1 lib=0x2 seq=0x1 odc=0x8b sts=0xe0 armed=1
[TRG] pulses=23 suppressed=257 cyc=1600 rst=1 rstmode=0x40
[HLT] polls=46 faults=0x0 cfglost=0
[EFF] n=5 last=58500 min=58500 max=58645 late=0 stuck=0
[DWT] ok=1 cyc=1002059684 cyc_per_ms=800020
[HB] up_ms=50766 frames=2389 inf=2389 hazard=309 canary_err=0 q=0 qovr=0
[I2C] init=0 gate=0 whoami=0x140e0 wr=0 wrseen=0x27 addr=0x5a ok=2537 err=1 tmo=0 recov=0 pclk1=200000000 sysclk=400000000
[NAK] nacks=1
[CLK] cpu=800000000 sysb=400000000 pclk1=200000000
[TOF] res=-42 step=1 id=0xa5 blk=0x0 ctl=0x1ff
[DRV] init=0 id=7 mode=0x1 lib=0x2 seq=0x1 odc=0x8b sts=0xe0 armed=1
[TRG] pulses=26 suppressed=285 cyc=1600 rst=1 rstmode=0x40
[HLT] polls=47 faults=0x0 cfglost=0
[EFF] n=5 last=58500 min=58500 max=58645 late=0 stuck=0
[DWT] ok=1 cyc=1843662374 cyc_per_ms=800002
[HB] up_ms=51818 frames=2439 inf=2439 hazard=320 canary_err=0 q=0 qovr=0
[I2C] init=0 gate=0 whoami=0x140e0 wr=0 wrseen=0x27 addr=0x5a ok=2539 err=1 tmo=0 recov=0 pclk1=200000000 sysclk=400000000
[NAK] nacks=1
[CLK] cpu=800000000 sysb=400000000 pclk1=200000000
[TOF] res=-42 step=1 id=0xa5 blk=0x0 ctl=0x1ff
[DRV] init=0 id=7 mode=0x1 lib=0x2 seq=0x1 odc=0x8b sts=0xe0 armed=1
[TRG] pulses=26 suppressed=294 cyc=1600 rst=1 rstmode=0x40
[HLT] polls=48 faults=0x0 cfglost=0
[EFF] n=5 last=58500 min=58500 max=58645 late=0 stuck=0
[DWT] ok=1 cyc=2685259658 cyc_per_ms=799997
[HB] up_ms=52870 frames=2490 inf=2490 hazard=320 canary_err=0 q=0 qovr=0
[I2C] init=0 gate=0 whoami=0x140e0 wr=0 wrseen=0x27 addr=0x5a ok=2541 err=1 tmo=0 recov=0 pclk1=200000000 sysclk=400000000
[NAK] nacks=1
[CLK] cpu=800000000 sysb=400000000 pclk1=200000000
[TOF] res=-42 step=1 id=0xa5 blk=0x0 ctl=0x1ff
[DRV] init=0 id=7 mode=0x1 lib=0x2 seq=0x1 odc=0x8b sts=0xe0 armed=1
[TRG] pulses=26 suppressed=294 cyc=1600 rst=1 rstmode=0x40
[HLT] polls=49 faults=0x0 cfglost=0
[EFF] n=5 last=58500 min=58500 max=58645 late=0 stuck=0
[DWT] ok=1 cyc=3526837644 cyc_per_ms=799979
[HB] up_ms=53922 frames=2540 inf=2540 hazard=320 canary_err=0 q=0 qovr=0
[I2C] init=0 gate=0 whoami=0x140e0 wr=0 wrseen=0x27 addr=0x5a ok=2543 err=1 tmo=0 recov=0 pclk1=200000000 sysclk=400000000
[NAK] nacks=1
[CLK] cpu=800000000 sysb=400000000 pclk1=200000000
[TOF] res=-42 step=1 id=0xa5 blk=0x0 ctl=0x1ff
[DRV] init=0 id=7 mode=0x1 lib=0x2 seq=0x1 odc=0x8b sts=0xe0 armed=1
[TRG] pulses=26 suppressed=294 cyc=1600 rst=1 rstmode=0x40
[HLT] polls=50 faults=0x0 cfglost=0
[EFF] n=5 last=58500 min=58500 max=58645 late=0 stuck=0
[DWT] ok=1 cyc=73470392 cyc_per_ms=800000
[HB] up_ms=54973 frames=2590 inf=2590 hazard=320 canary_err=0 q=0 qovr=0
[I2C] init=0 gate=0 whoami=0x140e0 wr=0 wrseen=0x27 addr=0x5a ok=2545 err=1 tmo=0 recov=0 pclk1=200000000 sysclk=400000000
[NAK] nacks=1
[CLK] cpu=800000000 sysb=400000000 pclk1=200000000
[TOF] res=-42 step=1 id=0xa5 blk=0x0 ctl=0x1ff
[DRV] init=0 id=7 mode=0x1 lib=0x2 seq=0x1 odc=0x8b sts=0xe0 armed=1
[TRG] pulses=26 suppressed=294 cyc=1600 rst=1 rstmode=0x40
[HLT] polls=51 faults=0x0 cfglost=0
[EFF] n=5 last=58500 min=58500 max=58645 late=0 stuck=0
[DWT] ok=1 cyc=914270440 cyc_per_ms=800000
[HB] up_ms=56025 frames=2640 inf=2640 hazard=320 canary_err=0 q=0 qovr=0
[I2C] init=0 gate=0 whoami=0x140e0 wr=0 wrseen=0x27 addr=0x5a ok=2547 err=1 tmo=0 recov=0 pclk1=200000000 sysclk=400000000
[NAK] nacks=1
[CLK] cpu=800000000 sysb=400000000 pclk1=200000000
[TOF] res=-42 step=1 id=0xa5 blk=0x0 ctl=0x1ff
[DRV] init=0 id=7 mode=0x1 lib=0x2 seq=0x1 odc=0x8b sts=0xe0 armed=1
[TRG] pulses=26 suppressed=294 cyc=1600 rst=1 rstmode=0x40
[HLT] polls=52 faults=0x0 cfglost=0
[EFF] n=5 last=58500 min=58500 max=58645 late=0 stuck=0
[DWT] ok=1 cyc=1755870376 cyc_per_ms=799999
[HB] up_ms=57077 frames=2690 inf=2690 hazard=330 canary_err=0 q=0 qovr=0
[I2C] init=0 gate=0 whoami=0x140e0 wr=0 wrseen=0x27 addr=0x5a ok=2549 err=1 tmo=0 recov=0 pclk1=200000000 sysclk=400000000
[NAK] nacks=1
[CLK] cpu=800000000 sysb=400000000 pclk1=200000000
[TOF] res=-42 step=1 id=0xa5 blk=0x0 ctl=0x1ff
[DRV] init=0 id=7 mode=0x1 lib=0x2 seq=0x1 odc=0x8b sts=0xe0 armed=1
[TRG] pulses=27 suppressed=304 cyc=1600 rst=1 rstmode=0x40
[HLT] polls=53 faults=0x0 cfglost=0
[EFF] n=5 last=58500 min=58500 max=58645 late=0 stuck=0
[DWT] ok=1 cyc=2597472176 cyc_per_ms=800001
[HB] up_ms=58129 frames=2740 inf=2740 hazard=360 canary_err=0 q=0 qovr=0
[I2C] init=0 gate=0 whoami=0x140e0 wr=0 wrseen=0x27 addr=0x5a ok=2551 err=1 tmo=0 recov=0 pclk1=200000000 sysclk=400000000
[NAK] nacks=1
[CLK] cpu=800000000 sysb=400000000 pclk1=200000000
[TOF] res=-42 step=1 id=0xa5 blk=0x0 ctl=0x1ff
[DRV] init=0 id=7 mode=0x1 lib=0x2 seq=0x1 odc=0x8b sts=0xe0 armed=1
[TRG] pulses=29 suppressed=331 cyc=1600 rst=1 rstmode=0x40
[HLT] polls=54 faults=0x0 cfglost=0
[EFF] n=5 last=58500 min=58500 max=58645 late=0 stuck=0
[DWT] ok=1 cyc=3439070420 cyc_per_ms=799998
[HB] up_ms=59181 frames=2790 inf=2790 hazard=360 canary_err=0 q=0 qovr=0
[I2C] init=0 gate=0 whoami=0x140e0 wr=0 wrseen=0x27 addr=0x5a ok=2553 err=1 tmo=0 recov=0 pclk1=200000000 sysclk=400000000
[NAK] nacks=1
[CLK] cpu=800000000 sysb=400000000 pclk1=200000000
[TOF] res=-42 step=1 id=0xa5 blk=0x0 ctl=0x1ff
[DRV] init=0 id=7 mode=0x1 lib=0x2 seq=0x1 odc=0x8b sts=0xe0 armed=1
[TRG] pulses=29 suppressed=331 cyc=1600 rst=1 rstmode=0x40
[HLT] polls=55 faults=0x0 cfglost=0
[EFF] n=5 last=58500 min=58500 max=58645 late=0 stuck=0
[DWT] ok=1 cyc=4280670356 cyc_per_ms=799999
[HB] up_ms=60233 frames=2840 inf=2840 hazard=360 canary_err=0 q=0 qovr=0
[I2C] init=0 gate=0 whoami=0x140e0 wr=0 wrseen=0x27 addr=0x5a ok=2555 err=1 tmo=0 recov=0 pclk1=200000000 sysclk=400000000
[NAK] nacks=1
[CLK] cpu=800000000 sysb=400000000 pclk1=200000000
[TOF] res=-42 step=1 id=0xa5 blk=0x0 ctl=0x1ff
[DRV] init=0 id=7 mode=0x1 lib=0x2 seq=0x1 odc=0x8b sts=0xe0 armed=1
[TRG] pulses=29 suppressed=331 cyc=1600 rst=1 rstmode=0x40
[HLT] polls=56 faults=0x0 cfglost=0
[EFF] n=5 last=58500 min=58500 max=58645 late=0 stuck=0
[DWT] ok=1 cyc=827303056 cyc_per_ms=799999
[HB] up_ms=61285 frames=2890 inf=2890 hazard=360 canary_err=0 q=0 qovr=0
[I2C] init=0 gate=0 whoami=0x140e0 wr=0 wrseen=0x27 addr=0x5a ok=2557 err=1 tmo=0 recov=0 pclk1=200000000 sysclk=400000000
[NAK] nacks=1
[CLK] cpu=800000000 sysb=400000000 pclk1=200000000
[TOF] res=-42 step=1 id=0xa5 blk=0x0 ctl=0x1ff
[DRV] init=0 id=7 mode=0x1 lib=0x2 seq=0x1 odc=0x8b sts=0xe0 armed=1
[TRG] pulses=29 suppressed=331 cyc=1600 rst=1 rstmode=0x40
[HLT] polls=57 faults=0x0 cfglost=0
[EFF] n=5 last=58500 min=58500 max=58645 late=0 stuck=0
[DWT] ok=1 cyc=1668925108 cyc_per_ms=800020
[HB] up_ms=62337 frames=2940 inf=2940 hazard=360 canary_err=0 q=0 qovr=0
[I2C] init=0 gate=0 whoami=0x140e0 wr=0 wrseen=0x27 addr=0x5a ok=2559 err=1 tmo=0 recov=0 pclk1=200000000 sysclk=400000000
[NAK] nacks=1
[CLK] cpu=800000000 sysb=400000000 pclk1=200000000
[TOF] res=-42 step=1 id=0xa5 blk=0x0 ctl=0x1ff
[DRV] init=0 id=7 mode=0x1 lib=0x2 seq=0x1 odc=0x8b sts=0xe0 armed=1
[TRG] pulses=29 suppressed=331 cyc=1600 rst=1 rstmode=0x40
[HLT] polls=58 faults=0x0 cfglost=0
[EFF] n=5 last=58500 min=58500 max=58645 late=0 stuck=0
[DWT] ok=1 cyc=2510525098 cyc_per_ms=799999
[HB] up_ms=63389 frames=2990 inf=2990 hazard=360 canary_err=0 q=0 qovr=0
[I2C] init=0 gate=0 whoami=0x140e0 wr=0 wrseen=0x27 addr=0x5a ok=2561 err=1 tmo=0 recov=0 pclk1=200000000 sysclk=400000000
[NAK] nacks=1
[CLK] cpu=800000000 sysb=400000000 pclk1=200000000
[TOF] res=-42 step=1 id=0xa5 blk=0x0 ctl=0x1ff
[DRV] init=0 id=7 mode=0x1 lib=0x2 seq=0x1 odc=0x8b sts=0xe0 armed=1
[TRG] pulses=29 suppressed=331 cyc=1600 rst=1 rstmode=0x40
[HLT] polls=59 faults=0x0 cfglost=0
[EFF] n=5 last=58500 min=58500 max=58645 late=0 stuck=0
[DWT] ok=1 cyc=3352125090 cyc_per_ms=799999
[HB] up_ms=64441 frames=3041 inf=3041 hazard=400 canary_err=0 q=0 qovr=0
[I2C] init=0 gate=0 whoami=0x140e0 wr=0 wrseen=0x27 addr=0x5a ok=2563 err=1 tmo=0 recov=0 pclk1=200000000 sysclk=400000000
[NAK] nacks=1
[CLK] cpu=800000000 sysb=400000000 pclk1=200000000
[TOF] res=-42 step=1 id=0xa5 blk=0x0 ctl=0x1ff
[DRV] init=0 id=7 mode=0x1 lib=0x2 seq=0x1 odc=0x8b sts=0xe0 armed=1
[TRG] pulses=32 suppressed=368 cyc=1600 rst=1 rstmode=0x40
[HLT] polls=60 faults=0x0 cfglost=0
[EFF] n=5 last=58500 min=58500 max=58645 late=0 stuck=0
[DWT] ok=1 cyc=4193703060 cyc_per_ms=799979
[HB] up_ms=65493 frames=3091 inf=3091 hazard=400 canary_err=0 q=0 qovr=0
[I2C] init=0 gate=0 whoami=0x140e0 wr=0 wrseen=0x27 addr=0x5a ok=2565 err=1 tmo=0 recov=0 pclk1=200000000 sysclk=400000000
[NAK] nacks=1
[CLK] cpu=800000000 sysb=400000000 pclk1=200000000
[TOF] res=-42 step=1 id=0xa5 blk=0x0 ctl=0x1ff
[DRV] init=0 id=7 mode=0x1 lib=0x2 seq=0x1 odc=0x8b sts=0xe0 armed=1
[TRG] pulses=32 suppressed=368 cyc=1600 rst=1 rstmode=0x40
[HLT] polls=61 faults=0x0 cfglost=0
[EFF] n=5 last=58500 min=58500 max=58645 late=0 stuck=0
[DWT] ok=1 cyc=740335804 cyc_per_ms=800000
[HB] up_ms=66545 frames=3141 inf=3141 hazard=400 canary_err=0 q=0 qovr=0
[I2C] init=0 gate=0 whoami=0x140e0 wr=0 wrseen=0x27 addr=0x5a ok=2567 err=1 tmo=0 recov=0 pclk1=200000000 sysclk=400000000
[NAK] nacks=1
[CLK] cpu=800000000 sysb=400000000 pclk1=200000000
[TOF] res=-42 step=1 id=0xa5 blk=0x0 ctl=0x1ff
[DRV] init=0 id=7 mode=0x1 lib=0x2 seq=0x1 odc=0x8b sts=0xe0 armed=1
[TRG] pulses=32 suppressed=368 cyc=1600 rst=1 rstmode=0x40
[HLT] polls=62 faults=0x0 cfglost=0
[EFF] n=5 last=58500 min=58500 max=58645 late=0 stuck=0
[DWT] ok=1 cyc=1581935828 cyc_per_ms=800000
[HB] up_ms=67597 frames=3191 inf=3191 hazard=400 canary_err=0 q=0 qovr=0
[I2C] init=0 gate=0 whoami=0x140e0 wr=0 wrseen=0x27 addr=0x5a ok=2569 err=1 tmo=0 recov=0 pclk1=200000000 sysclk=400000000
[NAK] nacks=1
[CLK] cpu=800000000 sysb=400000000 pclk1=200000000
[TOF] res=-42 step=1 id=0xa5 blk=0x0 ctl=0x1ff
[DRV] init=0 id=7 mode=0x1 lib=0x2 seq=0x1 odc=0x8b sts=0xe0 armed=1
[TRG] pulses=32 suppressed=368 cyc=1600 rst=1 rstmode=0x40
[HLT] polls=63 faults=0x0 cfglost=0
[EFF] n=5 last=58500 min=58500 max=58645 late=0 stuck=0
[DWT] ok=1 cyc=2423535756 cyc_per_ms=799999
[HB] up_ms=68649 frames=3241 inf=3241 hazard=400 canary_err=0 q=0 qovr=0
[I2C] init=0 gate=0 whoami=0x140e0 wr=0 wrseen=0x27 addr=0x5a ok=2571 err=1 tmo=0 recov=0 pclk1=200000000 sysclk=400000000
[NAK] nacks=1
[CLK] cpu=800000000 sysb=400000000 pclk1=200000000
[TOF] res=-42 step=1 id=0xa5 blk=0x0 ctl=0x1ff
[DRV] init=0 id=7 mode=0x1 lib=0x2 seq=0x1 odc=0x8b sts=0xe0 armed=1
[TRG] pulses=32 suppressed=368 cyc=1600 rst=1 rstmode=0x40
[HLT] polls=64 faults=0x0 cfglost=0
[EFF] n=5 last=58500 min=58500 max=58645 late=0 stuck=0
[DWT] ok=1 cyc=3265135804 cyc_per_ms=800000
[HB] up_ms=69701 frames=3291 inf=3291 hazard=400 canary_err=0 q=0 qovr=0
[I2C] init=0 gate=0 whoami=0x140e0 wr=0 wrseen=0x27 addr=0x5a ok=2573 err=1 tmo=0 recov=0 pclk1=200000000 sysclk=400000000
[NAK] nacks=1
[CLK] cpu=800000000 sysb=400000000 pclk1=200000000
[TOF] res=-42 step=1 id=0xa5 blk=0x0 ctl=0x1ff
[DRV] init=0 id=7 mode=0x1 lib=0x2 seq=0x1 odc=0x8b sts=0xe0 armed=1
[TRG] pulses=32 suppressed=368 cyc=1600 rst=1 rstmode=0x40
[HLT] polls=65 faults=0x0 cfglost=0
[EFF] n=5 last=58500 min=58500 max=58645 late=0 stuck=0
[DWT] ok=1 cyc=4106735844 cyc_per_ms=800000
[HB] up_ms=70753 frames=3341 inf=3341 hazard=421 canary_err=0 q=0 qovr=0
[I2C] init=0 gate=0 whoami=0x140e0 wr=0 wrseen=0x27 addr=0x5a ok=2575 err=1 tmo=0 recov=0 pclk1=200000000 sysclk=400000000
[NAK] nacks=1
[CLK] cpu=800000000 sysb=400000000 pclk1=200000000
[TOF] res=-42 step=1 id=0xa5 blk=0x0 ctl=0x1ff
[DRV] init=0 id=7 mode=0x1 lib=0x2 seq=0x1 odc=0x8b sts=0xe0 armed=1
[TRG] pulses=34 suppressed=389 cyc=1600 rst=1 rstmode=0x40
[HLT] polls=66 faults=0x0 cfglost=0
[EFF] n=5 last=58500 min=58500 max=58645 late=0 stuck=0
[DWT] ok=1 cyc=653370376 cyc_per_ms=800001
[HB] up_ms=71805 frames=3391 inf=3391 hazard=440 canary_err=0 q=0 qovr=0
[I2C] init=0 gate=0 whoami=0x140e0 wr=0 wrseen=0x27 addr=0x5a ok=2577 err=1 tmo=0 recov=0 pclk1=200000000 sysclk=400000000
[NAK] nacks=1
[CLK] cpu=800000000 sysb=400000000 pclk1=200000000
[TOF] res=-42 step=1 id=0xa5 blk=0x0 ctl=0x1ff
[DRV] init=0 id=7 mode=0x1 lib=0x2 seq=0x1 odc=0x8b sts=0xe0 armed=1
[TRG] pulses=35 suppressed=405 cyc=1600 rst=1 rstmode=0x40
[HLT] polls=67 faults=0x0 cfglost=0
[EFF] n=5 last=58500 min=58500 max=58645 late=0 stuck=0
[DWT] ok=1 cyc=1494968560 cyc_per_ms=799998
[HB] up_ms=72857 frames=3441 inf=3441 hazard=440 canary_err=0 q=0 qovr=0
[I2C] init=0 gate=0 whoami=0x140e0 wr=0 wrseen=0x27 addr=0x5a ok=2579 err=1 tmo=0 recov=0 pclk1=200000000 sysclk=400000000
[NAK] nacks=1
[CLK] cpu=800000000 sysb=400000000 pclk1=200000000
[TOF] res=-42 step=1 id=0xa5 blk=0x0 ctl=0x1ff
[DRV] init=0 id=7 mode=0x1 lib=0x2 seq=0x1 odc=0x8b sts=0xe0 armed=1
[TRG] pulses=35 suppressed=405 cyc=1600 rst=1 rstmode=0x40
[HLT] polls=68 faults=0x0 cfglost=0
[EFF] n=5 last=58500 min=58500 max=58645 late=0 stuck=0
[DWT] ok=1 cyc=2336590514 cyc_per_ms=800020
[HB] up_ms=73909 frames=3491 inf=3491 hazard=440 canary_err=0 q=0 qovr=0
[I2C] init=0 gate=0 whoami=0x140e0 wr=0 wrseen=0x27 addr=0x5a ok=2581 err=1 tmo=0 recov=0 pclk1=200000000 sysclk=400000000
[NAK] nacks=1
[CLK] cpu=800000000 sysb=400000000 pclk1=200000000
[TOF] res=-42 step=1 id=0xa5 blk=0x0 ctl=0x1ff
[DRV] init=0 id=7 mode=0x1 lib=0x2 seq=0x1 odc=0x8b sts=0xe0 armed=1
[TRG] pulses=35 suppressed=405 cyc=1600 rst=1 rstmode=0x40
[HLT] polls=69 faults=0x0 cfglost=0
[EFF] n=5 last=58500 min=58500 max=58645 late=0 stuck=0
[DWT] ok=1 cyc=3178190418 cyc_per_ms=799999
[HB] up_ms=74961 frames=3542 inf=3542 hazard=440 canary_err=0 q=0 qovr=0
[I2C] init=0 gate=0 whoami=0x140e0 wr=0 wrseen=0x27 addr=0x5a ok=2583 err=1 tmo=0 recov=0 pclk1=200000000 sysclk=400000000
[NAK] nacks=1
[CLK] cpu=800000000 sysb=400000000 pclk1=200000000
[TOF] res=-42 step=1 id=0xa5 blk=0x0 ctl=0x1ff
[DRV] init=0 id=7 mode=0x1 lib=0x2 seq=0x1 odc=0x8b sts=0xe0 armed=1
[TRG] pulses=35 suppressed=405 cyc=1600 rst=1 rstmode=0x40
[HLT] polls=70 faults=0x0 cfglost=0
[EFF] n=5 last=58500 min=58500 max=58645 late=0 stuck=0
[DWT] ok=1 cyc=4019789770 cyc_per_ms=799999
[HB] up_ms=76013 frames=3592 inf=3592 hazard=440 canary_err=0 q=0 qovr=0
[I2C] init=0 gate=0 whoami=0x140e0 wr=0 wrseen=0x27 addr=0x5a ok=2585 err=1 tmo=0 recov=0 pclk1=200000000 sysclk=400000000
[NAK] nacks=1
[CLK] cpu=800000000 sysb=400000000 pclk1=200000000
[TOF] res=-42 step=1 id=0xa5 blk=0x0 ctl=0x1ff
[DRV] init=0 id=7 mode=0x1 lib=0x2 seq=0x1 odc=0x8b sts=0xe0 armed=1
[TRG] pulses=35 suppressed=405 cyc=1600 rst=1 rstmode=0x40
[HLT] polls=71 faults=0x0 cfglost=0
[EFF] n=5 last=58500 min=58500 max=58645 late=0 stuck=0
[DWT] ok=1 cyc=566401196 cyc_per_ms=799979
[HB] up_ms=77065 frames=3642 inf=3642 hazard=442 canary_err=0 q=0 qovr=0
[I2C] init=0 gate=0 whoami=0x140e0 wr=0 wrseen=0x27 addr=0x5a ok=2587 err=1 tmo=0 recov=0 pclk1=200000000 sysclk=400000000
[NAK] nacks=1
[CLK] cpu=800000000 sysb=400000000 pclk1=200000000
[TOF] res=-42 step=1 id=0xa5 blk=0x0 ctl=0x1ff
[DRV] init=0 id=7 mode=0x1 lib=0x2 seq=0x1 odc=0x8b sts=0xe0 armed=1
[TRG] pulses=36 suppressed=407 cyc=1600 rst=1 rstmode=0x40
[HLT] polls=72 faults=0x0 cfglost=0
[EFF] n=5 last=58500 min=58500 max=58645 late=0 stuck=0
[DWT] ok=1 cyc=1408003008 cyc_per_ms=800001
[HB] up_ms=78117 frames=3692 inf=3692 hazard=480 canary_err=0 q=0 qovr=0
[I2C] init=0 gate=0 whoami=0x140e0 wr=0 wrseen=0x27 addr=0x5a ok=2589 err=1 tmo=0 recov=0 pclk1=200000000 sysclk=400000000
[NAK] nacks=1
[CLK] cpu=800000000 sysb=400000000 pclk1=200000000
[TOF] res=-42 step=1 id=0xa5 blk=0x0 ctl=0x1ff
[DRV] init=0 id=7 mode=0x1 lib=0x2 seq=0x1 odc=0x8b sts=0xe0 armed=1
[TRG] pulses=38 suppressed=442 cyc=1600 rst=1 rstmode=0x40
[HLT] polls=73 faults=0x0 cfglost=0
[EFF] n=5 last=58500 min=58500 max=58645 late=0 stuck=0
[DWT] ok=1 cyc=2249601248 cyc_per_ms=799998
[HB] up_ms=79169 frames=3742 inf=3742 hazard=480 canary_err=0 q=0 qovr=0
[I2C] init=0 gate=0 whoami=0x140e0 wr=0 wrseen=0x27 addr=0x5a ok=2591 err=1 tmo=0 recov=0 pclk1=200000000 sysclk=400000000
[NAK] nacks=1
[CLK] cpu=800000000 sysb=400000000 pclk1=200000000
[TOF] res=-42 step=1 id=0xa5 blk=0x0 ctl=0x1ff
[DRV] init=0 id=7 mode=0x1 lib=0x2 seq=0x1 odc=0x8b sts=0xe0 armed=1
[TRG] pulses=38 suppressed=442 cyc=1600 rst=1 rstmode=0x40
[HLT] polls=74 faults=0x0 cfglost=0
[EFF] n=5 last=58500 min=58500 max=58645 late=0 stuck=0
[DWT] ok=1 cyc=3091201172 cyc_per_ms=799999
[HB] up_ms=80221 frames=3792 inf=3792 hazard=480 canary_err=0 q=0 qovr=0
[I2C] init=0 gate=0 whoami=0x140e0 wr=0 wrseen=0x27 addr=0x5a ok=2593 err=1 tmo=0 recov=0 pclk1=200000000 sysclk=400000000
[NAK] nacks=1
[CLK] cpu=800000000 sysb=400000000 pclk1=200000000
[TOF] res=-42 step=1 id=0xa5 blk=0x0 ctl=0x1ff
[DRV] init=0 id=7 mode=0x1 lib=0x2 seq=0x1 odc=0x8b sts=0xe0 armed=1
[TRG] pulses=38 suppressed=442 cyc=1600 rst=1 rstmode=0x40
[HLT] polls=75 faults=0x0 cfglost=0
[EFF] n=5 last=58500 min=58500 max=58645 late=0 stuck=0
[DWT] ok=1 cyc=3932801212 cyc_per_ms=800000
[HB] up_ms=81273 frames=3842 inf=3842 hazard=480 canary_err=0 q=0 qovr=0
[I2C] init=0 gate=0 whoami=0x140e0 wr=0 wrseen=0x27 addr=0x5a ok=2595 err=1 tmo=0 recov=0 pclk1=200000000 sysclk=400000000
[NAK] nacks=1
[CLK] cpu=800000000 sysb=400000000 pclk1=200000000
[TOF] res=-42 step=1 id=0xa5 blk=0x0 ctl=0x1ff
[DRV] init=0 id=7 mode=0x1 lib=0x2 seq=0x1 odc=0x8b sts=0xe0 armed=1
[TRG] pulses=38 suppressed=442 cyc=1600 rst=1 rstmode=0x40
[HLT] polls=76 faults=0x0 cfglost=0
[EFF] n=5 last=58500 min=58500 max=58645 late=0 stuck=0
[DWT] ok=1 cyc=479433956 cyc_per_ms=800000
[HB] up_ms=82325 frames=3892 inf=3892 hazard=480 canary_err=0 q=0 qovr=0
[I2C] init=0 gate=0 whoami=0x140e0 wr=0 wrseen=0x27 addr=0x5a ok=2597 err=1 tmo=0 recov=0 pclk1=200000000 sysclk=400000000
[NAK] nacks=1
[CLK] cpu=800000000 sysb=400000000 pclk1=200000000
[TOF] res=-42 step=1 id=0xa5 blk=0x0 ctl=0x1ff
[DRV] init=0 id=7 mode=0x1 lib=0x2 seq=0x1 odc=0x8b sts=0xe0 armed=1
[TRG] pulses=38 suppressed=442 cyc=1600 rst=1 rstmode=0x40
[HLT] polls=77 faults=0x0 cfglost=0
[EFF] n=5 last=58500 min=58500 max=58645 late=0 stuck=0
[DWT] ok=1 cyc=1321033960 cyc_per_ms=800000
[HB] up_ms=83377 frames=3942 inf=3942 hazard=480 canary_err=0 q=0 qovr=0
[I2C] init=0 gate=0 whoami=0x140e0 wr=0 wrseen=0x27 addr=0x5a ok=2599 err=1 tmo=0 recov=0 pclk1=200000000 sysclk=400000000
[NAK] nacks=1
[CLK] cpu=800000000 sysb=400000000 pclk1=200000000
[TOF] res=-42 step=1 id=0xa5 blk=0x0 ctl=0x1ff
[DRV] init=0 id=7 mode=0x1 lib=0x2 seq=0x1 odc=0x8b sts=0xe0 armed=1
[TRG] pulses=38 suppressed=442 cyc=1600 rst=1 rstmode=0x40
[HLT] polls=78 faults=0x0 cfglost=0
[EFF] n=5 last=58500 min=58500 max=58645 late=0 stuck=0
[DWT] ok=1 cyc=2162655908 cyc_per_ms=800020
[HB] up_ms=84429 frames=3992 inf=3992 hazard=512 canary_err=0 q=0 qovr=0
[I2C] init=0 gate=0 whoami=0x140e0 wr=0 wrseen=0x27 addr=0x5a ok=2601 err=1 tmo=0 recov=0 pclk1=200000000 sysclk=400000000
[NAK] nacks=1
[CLK] cpu=800000000 sysb=400000000 pclk1=200000000
[TOF] res=-42 step=1 id=0xa5 blk=0x0 ctl=0x1ff
[DRV] init=0 id=7 mode=0x1 lib=0x2 seq=0x1 odc=0x8b sts=0xe0 armed=1
[TRG] pulses=41 suppressed=473 cyc=1600 rst=1 rstmode=0x40
[HLT] polls=79 faults=0x0 cfglost=0
[EFF] n=5 last=58500 min=58500 max=58645 late=0 stuck=0
[DWT] ok=1 cyc=3004258626 cyc_per_ms=800002
[HB] up_ms=85481 frames=4042 inf=4042 hazard=520 canary_err=0 q=0 qovr=0
[I2C] init=0 gate=0 whoami=0x140e0 wr=0 wrseen=0x27 addr=0x5a ok=2603 err=1 tmo=0 recov=0 pclk1=200000000 sysclk=400000000
[NAK] nacks=1
[CLK] cpu=800000000 sysb=400000000 pclk1=200000000
[TOF] res=-42 step=1 id=0xa5 blk=0x0 ctl=0x1ff
[DRV] init=0 id=7 mode=0x1 lib=0x2 seq=0x1 odc=0x8b sts=0xe0 armed=1
[TRG] pulses=41 suppressed=479 cyc=1600 rst=1 rstmode=0x40
[HLT] polls=80 faults=0x0 cfglost=0
[EFF] n=5 last=58500 min=58500 max=58645 late=0 stuck=0
[DWT] ok=1 cyc=3845855890 cyc_per_ms=799997
[HB] up_ms=86533 frames=4093 inf=4093 hazard=520 canary_err=0 q=0 qovr=0
[I2C] init=0 gate=0 whoami=0x140e0 wr=0 wrseen=0x27 addr=0x5a ok=2605 err=1 tmo=0 recov=0 pclk1=200000000 sysclk=400000000
[NAK] nacks=1
[CLK] cpu=800000000 sysb=400000000 pclk1=200000000
[TOF] res=-42 step=1 id=0xa5 blk=0x0 ctl=0x1ff
[DRV] init=0 id=7 mode=0x1 lib=0x2 seq=0x1 odc=0x8b sts=0xe0 armed=1
[TRG] pulses=41 suppressed=479 cyc=1600 rst=1 rstmode=0x40
[HLT] polls=81 faults=0x0 cfglost=0
[EFF] n=5 last=58500 min=58500 max=58645 late=0 stuck=0
[DWT] ok=1 cyc=392466572 cyc_per_ms=799979
[HB] up_ms=87585 frames=4143 inf=4143 hazard=520 canary_err=0 q=0 qovr=0
[I2C] init=0 gate=0 whoami=0x140e0 wr=0 wrseen=0x27 addr=0x5a ok=2607 err=1 tmo=0 recov=0 pclk1=200000000 sysclk=400000000
[NAK] nacks=1
[CLK] cpu=800000000 sysb=400000000 pclk1=200000000
[TOF] res=-42 step=1 id=0xa5 blk=0x0 ctl=0x1ff
[DRV] init=0 id=7 mode=0x1 lib=0x2 seq=0x1 odc=0x8b sts=0xe0 armed=1
[TRG] pulses=41 suppressed=479 cyc=1600 rst=1 rstmode=0x40
[HLT] polls=82 faults=0x0 cfglost=0
[EFF] n=5 last=58500 min=58500 max=58645 late=0 stuck=0
[DWT] ok=1 cyc=1234066616 cyc_per_ms=800000
[HB] up_ms=88637 frames=4193 inf=4193 hazard=520 canary_err=0 q=0 qovr=0
[I2C] init=0 gate=0 whoami=0x140e0 wr=0 wrseen=0x27 addr=0x5a ok=2609 err=1 tmo=0 recov=0 pclk1=200000000 sysclk=400000000
[NAK] nacks=1
[CLK] cpu=800000000 sysb=400000000 pclk1=200000000
[TOF] res=-42 step=1 id=0xa5 blk=0x0 ctl=0x1ff
[DRV] init=0 id=7 mode=0x1 lib=0x2 seq=0x1 odc=0x8b sts=0xe0 armed=1
[TRG] pulses=41 suppressed=479 cyc=1600 rst=1 rstmode=0x40
[HLT] polls=83 faults=0x0 cfglost=0
[EFF] n=5 last=58500 min=58500 max=58645 late=0 stuck=0
[DWT] ok=1 cyc=2075666656 cyc_per_ms=800000
[HB] up_ms=89689 frames=4243 inf=4243 hazard=520 canary_err=0 q=0 qovr=0
[I2C] init=0 gate=0 whoami=0x140e0 wr=0 wrseen=0x27 addr=0x5a ok=2611 err=1 tmo=0 recov=0 pclk1=200000000 sysclk=400000000
[NAK] nacks=1
[CLK] cpu=800000000 sysb=400000000 pclk1=200000000
[TOF] res=-42 step=1 id=0xa5 blk=0x0 ctl=0x1ff
[DRV] init=0 id=7 mode=0x1 lib=0x2 seq=0x1 odc=0x8b sts=0xe0 armed=1
[TRG] pulses=41 suppressed=479 cyc=1600 rst=1 rstmode=0x40
[HLT] polls=84 faults=0x0 cfglost=0
[EFF] n=5 last=58500 min=58500 max=58645 late=0 stuck=0
[DWT] ok=1 cyc=2917266580 cyc_per_ms=799999
[HB] up_ms=90741 frames=4293 inf=4293 hazard=533 canary_err=0 q=0 qovr=0
[I2C] init=0 gate=0 whoami=0x140e0 wr=0 wrseen=0x27 addr=0x5a ok=2613 err=1 tmo=0 recov=0 pclk1=200000000 sysclk=400000000
[NAK] nacks=1
[CLK] cpu=800000000 sysb=400000000 pclk1=200000000
[TOF] res=-42 step=1 id=0xa5 blk=0x0 ctl=0x1ff
[DRV] init=0 id=7 mode=0x1 lib=0x2 seq=0x1 odc=0x8b sts=0xe0 armed=1
[TRG] pulses=43 suppressed=492 cyc=1600 rst=1 rstmode=0x40
[HLT] polls=85 faults=0x0 cfglost=0
[EFF] n=5 last=58500 min=58500 max=58645 late=0 stuck=0
[DWT] ok=1 cyc=3758870804 cyc_per_ms=800004
[HB] up_ms=91793 frames=4343 inf=4343 hazard=560 canary_err=0 q=0 qovr=0
[I2C] init=0 gate=0 whoami=0x140e0 wr=0 wrseen=0x27 addr=0x5a ok=2615 err=1 tmo=0 recov=0 pclk1=200000000 sysclk=400000000
[NAK] nacks=1
[CLK] cpu=800000000 sysb=400000000 pclk1=200000000
[TOF] res=-42 step=1 id=0xa5 blk=0x0 ctl=0x1ff
[DRV] init=0 id=7 mode=0x1 lib=0x2 seq=0x1 odc=0x8b sts=0xe0 armed=1
[TRG] pulses=44 suppressed=516 cyc=1600 rst=1 rstmode=0x40
[HLT] polls=86 faults=0x0 cfglost=0
[EFF] n=5 last=58500 min=58500 max=58645 late=0 stuck=0
[DWT] ok=1 cyc=305499336 cyc_per_ms=799996
[HB] up_ms=92845 frames=4393 inf=4393 hazard=560 canary_err=0 q=0 qovr=0
[I2C] init=0 gate=0 whoami=0x140e0 wr=0 wrseen=0x27 addr=0x5a ok=2617 err=1 tmo=0 recov=0 pclk1=200000000 sysclk=400000000
[NAK] nacks=1
[CLK] cpu=800000000 sysb=400000000 pclk1=200000000
[TOF] res=-42 step=1 id=0xa5 blk=0x0 ctl=0x1ff
[DRV] init=0 id=7 mode=0x1 lib=0x2 seq=0x1 odc=0x8b sts=0xe0 armed=1
[TRG] pulses=44 suppressed=516 cyc=1600 rst=1 rstmode=0x40
[HLT] polls=87 faults=0x0 cfglost=0
[EFF] n=5 last=58500 min=58500 max=58645 late=0 stuck=0
[DWT] ok=1 cyc=1147099364 cyc_per_ms=800000
[HB] up_ms=93897 frames=4443 inf=4443 hazard=560 canary_err=0 q=0 qovr=0
[I2C] init=0 gate=0 whoami=0x140e0 wr=0 wrseen=0x27 addr=0x5a ok=2619 err=1 tmo=0 recov=0 pclk1=200000000 sysclk=400000000
[NAK] nacks=1
[CLK] cpu=800000000 sysb=400000000 pclk1=200000000
[TOF] res=-42 step=1 id=0xa5 blk=0x0 ctl=0x1ff
[DRV] init=0 id=7 mode=0x1 lib=0x2 seq=0x1 odc=0x8b sts=0xe0 armed=1
[TRG] pulses=44 suppressed=516 cyc=1600 rst=1 rstmode=0x40
[HLT] polls=88 faults=0x0 cfglost=0
[EFF] n=5 last=58500 min=58500 max=58645 late=0 stuck=0
[DWT] ok=1 cyc=1988699360 cyc_per_ms=799999
[HB] up_ms=94949 frames=4493 inf=4493 hazard=560 canary_err=0 q=0 qovr=0
[I2C] init=0 gate=0 whoami=0x140e0 wr=0 wrseen=0x27 addr=0x5a ok=2621 err=1 tmo=0 recov=0 pclk1=200000000 sysclk=400000000
[NAK] nacks=1
[CLK] cpu=800000000 sysb=400000000 pclk1=200000000
[TOF] res=-42 step=1 id=0xa5 blk=0x0 ctl=0x1ff
[DRV] init=0 id=7 mode=0x1 lib=0x2 seq=0x1 odc=0x8b sts=0xe0 armed=1
[TRG] pulses=44 suppressed=516 cyc=1600 rst=1 rstmode=0x40
[HLT] polls=89 faults=0x0 cfglost=0
[EFF] n=5 last=58500 min=58500 max=58645 late=0 stuck=0
[DWT] ok=1 cyc=2830321306 cyc_per_ms=800020
[HB] up_ms=96001 frames=4543 inf=4543 hazard=560 canary_err=0 q=0 qovr=0
[I2C] init=0 gate=0 whoami=0x140e0 wr=0 wrseen=0x27 addr=0x5a ok=2623 err=1 tmo=0 recov=0 pclk1=200000000 sysclk=400000000
[NAK] nacks=1
[CLK] cpu=800000000 sysb=400000000 pclk1=200000000
[TOF] res=-42 step=1 id=0xa5 blk=0x0 ctl=0x1ff
[DRV] init=0 id=7 mode=0x1 lib=0x2 seq=0x1 odc=0x8b sts=0xe0 armed=1
[TRG] pulses=44 suppressed=516 cyc=1600 rst=1 rstmode=0x40
[HLT] polls=90 faults=0x0 cfglost=0
[EFF] n=5 last=58500 min=58500 max=58645 late=0 stuck=0
[DWT] ok=1 cyc=3671921298 cyc_per_ms=799999
[HB] up_ms=97053 frames=4594 inf=4594 hazard=560 canary_err=0 q=0 qovr=0
[I2C] init=0 gate=0 whoami=0x140e0 wr=0 wrseen=0x27 addr=0x5a ok=2625 err=1 tmo=0 recov=0 pclk1=200000000 sysclk=400000000
[NAK] nacks=1
[CLK] cpu=800000000 sysb=400000000 pclk1=200000000
[TOF] res=-42 step=1 id=0xa5 blk=0x0 ctl=0x1ff
[DRV] init=0 id=7 mode=0x1 lib=0x2 seq=0x1 odc=0x8b sts=0xe0 armed=1
[TRG] pulses=44 suppressed=516 cyc=1600 rst=1 rstmode=0x40
[HLT] polls=91 faults=0x0 cfglost=0
[EFF] n=5 last=58500 min=58500 max=58645 late=0 stuck=0
[DWT] ok=1 cyc=218553286 cyc_per_ms=799999
[HB] up_ms=98105 frames=4644 inf=4644 hazard=600 canary_err=0 q=0 qovr=0
[I2C] init=0 gate=0 whoami=0x140e0 wr=0 wrseen=0x27 addr=0x5a ok=2627 err=1 tmo=0 recov=0 pclk1=200000000 sysclk=400000000
[NAK] nacks=1
[CLK] cpu=800000000 sysb=400000000 pclk1=200000000
[TOF] res=-42 step=1 id=0xa5 blk=0x0 ctl=0x1ff
[DRV] init=0 id=7 mode=0x1 lib=0x2 seq=0x1 odc=0x8b sts=0xe0 armed=1
[TRG] pulses=47 suppressed=553 cyc=1600 rst=1 rstmode=0x40
[HLT] polls=92 faults=0x0 cfglost=0
[EFF] n=5 last=58500 min=58500 max=58645 late=0 stuck=0
[DWT] ok=1 cyc=1060132080 cyc_per_ms=799979
[HB] up_ms=99157 frames=4694 inf=4694 hazard=600 canary_err=0 q=0 qovr=0
[I2C] init=0 gate=0 whoami=0x140e0 wr=0 wrseen=0x27 addr=0x5a ok=2629 err=1 tmo=0 recov=0 pclk1=200000000 sysclk=400000000
[NAK] nacks=1
[CLK] cpu=800000000 sysb=400000000 pclk1=200000000
[TOF] res=-42 step=1 id=0xa5 blk=0x0 ctl=0x1ff
[DRV] init=0 id=7 mode=0x1 lib=0x2 seq=0x1 odc=0x8b sts=0xe0 armed=1
[TRG] pulses=47 suppressed=553 cyc=1600 rst=1 rstmode=0x40
[HLT] polls=93 faults=0x0 cfglost=0
[EFF] n=5 last=58500 min=58500 max=58645 late=0 stuck=0
[DWT] ok=1 cyc=1901732016 cyc_per_ms=799999
[HB] up_ms=100209 frames=4744 inf=4744 hazard=600 canary_err=0 q=0 qovr=0
[I2C] init=0 gate=0 whoami=0x140e0 wr=0 wrseen=0x27 addr=0x5a ok=2631 err=1 tmo=0 recov=0 pclk1=200000000 sysclk=400000000
[NAK] nacks=1
[CLK] cpu=800000000 sysb=400000000 pclk1=200000000
[TOF] res=-42 step=1 id=0xa5 blk=0x0 ctl=0x1ff
[DRV] init=0 id=7 mode=0x1 lib=0x2 seq=0x1 odc=0x8b sts=0xe0 armed=1
[TRG] pulses=47 suppressed=553 cyc=1600 rst=1 rstmode=0x40
[HLT] polls=94 faults=0x0 cfglost=0
[EFF] n=5 last=58500 min=58500 max=58645 late=0 stuck=0
[DWT] ok=1 cyc=2743402034 cyc_per_ms=800066
[HB] up_ms=101261 frames=4794 inf=4794 hazard=600 canary_err=0 q=0 qovr=0
[I2C] init=0 gate=0 whoami=0x140e0 wr=0 wrseen=0x27 addr=0x5a ok=2633 err=1 tmo=0 recov=0 pclk1=200000000 sysclk=400000000
[NAK] nacks=1
[CLK] cpu=800000000 sysb=400000000 pclk1=200000000
[TOF] res=-42 step=1 id=0xa5 blk=0x0 ctl=0x1ff
[DRV] init=0 id=7 mode=0x1 lib=0x2 seq=0x1 odc=0x8b sts=0xe0 armed=1
[TRG] pulses=47 suppressed=553 cyc=1600 rst=1 rstmode=0x40
[HLT] polls=95 faults=0x0 cfglost=0
[EFF] n=5 last=58500 min=58500 max=58645 late=0 stuck=0
[DWT] ok=1 cyc=3585001982 cyc_per_ms=799999
[HB] up_ms=102313 frames=4844 inf=4844 hazard=600 canary_err=0 q=0 qovr=0
[I2C] init=0 gate=0 whoami=0x140e0 wr=0 wrseen=0x27 addr=0x5a ok=2635 err=1 tmo=0 recov=0 pclk1=200000000 sysclk=400000000
[NAK] nacks=1
[CLK] cpu=800000000 sysb=400000000 pclk1=200000000
[TOF] res=-42 step=1 id=0xa5 blk=0x0 ctl=0x1ff
[DRV] init=0 id=7 mode=0x1 lib=0x2 seq=0x1 odc=0x8b sts=0xe0 armed=1
[TRG] pulses=47 suppressed=553 cyc=1600 rst=1 rstmode=0x40
[HLT] polls=96 faults=0x0 cfglost=0
[EFF] n=5 last=58500 min=58500 max=58645 late=0 stuck=0
[DWT] ok=1 cyc=131634738 cyc_per_ms=800000
[HB] up_ms=103365 frames=4894 inf=4894 hazard=600 canary_err=0 q=0 qovr=0
[I2C] init=0 gate=0 whoami=0x140e0 wr=0 wrseen=0x27 addr=0x5a ok=2637 err=1 tmo=0 recov=0 pclk1=200000000 sysclk=400000000
[NAK] nacks=1
[CLK] cpu=800000000 sysb=400000000 pclk1=200000000
[TOF] res=-42 step=1 id=0xa5 blk=0x0 ctl=0x1ff
[DRV] init=0 id=7 mode=0x1 lib=0x2 seq=0x1 odc=0x8b sts=0xe0 armed=1
[TRG] pulses=47 suppressed=553 cyc=1600 rst=1 rstmode=0x40
[HLT] polls=97 faults=0x0 cfglost=0
[EFF] n=5 last=58500 min=58500 max=58645 late=0 stuck=0
[DWT] ok=1 cyc=973234782 cyc_per_ms=800000
[HB] up_ms=104417 frames=4944 inf=4944 hazard=624 canary_err=0 q=0 qovr=0
[I2C] init=0 gate=0 whoami=0x140e0 wr=0 wrseen=0x27 addr=0x5a ok=2639 err=1 tmo=0 recov=0 pclk1=200000000 sysclk=400000000
[NAK] nacks=1
[CLK] cpu=800000000 sysb=400000000 pclk1=200000000
[TOF] res=-42 step=1 id=0xa5 blk=0x0 ctl=0x1ff
[DRV] init=0 id=7 mode=0x1 lib=0x2 seq=0x1 odc=0x8b sts=0xe0 armed=1
[TRG] pulses=49 suppressed=577 cyc=1600 rst=1 rstmode=0x40
[HLT] polls=98 faults=0x0 cfglost=0
[EFF] n=5 last=58500 min=58500 max=58645 late=0 stuck=0
[DWT] ok=1 cyc=1814836574 cyc_per_ms=800001
[HB] up_ms=105469 frames=4994 inf=4994 hazard=640 canary_err=0 q=0 qovr=0
[I2C] init=0 gate=0 whoami=0x140e0 wr=0 wrseen=0x27 addr=0x5a ok=2641 err=1 tmo=0 recov=0 pclk1=200000000 sysclk=400000000
[NAK] nacks=1
[CLK] cpu=800000000 sysb=400000000 pclk1=200000000
[TOF] res=-42 step=1 id=0xa5 blk=0x0 ctl=0x1ff
[DRV] init=0 id=7 mode=0x1 lib=0x2 seq=0x1 odc=0x8b sts=0xe0 armed=1
[TRG] pulses=50 suppressed=590 cyc=1600 rst=1 rstmode=0x40
[HLT] polls=99 faults=0x0 cfglost=0
[EFF] n=5 last=58500 min=58500 max=58645 late=0 stuck=0
[DWT] ok=1 cyc=2656456690 cyc_per_ms=800019
[HB] up_ms=106521 frames=5044 inf=5044 hazard=640 canary_err=0 q=0 qovr=0
[I2C] init=0 gate=0 whoami=0x140e0 wr=0 wrseen=0x27 addr=0x5a ok=2643 err=1 tmo=0 recov=0 pclk1=200000000 sysclk=400000000
[NAK] nacks=1
[CLK] cpu=800000000 sysb=400000000 pclk1=200000000
[TOF] res=-42 step=1 id=0xa5 blk=0x0 ctl=0x1ff
[DRV] init=0 id=7 mode=0x1 lib=0x2 seq=0x1 odc=0x8b sts=0xe0 armed=1
[TRG] pulses=50 suppressed=590 cyc=1600 rst=1 rstmode=0x40
[HLT] polls=100 faults=0x0 cfglost=0
[EFF] n=5 last=58500 min=58500 max=58645 late=0 stuck=0
[DWT] ok=1 cyc=3498126678 cyc_per_ms=800066
[HB] up_ms=107573 frames=5094 inf=5094 hazard=640 canary_err=0 q=0 qovr=0
[I2C] init=0 gate=0 whoami=0x140e0 wr=0 wrseen=0x27 addr=0x5a ok=2645 err=1 tmo=0 recov=0 pclk1=200000000 sysclk=400000000
[NAK] nacks=1
[CLK] cpu=800000000 sysb=400000000 pclk1=200000000
[TOF] res=-42 step=1 id=0xa5 blk=0x0 ctl=0x1ff
[DRV] init=0 id=7 mode=0x1 lib=0x2 seq=0x1 odc=0x8b sts=0xe0 armed=1
[TRG] pulses=50 suppressed=590 cyc=1600 rst=1 rstmode=0x40
[HLT] polls=101 faults=0x0 cfglost=0
[EFF] n=5 last=58500 min=58500 max=58645 late=0 stuck=0
[DWT] ok=1 cyc=44759386 cyc_per_ms=800000
[HB] up_ms=108625 frames=5145 inf=5145 hazard=640 canary_err=0 q=0 qovr=0
[I2C] init=0 gate=0 whoami=0x140e0 wr=0 wrseen=0x27 addr=0x5a ok=2647 err=1 tmo=0 recov=0 pclk1=200000000 sysclk=400000000
[NAK] nacks=1
[CLK] cpu=800000000 sysb=400000000 pclk1=200000000
[TOF] res=-42 step=1 id=0xa5 blk=0x0 ctl=0x1ff
[DRV] init=0 id=7 mode=0x1 lib=0x2 seq=0x1 odc=0x8b sts=0xe0 armed=1
[TRG] pulses=50 suppressed=590 cyc=1600 rst=1 rstmode=0x40
[HLT] polls=102 faults=0x0 cfglost=0
[EFF] n=5 last=58500 min=58500 max=58645 late=0 stuck=0
[DWT] ok=1 cyc=886337470 cyc_per_ms=799979
[HB] up_ms=109677 frames=5195 inf=5195 hazard=640 canary_err=0 q=0 qovr=0
[I2C] init=0 gate=0 whoami=0x140e0 wr=0 wrseen=0x27 addr=0x5a ok=2649 err=1 tmo=0 recov=0 pclk1=200000000 sysclk=400000000
[NAK] nacks=1
[CLK] cpu=800000000 sysb=400000000 pclk1=200000000
[TOF] res=-42 step=1 id=0xa5 blk=0x0 ctl=0x1ff
[DRV] init=0 id=7 mode=0x1 lib=0x2 seq=0x1 odc=0x8b sts=0xe0 armed=1
[TRG] pulses=50 suppressed=590 cyc=1600 rst=1 rstmode=0x40
[HLT] polls=103 faults=0x0 cfglost=0
[EFF] n=5 last=58500 min=58500 max=58645 late=0 stuck=0
[DWT] ok=1 cyc=1727937402 cyc_per_ms=799999
[HB] up_ms=110729 frames=5245 inf=5245 hazard=645 canary_err=0 q=0 qovr=0
[I2C] init=0 gate=0 whoami=0x140e0 wr=0 wrseen=0x27 addr=0x5a ok=2651 err=1 tmo=0 recov=0 pclk1=200000000 sysclk=400000000
[NAK] nacks=1
[CLK] cpu=800000000 sysb=400000000 pclk1=200000000
[TOF] res=-42 step=1 id=0xa5 blk=0x0 ctl=0x1ff
[DRV] init=0 id=7 mode=0x1 lib=0x2 seq=0x1 odc=0x8b sts=0xe0 armed=1
[TRG] pulses=51 suppressed=595 cyc=1600 rst=1 rstmode=0x40
[HLT] polls=104 faults=0x0 cfglost=0
[EFF] n=5 last=58500 min=58500 max=58645 late=0 stuck=0
[DWT] ok=1 cyc=2569539242 cyc_per_ms=800001
[HB] up_ms=111781 frames=5295 inf=5295 hazard=680 canary_err=0 q=0 qovr=0
[I2C] init=0 gate=0 whoami=0x140e0 wr=0 wrseen=0x27 addr=0x5a ok=2653 err=1 tmo=0 recov=0 pclk1=200000000 sysclk=400000000
[NAK] nacks=1
[CLK] cpu=800000000 sysb=400000000 pclk1=200000000
[TOF] res=-42 step=1 id=0xa5 blk=0x0 ctl=0x1ff
[DRV] init=0 id=7 mode=0x1 lib=0x2 seq=0x1 odc=0x8b sts=0xe0 armed=1
[TRG] pulses=53 suppressed=627 cyc=1600 rst=1 rstmode=0x40
[HLT] polls=105 faults=0x0 cfglost=0
[EFF] n=5 last=58500 min=58500 max=58645 late=0 stuck=0
[DWT] ok=1 cyc=3411137478 cyc_per_ms=799998
[HB] up_ms=112833 frames=5345 inf=5345 hazard=680 canary_err=0 q=0 qovr=0
[I2C] init=0 gate=0 whoami=0x140e0 wr=0 wrseen=0x27 addr=0x5a ok=2655 err=1 tmo=0 recov=0 pclk1=200000000 sysclk=400000000
[NAK] nacks=1
[CLK] cpu=800000000 sysb=400000000 pclk1=200000000
[TOF] res=-42 step=1 id=0xa5 blk=0x0 ctl=0x1ff
[DRV] init=0 id=7 mode=0x1 lib=0x2 seq=0x1 odc=0x8b sts=0xe0 armed=1
[TRG] pulses=53 suppressed=627 cyc=1600 rst=1 rstmode=0x40
[HLT] polls=106 faults=0x0 cfglost=0
[EFF] n=5 last=58500 min=58500 max=58645 late=0 stuck=0
[DWT] ok=1 cyc=4252737426 cyc_per_ms=799999
[HB] up_ms=113885 frames=5395 inf=5395 hazard=680 canary_err=0 q=0 qovr=0
[I2C] init=0 gate=0 whoami=0x140e0 wr=0 wrseen=0x27 addr=0x5a ok=2657 err=1 tmo=0 recov=0 pclk1=200000000 sysclk=400000000
[NAK] nacks=1
[CLK] cpu=800000000 sysb=400000000 pclk1=200000000
[TOF] res=-42 step=1 id=0xa5 blk=0x0 ctl=0x1ff
[DRV] init=0 id=7 mode=0x1 lib=0x2 seq=0x1 odc=0x8b sts=0xe0 armed=1
[TRG] pulses=53 suppressed=627 cyc=1600 rst=1 rstmode=0x40
[HLT] polls=107 faults=0x0 cfglost=0
[EFF] n=5 last=58500 min=58500 max=58645 late=0 stuck=0
[DWT] ok=1 cyc=799370182 cyc_per_ms=800000
[HB] up_ms=114937 frames=5445 inf=5445 hazard=680 canary_err=0 q=0 qovr=0
[I2C] init=0 gate=0 whoami=0x140e0 wr=0 wrseen=0x27 addr=0x5a ok=2659 err=1 tmo=0 recov=0 pclk1=200000000 sysclk=400000000
[NAK] nacks=1
[CLK] cpu=800000000 sysb=400000000 pclk1=200000000
[TOF] res=-42 step=1 id=0xa5 blk=0x0 ctl=0x1ff
[DRV] init=0 id=7 mode=0x1 lib=0x2 seq=0x1 odc=0x8b sts=0xe0 armed=1
[TRG] pulses=53 suppressed=627 cyc=1600 rst=1 rstmode=0x40
[HLT] polls=108 faults=0x0 cfglost=0
[EFF] n=5 last=58500 min=58500 max=58645 late=0 stuck=0
[DWT] ok=1 cyc=1640970130 cyc_per_ms=799999
[HB] up_ms=115989 frames=5495 inf=5495 hazard=680 canary_err=0 q=0 qovr=0
[I2C] init=0 gate=0 whoami=0x140e0 wr=0 wrseen=0x27 addr=0x5a ok=2661 err=1 tmo=0 recov=0 pclk1=200000000 sysclk=400000000
[NAK] nacks=1
[CLK] cpu=800000000 sysb=400000000 pclk1=200000000
[TOF] res=-42 step=1 id=0xa5 blk=0x0 ctl=0x1ff
[DRV] init=0 id=7 mode=0x1 lib=0x2 seq=0x1 odc=0x8b sts=0xe0 armed=1
[TRG] pulses=53 suppressed=627 cyc=1600 rst=1 rstmode=0x40
[HLT] polls=109 faults=0x0 cfglost=0
[EFF] n=5 last=58500 min=58500 max=58645 late=0 stuck=0
[DWT] ok=1 cyc=2482570130 cyc_per_ms=800000
[HB] up_ms=117041 frames=5545 inf=5545 hazard=680 canary_err=0 q=0 qovr=0
[I2C] init=0 gate=0 whoami=0x140e0 wr=0 wrseen=0x27 addr=0x5a ok=2663 err=1 tmo=0 recov=0 pclk1=200000000 sysclk=400000000
[NAK] nacks=1
[CLK] cpu=800000000 sysb=400000000 pclk1=200000000
[TOF] res=-42 step=1 id=0xa5 blk=0x0 ctl=0x1ff
[DRV] init=0 id=7 mode=0x1 lib=0x2 seq=0x1 odc=0x8b sts=0xe0 armed=1
[TRG] pulses=53 suppressed=627 cyc=1600 rst=1 rstmode=0x40
[HLT] polls=110 faults=0x0 cfglost=0
[EFF] n=5 last=58500 min=58500 max=58645 late=0 stuck=0
[DWT] ok=1 cyc=3324192086 cyc_per_ms=800020
[HB] up_ms=118093 frames=5595 inf=5595 hazard=715 canary_err=0 q=0 qovr=0
[I2C] init=0 gate=0 whoami=0x140e0 wr=0 wrseen=0x27 addr=0x5a ok=2665 err=1 tmo=0 recov=0 pclk1=200000000 sysclk=400000000
[NAK] nacks=1
[CLK] cpu=800000000 sysb=400000000 pclk1=200000000
[TOF] res=-42 step=1 id=0xa5 blk=0x0 ctl=0x1ff
[DRV] init=0 id=7 mode=0x1 lib=0x2 seq=0x1 odc=0x8b sts=0xe0 armed=1
[TRG] pulses=56 suppressed=661 cyc=1600 rst=1 rstmode=0x40
[HLT] polls=111 faults=0x0 cfglost=0
[EFF] n=5 last=58500 min=58500 max=58645 late=0 stuck=0
[DWT] ok=1 cyc=4165794834 cyc_per_ms=800002
[HB] up_ms=119145 frames=5646 inf=5646 hazard=720 canary_err=0 q=0 qovr=0
[I2C] init=0 gate=0 whoami=0x140e0 wr=0 wrseen=0x27 addr=0x5a ok=2667 err=1 tmo=0 recov=0 pclk1=200000000 sysclk=400000000
[NAK] nacks=1
[CLK] cpu=800000000 sysb=400000000 pclk1=200000000
[TOF] res=-42 step=1 id=0xa5 blk=0x0 ctl=0x1ff
[DRV] init=0 id=7 mode=0x1 lib=0x2 seq=0x1 odc=0x8b sts=0xe0 armed=1
[TRG] pulses=56 suppressed=664 cyc=1600 rst=1 rstmode=0x40
[HLT] polls=112 faults=0x0 cfglost=0
[EFF] n=5 last=58500 min=58500 max=58645 late=0 stuck=0
[DWT] ok=1 cyc=712424046 cyc_per_ms=799996
[HB] up_ms=120197 frames=5696 inf=5696 hazard=720 canary_err=0 q=0 qovr=0
[I2C] init=0 gate=0 whoami=0x140e0 wr=0 wrseen=0x27 addr=0x5a ok=2669 err=1 tmo=0 recov=0 pclk1=200000000 sysclk=400000000
[NAK] nacks=1
[CLK] cpu=800000000 sysb=400000000 pclk1=200000000
[TOF] res=-42 step=1 id=0xa5 blk=0x0 ctl=0x1ff
[DRV] init=0 id=7 mode=0x1 lib=0x2 seq=0x1 odc=0x8b sts=0xe0 armed=1
[TRG] pulses=56 suppressed=664 cyc=1600 rst=1 rstmode=0x40
[HLT] polls=113 faults=0x0 cfglost=0
[EFF] n=5 last=58500 min=58500 max=58645 late=0 stuck=0
[DWT] ok=1 cyc=1554002858 cyc_per_ms=799979
[HB] up_ms=121249 frames=5746 inf=5746 hazard=720 canary_err=0 q=0 qovr=0
[I2C] init=0 gate=0 whoami=0x140e0 wr=0 wrseen=0x27 addr=0x5a ok=2671 err=1 tmo=0 recov=0 pclk1=200000000 sysclk=400000000
[NAK] nacks=1
[CLK] cpu=800000000 sysb=400000000 pclk1=200000000
[TOF] res=-42 step=1 id=0xa5 blk=0x0 ctl=0x1ff
[DRV] init=0 id=7 mode=0x1 lib=0x2 seq=0x1 odc=0x8b sts=0xe0 armed=1
[TRG] pulses=56 suppressed=664 cyc=1600 rst=1 rstmode=0x40
[HLT] polls=114 faults=0x0 cfglost=0
[EFF] n=5 last=58500 min=58500 max=58645 late=0 stuck=0
[DWT] ok=1 cyc=2395602782 cyc_per_ms=799999
[HB] up_ms=122301 frames=5796 inf=5796 hazard=720 canary_err=0 q=0 qovr=0
[I2C] init=0 gate=0 whoami=0x140e0 wr=0 wrseen=0x27 addr=0x5a ok=2673 err=1 tmo=0 recov=0 pclk1=200000000 sysclk=400000000
[NAK] nacks=1
[CLK] cpu=800000000 sysb=400000000 pclk1=200000000
[TOF] res=-42 step=1 id=0xa5 blk=0x0 ctl=0x1ff
[DRV] init=0 id=7 mode=0x1 lib=0x2 seq=0x1 odc=0x8b sts=0xe0 armed=1
[TRG] pulses=56 suppressed=664 cyc=1600 rst=1 rstmode=0x40
[HLT] polls=115 faults=0x0 cfglost=0
[EFF] n=5 last=58500 min=58500 max=58645 late=0 stuck=0
[DWT] ok=1 cyc=3237202834 cyc_per_ms=800000
[HB] up_ms=123353 frames=5846 inf=5846 hazard=720 canary_err=0 q=0 qovr=0
[I2C] init=0 gate=0 whoami=0x140e0 wr=0 wrseen=0x27 addr=0x5a ok=2675 err=1 tmo=0 recov=0 pclk1=200000000 sysclk=400000000
[NAK] nacks=1
[CLK] cpu=800000000 sysb=400000000 pclk1=200000000
[TOF] res=-42 step=1 id=0xa5 blk=0x0 ctl=0x1ff
[DRV] init=0 id=7 mode=0x1 lib=0x2 seq=0x1 odc=0x8b sts=0xe0 armed=1
[TRG] pulses=56 suppressed=664 cyc=1600 rst=1 rstmode=0x40
[HLT] polls=116 faults=0x0 cfglost=0
[EFF] n=5 last=58500 min=58500 max=58645 late=0 stuck=0
[DWT] ok=1 cyc=4078802886 cyc_per_ms=800000
[HB] up_ms=124405 frames=5896 inf=5896 hazard=736 canary_err=0 q=0 qovr=0
[I2C] init=0 gate=0 whoami=0x140e0 wr=0 wrseen=0x27 addr=0x5a ok=2677 err=1 tmo=0 recov=0 pclk1=200000000 sysclk=400000000
[NAK] nacks=1
[CLK] cpu=800000000 sysb=400000000 pclk1=200000000
[TOF] res=-42 step=1 id=0xa5 blk=0x0 ctl=0x1ff
[DRV] init=0 id=7 mode=0x1 lib=0x2 seq=0x1 odc=0x8b sts=0xe0 armed=1
[TRG] pulses=58 suppressed=680 cyc=1600 rst=1 rstmode=0x40
[HLT] polls=117 faults=0x0 cfglost=0
[EFF] n=5 last=58500 min=58500 max=58645 late=0 stuck=0
[DWT] ok=1 cyc=625437354 cyc_per_ms=800001
[HB] up_ms=125457 frames=5946 inf=5946 hazard=760 canary_err=0 q=0 qovr=0
[I2C] init=0 gate=0 whoami=0x140e0 wr=0 wrseen=0x27 addr=0x5a ok=2679 err=1 tmo=0 recov=0 pclk1=200000000 sysclk=400000000
[NAK] nacks=1
[CLK] cpu=800000000 sysb=400000000 pclk1=200000000
[TOF] res=-42 step=1 id=0xa5 blk=0x0 ctl=0x1ff
[DRV] init=0 id=7 mode=0x1 lib=0x2 seq=0x1 odc=0x8b sts=0xe0 armed=1
[TRG] pulses=59 suppressed=701 cyc=1600 rst=1 rstmode=0x40
[HLT] polls=118 faults=0x0 cfglost=0
[EFF] n=5 last=58500 min=58500 max=58645 late=0 stuck=0
[DWT] ok=1 cyc=1467035586 cyc_per_ms=799998
[HB] up_ms=126509 frames=5996 inf=5996 hazard=760 canary_err=0 q=0 qovr=0
[I2C] init=0 gate=0 whoami=0x140e0 wr=0 wrseen=0x27 addr=0x5a ok=2681 err=1 tmo=0 recov=0 pclk1=200000000 sysclk=400000000
[NAK] nacks=1
[CLK] cpu=800000000 sysb=400000000 pclk1=200000000
[TOF] res=-42 step=1 id=0xa5 blk=0x0 ctl=0x1ff
[DRV] init=0 id=7 mode=0x1 lib=0x2 seq=0x1 odc=0x8b sts=0xe0 armed=1
[TRG] pulses=59 suppressed=701 cyc=1600 rst=1 rstmode=0x40
[HLT] polls=119 faults=0x0 cfglost=0
[EFF] n=5 last=58500 min=58500 max=58645 late=0 stuck=0
[DWT] ok=1 cyc=2308635538 cyc_per_ms=799999
[HB] up_ms=127561 frames=6046 inf=6046 hazard=760 canary_err=0 q=0 qovr=0
[I2C] init=0 gate=0 whoami=0x140e0 wr=0 wrseen=0x27 addr=0x5a ok=2683 err=1 tmo=0 recov=0 pclk1=200000000 sysclk=400000000
[NAK] nacks=1
[CLK] cpu=800000000 sysb=400000000 pclk1=200000000
[TOF] res=-42 step=1 id=0xa5 blk=0x0 ctl=0x1ff
[DRV] init=0 id=7 mode=0x1 lib=0x2 seq=0x1 odc=0x8b sts=0xe0 armed=1
[TRG] pulses=59 suppressed=701 cyc=1600 rst=1 rstmode=0x40
[HLT] polls=120 faults=0x0 cfglost=0
[EFF] n=5 last=58500 min=58500 max=58645 late=0 stuck=0
[DWT] ok=1 cyc=3150257494 cyc_per_ms=800020
[HB] up_ms=128613 frames=6096 inf=6096 hazard=760 canary_err=0 q=0 qovr=0
[I2C] init=0 gate=0 whoami=0x140e0 wr=0 wrseen=0x27 addr=0x5a ok=2685 err=1 tmo=0 recov=0 pclk1=200000000 sysclk=400000000
[NAK] nacks=1
[CLK] cpu=800000000 sysb=400000000 pclk1=200000000
[TOF] res=-42 step=1 id=0xa5 blk=0x0 ctl=0x1ff
[DRV] init=0 id=7 mode=0x1 lib=0x2 seq=0x1 odc=0x8b sts=0xe0 armed=1
[TRG] pulses=59 suppressed=701 cyc=1600 rst=1 rstmode=0x40
[HLT] polls=121 faults=0x0 cfglost=0
[EFF] n=5 last=58500 min=58500 max=58645 late=0 stuck=0
[DWT] ok=1 cyc=3991857494 cyc_per_ms=800000
[HB] up_ms=129665 frames=6146 inf=6146 hazard=760 canary_err=0 q=0 qovr=0
[I2C] init=0 gate=0 whoami=0x140e0 wr=0 wrseen=0x27 addr=0x5a ok=2687 err=1 tmo=0 recov=0 pclk1=200000000 sysclk=400000000
[NAK] nacks=1
[CLK] cpu=800000000 sysb=400000000 pclk1=200000000
[TOF] res=-42 step=1 id=0xa5 blk=0x0 ctl=0x1ff
[DRV] init=0 id=7 mode=0x1 lib=0x2 seq=0x1 odc=0x8b sts=0xe0 armed=1
[TRG] pulses=59 suppressed=701 cyc=1600 rst=1 rstmode=0x40
[HLT] polls=122 faults=0x0 cfglost=0
[EFF] n=5 last=58500 min=58500 max=58645 late=0 stuck=0
[DWT] ok=1 cyc=538490202 cyc_per_ms=800000
[HB] up_ms=130717 frames=6197 inf=6197 hazard=760 canary_err=0 q=0 qovr=0
[I2C] init=0 gate=0 whoami=0x140e0 wr=0 wrseen=0x27 addr=0x5a ok=2689 err=1 tmo=0 recov=0 pclk1=200000000 sysclk=400000000
[NAK] nacks=1
[CLK] cpu=800000000 sysb=400000000 pclk1=200000000
[TOF] res=-42 step=1 id=0xa5 blk=0x0 ctl=0x1ff
[DRV] init=0 id=7 mode=0x1 lib=0x2 seq=0x1 odc=0x8b sts=0xe0 armed=1
[TRG] pulses=59 suppressed=701 cyc=1600 rst=1 rstmode=0x40
[HLT] polls=123 faults=0x0 cfglost=0
[EFF] n=5 last=58500 min=58500 max=58645 late=0 stuck=0
[DWT] ok=1 cyc=1380068186 cyc_per_ms=799979
[HB] up_ms=131769 frames=6247 inf=6247 hazard=800 canary_err=0 q=0 qovr=0
[I2C] init=0 gate=0 whoami=0x140e0 wr=0 wrseen=0x27 addr=0x5a ok=2691 err=1 tmo=0 recov=0 pclk1=200000000 sysclk=400000000
[NAK] nacks=1
[CLK] cpu=800000000 sysb=400000000 pclk1=200000000
[TOF] res=-42 step=1 id=0xa5 blk=0x0 ctl=0x1ff
[DRV] init=0 id=7 mode=0x1 lib=0x2 seq=0x1 odc=0x8b sts=0xe0 armed=1
[TRG] pulses=62 suppressed=738 cyc=1600 rst=1 rstmode=0x40
[HLT] polls=124 faults=0x0 cfglost=0
[EFF] n=5 last=58500 min=58500 max=58645 late=0 stuck=0
[DWT] ok=1 cyc=2221668202 cyc_per_ms=800000
[HB] up_ms=132821 frames=6297 inf=6297 hazard=800 canary_err=0 q=0 qovr=0
[I2C] init=0 gate=0 whoami=0x140e0 wr=0 wrseen=0x27 addr=0x5a ok=2693 err=1 tmo=0 recov=0 pclk1=200000000 sysclk=400000000
[NAK] nacks=1
[CLK] cpu=800000000 sysb=400000000 pclk1=200000000
[TOF] res=-42 step=1 id=0xa5 blk=0x0 ctl=0x1ff
[DRV] init=0 id=7 mode=0x1 lib=0x2 seq=0x1 odc=0x8b sts=0xe0 armed=1
[TRG] pulses=62 suppressed=738 cyc=1600 rst=1 rstmode=0x40
[HLT] polls=125 faults=0x0 cfglost=0
[EFF] n=5 last=58500 min=58500 max=58645 late=0 stuck=0
[DWT] ok=1 cyc=3063268246 cyc_per_ms=800000
[HB] up_ms=133873 frames=6347 inf=6347 hazard=800 canary_err=0 q=0 qovr=0
[I2C] init=0 gate=0 whoami=0x140e0 wr=0 wrseen=0x27 addr=0x5a ok=2695 err=1 tmo=0 recov=0 pclk1=200000000 sysclk=400000000
[NAK] nacks=1
[CLK] cpu=800000000 sysb=400000000 pclk1=200000000
[TOF] res=-42 step=1 id=0xa5 blk=0x0 ctl=0x1ff
[DRV] init=0 id=7 mode=0x1 lib=0x2 seq=0x1 odc=0x8b sts=0xe0 armed=1
[TRG] pulses=62 suppressed=738 cyc=1600 rst=1 rstmode=0x40
[HLT] polls=126 faults=0x0 cfglost=0
[EFF] n=5 last=58500 min=58500 max=58645 late=0 stuck=0
[DWT] ok=1 cyc=3904868194 cyc_per_ms=799999
[HB] up_ms=134925 frames=6397 inf=6397 hazard=800 canary_err=0 q=0 qovr=0
[I2C] init=0 gate=0 whoami=0x140e0 wr=0 wrseen=0x27 addr=0x5a ok=2697 err=1 tmo=0 recov=0 pclk1=200000000 sysclk=400000000
[NAK] nacks=1
[CLK] cpu=800000000 sysb=400000000 pclk1=200000000
[TOF] res=-42 step=1 id=0xa5 blk=0x0 ctl=0x1ff
[DRV] init=0 id=7 mode=0x1 lib=0x2 seq=0x1 odc=0x8b sts=0xe0 armed=1
[TRG] pulses=62 suppressed=738 cyc=1600 rst=1 rstmode=0x40
[HLT] polls=127 faults=0x0 cfglost=0
[EFF] n=5 last=58500 min=58500 max=58645 late=0 stuck=0
[DWT] ok=1 cyc=451500950 cyc_per_ms=800000
[HB] up_ms=135977 frames=6447 inf=6447 hazard=800 canary_err=0 q=0 qovr=0
[I2C] init=0 gate=0 whoami=0x140e0 wr=0 wrseen=0x27 addr=0x5a ok=2699 err=1 tmo=0 recov=0 pclk1=200000000 sysclk=400000000
[NAK] nacks=1
[CLK] cpu=800000000 sysb=400000000 pclk1=200000000
[TOF] res=-42 step=1 id=0xa5 blk=0x0 ctl=0x1ff
[DRV] init=0 id=7 mode=0x1 lib=0x2 seq=0x1 odc=0x8b sts=0xe0 armed=1
[TRG] pulses=62 suppressed=738 cyc=1600 rst=1 rstmode=0x40
[HLT] polls=128 faults=0x0 cfglost=0
[EFF] n=5 last=58500 min=58500 max=58645 late=0 stuck=0
[DWT] ok=1 cyc=1293101002 cyc_per_ms=800000
[HB] up_ms=137029 frames=6497 inf=6497 hazard=800 canary_err=0 q=0 qovr=0
[I2C] init=0 gate=0 whoami=0x140e0 wr=0 wrseen=0x27 addr=0x5a ok=2701 err=1 tmo=0 recov=0 pclk1=200000000 sysclk=400000000
[NAK] nacks=1
[CLK] cpu=800000000 sysb=400000000 pclk1=200000000
[TOF] res=-42 step=1 id=0xa5 blk=0x0 ctl=0x1ff
[DRV] init=0 id=7 mode=0x1 lib=0x2 seq=0x1 odc=0x8b sts=0xe0 armed=1
[TRG] pulses=62 suppressed=738 cyc=1600 rst=1 rstmode=0x40
[HLT] polls=129 faults=0x0 cfglost=0
[EFF] n=5 last=58500 min=58500 max=58645 late=0 stuck=0
[DWT] ok=1 cyc=2134700950 cyc_per_ms=799999
[HB] up_ms=138081 frames=6547 inf=6547 hazard=827 canary_err=0 q=0 qovr=0
[I2C] init=0 gate=0 whoami=0x140e0 wr=0 wrseen=0x27 addr=0x5a ok=2703 err=1 tmo=0 recov=0 pclk1=200000000 sysclk=400000000
[NAK] nacks=1
[CLK] cpu=800000000 sysb=400000000 pclk1=200000000
[TOF] res=-42 step=1 id=0xa5 blk=0x0 ctl=0x1ff
[DRV] init=0 id=7 mode=0x1 lib=0x2 seq=0x1 odc=0x8b sts=0xe0 armed=1
[TRG] pulses=65 suppressed=764 cyc=1600 rst=1 rstmode=0x40
[HLT] polls=130 faults=0x0 cfglost=0
[EFF] n=5 last=58500 min=58500 max=58645 late=0 stuck=0
[DWT] ok=1 cyc=2976305166 cyc_per_ms=800004
[HB] up_ms=139133 frames=6597 inf=6597 hazard=840 canary_err=0 q=0 qovr=0
[I2C] init=0 gate=0 whoami=0x140e0 wr=0 wrseen=0x27 addr=0x5a ok=2705 err=1 tmo=0 recov=0 pclk1=200000000 sysclk=400000000
[NAK] nacks=1
[CLK] cpu=800000000 sysb=400000000 pclk1=200000000
[TOF] res=-42 step=1 id=0xa5 blk=0x0 ctl=0x1ff
[DRV] init=0 id=7 mode=0x1 lib=0x2 seq=0x1 odc=0x8b sts=0xe0 armed=1
[TRG] pulses=65 suppressed=775 cyc=1600 rst=1 rstmode=0x40
[HLT] polls=131 faults=0x0 cfglost=0
[EFF] n=5 last=58500 min=58500 max=58645 late=0 stuck=0
[DWT] ok=1 cyc=3817955794 cyc_per_ms=800048
[HB] up_ms=140185 frames=6647 inf=6647 hazard=840 canary_err=0 q=0 qovr=0
[I2C] init=0 gate=0 whoami=0x140e0 wr=0 wrseen=0x27 addr=0x5a ok=2707 err=1 tmo=0 recov=0 pclk1=200000000 sysclk=400000000
[NAK] nacks=1
[CLK] cpu=800000000 sysb=400000000 pclk1=200000000
[TOF] res=-42 step=1 id=0xa5 blk=0x0 ctl=0x1ff
[DRV] init=0 id=7 mode=0x1 lib=0x2 seq=0x1 odc=0x8b sts=0xe0 armed=1
[TRG] pulses=65 suppressed=775 cyc=1600 rst=1 rstmode=0x40
[HLT] polls=132 faults=0x0 cfglost=0
[EFF] n=5 last=58500 min=58500 max=58645 late=0 stuck=0
[DWT] ok=1 cyc=364588494 cyc_per_ms=799999
[HB] up_ms=141237 frames=6698 inf=6698 hazard=840 canary_err=0 q=0 qovr=0
[I2C] init=0 gate=0 whoami=0x140e0 wr=0 wrseen=0x27 addr=0x5a ok=2709 err=1 tmo=0 recov=0 pclk1=200000000 sysclk=400000000
[NAK] nacks=1
[CLK] cpu=800000000 sysb=400000000 pclk1=200000000
[TOF] res=-42 step=1 id=0xa5 blk=0x0 ctl=0x1ff
[DRV] init=0 id=7 mode=0x1 lib=0x2 seq=0x1 odc=0x8b sts=0xe0 armed=1
[TRG] pulses=65 suppressed=775 cyc=1600 rst=1 rstmode=0x40
[HLT] polls=133 faults=0x0 cfglost=0
[EFF] n=5 last=58500 min=58500 max=58645 late=0 stuck=0
[DWT] ok=1 cyc=1206187726 cyc_per_ms=799999
[HB] up_ms=142289 frames=6748 inf=6748 hazard=840 canary_err=0 q=0 qovr=0
[I2C] init=0 gate=0 whoami=0x140e0 wr=0 wrseen=0x27 addr=0x5a ok=2711 err=1 tmo=0 recov=0 pclk1=200000000 sysclk=400000000
[NAK] nacks=1
[CLK] cpu=800000000 sysb=400000000 pclk1=200000000
[TOF] res=-42 step=1 id=0xa5 blk=0x0 ctl=0x1ff
[DRV] init=0 id=7 mode=0x1 lib=0x2 seq=0x1 odc=0x8b sts=0xe0 armed=1
[TRG] pulses=65 suppressed=775 cyc=1600 rst=1 rstmode=0x40
[HLT] polls=134 faults=0x0 cfglost=0
[EFF] n=5 last=58500 min=58500 max=58645 late=0 stuck=0
[DWT] ok=1 cyc=2047766526 cyc_per_ms=799979
[HB] up_ms=143341 frames=6798 inf=6798 hazard=840 canary_err=0 q=0 qovr=0
[I2C] init=0 gate=0 whoami=0x140e0 wr=0 wrseen=0x27 addr=0x5a ok=2713 err=1 tmo=0 recov=0 pclk1=200000000 sysclk=400000000
[NAK] nacks=1
[CLK] cpu=800000000 sysb=400000000 pclk1=200000000
[TOF] res=-42 step=1 id=0xa5 blk=0x0 ctl=0x1ff
[DRV] init=0 id=7 mode=0x1 lib=0x2 seq=0x1 odc=0x8b sts=0xe0 armed=1
[TRG] pulses=65 suppressed=775 cyc=1600 rst=1 rstmode=0x40
[HLT] polls=136 faults=0x0 cfglost=0
[EFF] n=5 last=58500 min=58500 max=58645 late=0 stuck=0
[DWT] ok=1 cyc=2889366446 cyc_per_ms=799999
[HB] up_ms=144393 frames=6848 inf=6848 hazard=848 canary_err=0 q=0 qovr=0
[I2C] init=0 gate=0 whoami=0x140e0 wr=0 wrseen=0x27 addr=0x5a ok=2715 err=1 tmo=0 recov=0 pclk1=200000000 sysclk=400000000
[NAK] nacks=1
[CLK] cpu=800000000 sysb=400000000 pclk1=200000000
[TOF] res=-42 step=1 id=0xa5 blk=0x0 ctl=0x1ff
[DRV] init=0 id=7 mode=0x1 lib=0x2 seq=0x1 odc=0x8b sts=0xe0 armed=1
[TRG] pulses=66 suppressed=783 cyc=1600 rst=1 rstmode=0x40
[HLT] polls=137 faults=0x0 cfglost=0
[EFF] n=5 last=58500 min=58500 max=58645 late=0 stuck=0
[DWT] ok=1 cyc=3730968290 cyc_per_ms=800001
[HB] up_ms=145445 frames=6898 inf=6898 hazard=880 canary_err=0 q=0 qovr=0
[I2C] init=0 gate=0 whoami=0x140e0 wr=0 wrseen=0x27 addr=0x5a ok=2717 err=1 tmo=0 recov=0 pclk1=200000000 sysclk=400000000
[NAK] nacks=1
[CLK] cpu=800000000 sysb=400000000 pclk1=200000000
[TOF] res=-42 step=1 id=0xa5 blk=0x0 ctl=0x1ff
[DRV] init=0 id=7 mode=0x1 lib=0x2 seq=0x1 odc=0x8b sts=0xe0 armed=1
[TRG] pulses=68 suppressed=812 cyc=1600 rst=1 rstmode=0x40
[HLT] polls=138 faults=0x0 cfglost=0
[EFF] n=5 last=58500 min=58500 max=58645 late=0 stuck=0
[DWT] ok=1 cyc=277599182 cyc_per_ms=799998
[HB] up_ms=146497 frames=6948 inf=6948 hazard=880 canary_err=0 q=0 qovr=0
[I2C] init=0 gate=0 whoami=0x140e0 wr=0 wrseen=0x27 addr=0x5a ok=2719 err=1 tmo=0 recov=0 pclk1=200000000 sysclk=400000000
[NAK] nacks=1
[CLK] cpu=800000000 sysb=400000000 pclk1=200000000
[TOF] res=-42 step=1 id=0xa5 blk=0x0 ctl=0x1ff
[DRV] init=0 id=7 mode=0x1 lib=0x2 seq=0x1 odc=0x8b sts=0xe0 armed=1
[TRG] pulses=68 suppressed=812 cyc=1600 rst=1 rstmode=0x40
[HLT] polls=139 faults=0x0 cfglost=0
[EFF] n=5 last=58500 min=58500 max=58645 late=0 stuck=0
[DWT] ok=1 cyc=1119199202 cyc_per_ms=800000
[HB] up_ms=147549 frames=6998 inf=6998 hazard=880 canary_err=0 q=0 qovr=0
[I2C] init=0 gate=0 whoami=0x140e0 wr=0 wrseen=0x27 addr=0x5a ok=2721 err=1 tmo=0 recov=0 pclk1=200000000 sysclk=400000000
[NAK] nacks=1
[CLK] cpu=800000000 sysb=400000000 pclk1=200000000
[TOF] res=-42 step=1 id=0xa5 blk=0x0 ctl=0x1ff
[DRV] init=0 id=7 mode=0x1 lib=0x2 seq=0x1 odc=0x8b sts=0xe0 armed=1
[TRG] pulses=68 suppressed=812 cyc=1600 rst=1 rstmode=0x40
[HLT] polls=140 faults=0x0 cfglost=0
[EFF] n=5 last=58500 min=58500 max=58645 late=0 stuck=0
[DWT] ok=1 cyc=1960799230 cyc_per_ms=800000
[HB] up_ms=148601 frames=7048 inf=7048 hazard=880 canary_err=0 q=0 qovr=0
[I2C] init=0 gate=0 whoami=0x140e0 wr=0 wrseen=0x27 addr=0x5a ok=2723 err=1 tmo=0 recov=0 pclk1=200000000 sysclk=400000000
[NAK] nacks=1
[CLK] cpu=800000000 sysb=400000000 pclk1=200000000
[TOF] res=-42 step=1 id=0xa5 blk=0x0 ctl=0x1ff
[DRV] init=0 id=7 mode=0x1 lib=0x2 seq=0x1 odc=0x8b sts=0xe0 armed=1
[TRG] pulses=68 suppressed=812 cyc=1600 rst=1 rstmode=0x40
[HLT] polls=141 faults=0x0 cfglost=0
[EFF] n=5 last=58500 min=58500 max=58645 late=0 stuck=0
[DWT] ok=1 cyc=2802399218 cyc_per_ms=799999
[HB] up_ms=149653 frames=7098 inf=7098 hazard=880 canary_err=0 q=0 qovr=0
[I2C] init=0 gate=0 whoami=0x140e0 wr=0 wrseen=0x27 addr=0x5a ok=2725 err=1 tmo=0 recov=0 pclk1=200000000 sysclk=400000000
[NAK] nacks=1
[CLK] cpu=800000000 sysb=400000000 pclk1=200000000
[TOF] res=-42 step=1 id=0xa5 blk=0x0 ctl=0x1ff
[DRV] init=0 id=7 mode=0x1 lib=0x2 seq=0x1 odc=0x8b sts=0xe0 armed=1
[TRG] pulses=68 suppressed=812 cyc=1600 rst=1 rstmode=0x40
[HLT] polls=142 faults=0x0 cfglost=0
[EFF] n=5 last=58500 min=58500 max=58645 late=0 stuck=0
[DWT] ok=1 cyc=3644021166 cyc_per_ms=800020
[HB] up_ms=150705 frames=7148 inf=7148 hazard=880 canary_err=0 q=0 qovr=0
[I2C] init=0 gate=0 whoami=0x140e0 wr=0 wrseen=0x27 addr=0x5a ok=2727 err=1 tmo=0 recov=0 pclk1=200000000 sysclk=400000000
[NAK] nacks=1
[CLK] cpu=800000000 sysb=400000000 pclk1=200000000
[TOF] res=-42 step=1 id=0xa5 blk=0x0 ctl=0x1ff
[DRV] init=0 id=7 mode=0x1 lib=0x2 seq=0x1 odc=0x8b sts=0xe0 armed=1
[TRG] pulses=68 suppressed=812 cyc=1600 rst=1 rstmode=0x40
[HLT] polls=143 faults=0x0 cfglost=0
[EFF] n=5 last=58500 min=58500 max=58645 late=0 stuck=0
[DWT] ok=1 cyc=190653862 cyc_per_ms=799999
[HB] up_ms=151757 frames=7198 inf=7198 hazard=918 canary_err=0 q=0 qovr=0
[I2C] init=0 gate=0 whoami=0x140e0 wr=0 wrseen=0x27 addr=0x5a ok=2729 err=1 tmo=0 recov=0 pclk1=200000000 sysclk=400000000
[NAK] nacks=1
[CLK] cpu=800000000 sysb=400000000 pclk1=200000000
[TOF] res=-42 step=1 id=0xa5 blk=0x0 ctl=0x1ff
[DRV] init=0 id=7 mode=0x1 lib=0x2 seq=0x1 odc=0x8b sts=0xe0 armed=1
[TRG] pulses=71 suppressed=849 cyc=1600 rst=1 rstmode=0x40
[HLT] polls=144 faults=0x0 cfglost=0
[EFF] n=5 last=58500 min=58500 max=58645 late=0 stuck=0
[DWT] ok=1 cyc=1032255698 cyc_per_ms=800001
[HB] up_ms=152809 frames=7249 inf=7249 hazard=920 canary_err=0 q=0 qovr=0
[I2C] init=0 gate=0 whoami=0x140e0 wr=0 wrseen=0x27 addr=0x5a ok=2731 err=1 tmo=0 recov=0 pclk1=200000000 sysclk=400000000
[NAK] nacks=1
[CLK] cpu=800000000 sysb=400000000 pclk1=200000000
[TOF] res=-42 step=1 id=0xa5 blk=0x0 ctl=0x1ff
[DRV] init=0 id=7 mode=0x1 lib=0x2 seq=0x1 odc=0x8b sts=0xe0 armed=1
[TRG] pulses=71 suppressed=849 cyc=1600 rst=1 rstmode=0x40
[HLT] polls=145 faults=0x0 cfglost=0
[EFF] n=5 last=58500 min=58500 max=58645 late=0 stuck=0
[DWT] ok=1 cyc=1873831890 cyc_per_ms=799977
[HB] up_ms=153861 frames=7299 inf=7299 hazard=920 canary_err=0 q=0 qovr=0
[I2C] init=0 gate=0 whoami=0x140e0 wr=0 wrseen=0x27 addr=0x5a ok=2733 err=1 tmo=0 recov=0 pclk1=200000000 sysclk=400000000
[NAK] nacks=1
[CLK] cpu=800000000 sysb=400000000 pclk1=200000000
[TOF] res=-42 step=1 id=0xa5 blk=0x0 ctl=0x1ff
[DRV] init=0 id=7 mode=0x1 lib=0x2 seq=0x1 odc=0x8b sts=0xe0 armed=1
[TRG] pulses=71 suppressed=849 cyc=1600 rst=1 rstmode=0x40
[HLT] polls=146 faults=0x0 cfglost=0
[EFF] n=5 last=58500 min=58500 max=58645 late=0 stuck=0
[DWT] ok=1 cyc=2715431902 cyc_per_ms=800000
[HB] up_ms=154913 frames=7349 inf=7349 hazard=920 canary_err=0 q=0 qovr=0
[I2C] init=0 gate=0 whoami=0x140e0 wr=0 wrseen=0x27 addr=0x5a ok=2735 err=1 tmo=0 recov=0 pclk1=200000000 sysclk=400000000
[NAK] nacks=1
[CLK] cpu=800000000 sysb=400000000 pclk1=200000000
[TOF] res=-42 step=1 id=0xa5 blk=0x0 ctl=0x1ff
[DRV] init=0 id=7 mode=0x1 lib=0x2 seq=0x1 odc=0x8b sts=0xe0 armed=1
[TRG] pulses=71 suppressed=849 cyc=1600 rst=1 rstmode=0x40
[HLT] polls=147 faults=0x0 cfglost=0
[EFF] n=5 last=58500 min=58500 max=58645 late=0 stuck=0
[DWT] ok=1 cyc=3557031922 cyc_per_ms=800000
[HB] up_ms=155965 frames=7399 inf=7399 hazard=920 canary_err=0 q=0 qovr=0
[I2C] init=0 gate=0 whoami=0x140e0 wr=0 wrseen=0x27 addr=0x5a ok=2737 err=1 tmo=0 recov=0 pclk1=200000000 sysclk=400000000
[NAK] nacks=1
[CLK] cpu=800000000 sysb=400000000 pclk1=200000000
[TOF] res=-42 step=1 id=0xa5 blk=0x0 ctl=0x1ff
[DRV] init=0 id=7 mode=0x1 lib=0x2 seq=0x1 odc=0x8b sts=0xe0 armed=1
[TRG] pulses=71 suppressed=849 cyc=1600 rst=1 rstmode=0x40
[HLT] polls=148 faults=0x0 cfglost=0
[EFF] n=5 last=58500 min=58500 max=58645 late=0 stuck=0
[DWT] ok=1 cyc=103664550 cyc_per_ms=799999
[HB] up_ms=157017 frames=7449 inf=7449 hazard=920 canary_err=0 q=0 qovr=0
[I2C] init=0 gate=0 whoami=0x140e0 wr=0 wrseen=0x27 addr=0x5a ok=2739 err=1 tmo=0 recov=0 pclk1=200000000 sysclk=400000000
[NAK] nacks=1
[CLK] cpu=800000000 sysb=400000000 pclk1=200000000
[TOF] res=-42 step=1 id=0xa5 blk=0x0 ctl=0x1ff
[DRV] init=0 id=7 mode=0x1 lib=0x2 seq=0x1 odc=0x8b sts=0xe0 armed=1
[TRG] pulses=71 suppressed=849 cyc=1600 rst=1 rstmode=0x40
[HLT] polls=149 faults=0x0 cfglost=0
[EFF] n=5 last=58500 min=58500 max=58645 late=0 stuck=0
[DWT] ok=1 cyc=945264566 cyc_per_ms=800000
[HB] up_ms=158069 frames=7499 inf=7499 hazard=939 canary_err=0 q=0 qovr=0
[I2C] init=0 gate=0 whoami=0x140e0 wr=0 wrseen=0x27 addr=0x5a ok=2741 err=1 tmo=0 recov=0 pclk1=200000000 sysclk=400000000
[NAK] nacks=1
[CLK] cpu=800000000 sysb=400000000 pclk1=200000000
[TOF] res=-42 step=1 id=0xa5 blk=0x0 ctl=0x1ff
[DRV] init=0 id=7 mode=0x1 lib=0x2 seq=0x1 odc=0x8b sts=0xe0 armed=1
[TRG] pulses=73 suppressed=868 cyc=1600 rst=1 rstmode=0x40
[HLT] polls=150 faults=0x0 cfglost=0
[EFF] n=5 last=58500 min=58500 max=58645 late=0 stuck=0
[DWT] ok=1 cyc=1786866434 cyc_per_ms=800001
[HB] up_ms=159121 frames=7549 inf=7549 hazard=960 canary_err=0 q=0 qovr=0
[I2C] init=0 gate=0 whoami=0x140e0 wr=0 wrseen=0x27 addr=0x5a ok=2743 err=1 tmo=0 recov=0 pclk1=200000000 sysclk=400000000
[NAK] nacks=1
[CLK] cpu=800000000 sysb=400000000 pclk1=200000000
[TOF] res=-42 step=1 id=0xa5 blk=0x0 ctl=0x1ff
[DRV] init=0 id=7 mode=0x1 lib=0x2 seq=0x1 odc=0x8b sts=0xe0 armed=1
[TRG] pulses=74 suppressed=886 cyc=1600 rst=1 rstmode=0x40
[HLT] polls=151 faults=0x0 cfglost=0
[EFF] n=5 last=58500 min=58500 max=58645 late=0 stuck=0
[DWT] ok=1 cyc=2628464590 cyc_per_ms=799998
[HB] up_ms=160173 frames=7599 inf=7599 hazard=960 canary_err=0 q=0 qovr=0
[I2C] init=0 gate=0 whoami=0x140e0 wr=0 wrseen=0x27 addr=0x5a ok=2747 err=1 tmo=0 recov=0 pclk1=200000000 sysclk=400000000
[NAK] nacks=1
[CLK] cpu=800000000 sysb=400000000 pclk1=200000000
[TOF] res=-42 step=1 id=0xa5 blk=0x0 ctl=0x1ff
[DRV] init=0 id=7 mode=0x1 lib=0x2 seq=0x1 odc=0x8b sts=0xe0 armed=1
[TRG] pulses=74 suppressed=886 cyc=1600 rst=1 rstmode=0x40
[HLT] polls=152 faults=0x0 cfglost=0
[EFF] n=5 last=58500 min=58500 max=58645 late=0 stuck=0
[DWT] ok=1 cyc=3470064574 cyc_per_ms=799999
[HB] up_ms=161225 frames=7649 inf=7649 hazard=960 canary_err=0 q=0 qovr=0
[I2C] init=0 gate=0 whoami=0x140e0 wr=0 wrseen=0x27 addr=0x5a ok=2749 err=1 tmo=0 recov=0 pclk1=200000000 sysclk=400000000
[NAK] nacks=1
[CLK] cpu=800000000 sysb=400000000 pclk1=200000000
[TOF] res=-42 step=1 id=0xa5 blk=0x0 ctl=0x1ff
[DRV] init=0 id=7 mode=0x1 lib=0x2 seq=0x1 odc=0x8b sts=0xe0 armed=1
[TRG] pulses=74 suppressed=886 cyc=1600 rst=1 rstmode=0x40
[HLT] polls=153 faults=0x0 cfglost=0
[EFF] n=5 last=58500 min=58500 max=58645 late=0 stuck=0
[DWT] ok=1 cyc=16719226 cyc_per_ms=800020
[HB] up_ms=162277 frames=7699 inf=7699 hazard=960 canary_err=0 q=0 qovr=0
[I2C] init=0 gate=0 whoami=0x140e0 wr=0 wrseen=0x27 addr=0x5a ok=2751 err=1 tmo=0 recov=0 pclk1=200000000 sysclk=400000000
[NAK] nacks=1
[CLK] cpu=800000000 sysb=400000000 pclk1=200000000
[TOF] res=-42 step=1 id=0xa5 blk=0x0 ctl=0x1ff
[DRV] init=0 id=7 mode=0x1 lib=0x2 seq=0x1 odc=0x8b sts=0xe0 armed=1
[TRG] pulses=74 suppressed=886 cyc=1600 rst=1 rstmode=0x40
[HLT] polls=154 faults=0x0 cfglost=0
[EFF] n=5 last=58500 min=58500 max=58645 late=0 stuck=0
[DWT] ok=1 cyc=858319214 cyc_per_ms=799999
[HB] up_ms=163329 frames=7750 inf=7750 hazard=960 canary_err=0 q=0 qovr=0
[I2C] init=0 gate=0 whoami=0x140e0 wr=0 wrseen=0x27 addr=0x5a ok=2753 err=1 tmo=0 recov=0 pclk1=200000000 sysclk=400000000
[NAK] nacks=1
[CLK] cpu=800000000 sysb=400000000 pclk1=200000000
[TOF] res=-42 step=1 id=0xa5 blk=0x0 ctl=0x1ff
[DRV] init=0 id=7 mode=0x1 lib=0x2 seq=0x1 odc=0x8b sts=0xe0 armed=1
[TRG] pulses=74 suppressed=886 cyc=1600 rst=1 rstmode=0x40
[HLT] polls=155 faults=0x0 cfglost=0
[EFF] n=5 last=58500 min=58500 max=58645 late=0 stuck=0
[DWT] ok=1 cyc=1699918534 cyc_per_ms=799999
[HB] up_ms=164381 frames=7800 inf=7800 hazard=960 canary_err=0 q=0 qovr=0
[I2C] init=0 gate=0 whoami=0x140e0 wr=0 wrseen=0x27 addr=0x5a ok=2755 err=1 tmo=0 recov=0 pclk1=200000000 sysclk=400000000
[NAK] nacks=1
[CLK] cpu=800000000 sysb=400000000 pclk1=200000000
[TOF] res=-42 step=1 id=0xa5 blk=0x0 ctl=0x1ff
[DRV] init=0 id=7 mode=0x1 lib=0x2 seq=0x1 odc=0x8b sts=0xe0 armed=1
[TRG] pulses=75 suppressed=886 cyc=1600 rst=1 rstmode=0x40
[HLT] polls=156 faults=0x0 cfglost=0
[EFF] n=5 last=58500 min=58500 max=58645 late=0 stuck=0
[DWT] ok=1 cyc=2541468706 cyc_per_ms=799952
[HB] up_ms=165433 frames=7850 inf=7850 hazard=1000 canary_err=0 q=0 qovr=0
[I2C] init=0 gate=0 whoami=0x140e0 wr=0 wrseen=0x27 addr=0x5a ok=2757 err=1 tmo=0 recov=0 pclk1=200000000 sysclk=400000000
[NAK] nacks=1
[CLK] cpu=800000000 sysb=400000000 pclk1=200000000
[TOF] res=-42 step=1 id=0xa5 blk=0x0 ctl=0x1ff
[DRV] init=0 id=7 mode=0x1 lib=0x2 seq=0x1 odc=0x8b sts=0xe0 armed=1
[TRG] pulses=77 suppressed=923 cyc=1600 rst=1 rstmode=0x40
[HLT] polls=157 faults=0x0 cfglost=0
[EFF] n=5 last=58500 min=58500 max=58645 late=0 stuck=0
[DWT] ok=1 cyc=3383134486 cyc_per_ms=800062
[HB] up_ms=166485 frames=7900 inf=7900 hazard=1000 canary_err=0 q=0 qovr=0
[I2C] init=0 gate=0 whoami=0x140e0 wr=0 wrseen=0x27 addr=0x5a ok=2759 err=1 tmo=0 recov=0 pclk1=200000000 sysclk=400000000
[NAK] nacks=1
[CLK] cpu=800000000 sysb=400000000 pclk1=200000000
[TOF] res=-42 step=1 id=0xa5 blk=0x0 ctl=0x1ff
[DRV] init=0 id=7 mode=0x1 lib=0x2 seq=0x1 odc=0x8b sts=0xe0 armed=1
[TRG] pulses=77 suppressed=923 cyc=1600 rst=1 rstmode=0x40
[HLT] polls=158 faults=0x0 cfglost=0
[EFF] n=5 last=58500 min=58500 max=58645 late=0 stuck=0
[DWT] ok=1 cyc=4224734414 cyc_per_ms=799999
[HB] up_ms=167537 frames=7950 inf=7950 hazard=1000 canary_err=0 q=0 qovr=0
[I2C] init=0 gate=0 whoami=0x140e0 wr=0 wrseen=0x27 addr=0x5a ok=2761 err=1 tmo=0 recov=0 pclk1=200000000 sysclk=400000000
[NAK] nacks=1
[CLK] cpu=800000000 sysb=400000000 pclk1=200000000
[TOF] res=-42 step=1 id=0xa5 blk=0x0 ctl=0x1ff
[DRV] init=0 id=7 mode=0x1 lib=0x2 seq=0x1 odc=0x8b sts=0xe0 armed=1
[TRG] pulses=77 suppressed=923 cyc=1600 rst=1 rstmode=0x40
[HLT] polls=159 faults=0x0 cfglost=0
[EFF] n=5 last=58500 min=58500 max=58645 late=0 stuck=0
[DWT] ok=1 cyc=771367142 cyc_per_ms=800000
[HB] up_ms=168589 frames=8000 inf=8000 hazard=1000 canary_err=0 q=0 qovr=0
[I2C] init=0 gate=0 whoami=0x140e0 wr=0 wrseen=0x27 addr=0x5a ok=2763 err=1 tmo=0 recov=0 pclk1=200000000 sysclk=400000000
[NAK] nacks=1
[CLK] cpu=800000000 sysb=400000000 pclk1=200000000
[TOF] res=-42 step=1 id=0xa5 blk=0x0 ctl=0x1ff
[DRV] init=0 id=7 mode=0x1 lib=0x2 seq=0x1 odc=0x8b sts=0xe0 armed=1
[TRG] pulses=77 suppressed=923 cyc=1600 rst=1 rstmode=0x40
[HLT] polls=160 faults=0x0 cfglost=0
[EFF] n=5 last=58500 min=58500 max=58645 late=0 stuck=0
[DWT] ok=1 cyc=1612967170 cyc_per_ms=800000
[HB] up_ms=169641 frames=8050 inf=8050 hazard=1000 canary_err=0 q=0 qovr=0
[I2C] init=0 gate=0 whoami=0x140e0 wr=0 wrseen=0x27 addr=0x5a ok=2765 err=1 tmo=0 recov=0 pclk1=200000000 sysclk=400000000
[NAK] nacks=1
[CLK] cpu=800000000 sysb=400000000 pclk1=200000000
[TOF] res=-42 step=1 id=0xa5 blk=0x0 ctl=0x1ff
[DRV] init=0 id=7 mode=0x1 lib=0x2 seq=0x1 odc=0x8b sts=0xe0 armed=1
[TRG] pulses=77 suppressed=923 cyc=1600 rst=1 rstmode=0x40
[HLT] polls=161 faults=0x0 cfglost=0
[EFF] n=5 last=58500 min=58500 max=58645 late=0 stuck=0
[DWT] ok=1 cyc=2454567198 cyc_per_ms=800000
[HB] up_ms=170693 frames=8100 inf=8100 hazard=1000 canary_err=0 q=0 qovr=0
[I2C] init=0 gate=0 whoami=0x140e0 wr=0 wrseen=0x27 addr=0x5a ok=2767 err=1 tmo=0 recov=0 pclk1=200000000 sysclk=400000000
[NAK] nacks=1
[CLK] cpu=800000000 sysb=400000000 pclk1=200000000
[TOF] res=-42 step=1 id=0xa5 blk=0x0 ctl=0x1ff
[DRV] init=0 id=7 mode=0x1 lib=0x2 seq=0x1 odc=0x8b sts=0xe0 armed=1
[TRG] pulses=77 suppressed=923 cyc=1600 rst=1 rstmode=0x40
[HLT] polls=162 faults=0x0 cfglost=0
[EFF] n=5 last=58500 min=58500 max=58645 late=0 stuck=0
[DWT] ok=1 cyc=3296167190 cyc_per_ms=799999
[HB] up_ms=171745 frames=8150 inf=8150 hazard=1030 canary_err=0 q=0 qovr=0
[I2C] init=0 gate=0 whoami=0x140e0 wr=0 wrseen=0x27 addr=0x5a ok=2769 err=1 tmo=0 recov=0 pclk1=200000000 sysclk=400000000
[NAK] nacks=1
[CLK] cpu=800000000 sysb=400000000 pclk1=200000000
[TOF] res=-42 step=1 id=0xa5 blk=0x0 ctl=0x1ff
[DRV] init=0 id=7 mode=0x1 lib=0x2 seq=0x1 odc=0x8b sts=0xe0 armed=1
[TRG] pulses=80 suppressed=952 cyc=1600 rst=1 rstmode=0x40
[HLT] polls=163 faults=0x0 cfglost=0
[EFF] n=5 last=58500 min=58500 max=58645 late=0 stuck=0
[DWT] ok=1 cyc=4137791810 cyc_per_ms=800023
[HB] up_ms=172797 frames=8200 inf=8200 hazard=1040 canary_err=0 q=0 qovr=0
[I2C] init=0 gate=0 whoami=0x140e0 wr=0 wrseen=0x27 addr=0x5a ok=2771 err=1 tmo=0 recov=0 pclk1=200000000 sysclk=400000000
[NAK] nacks=1
[CLK] cpu=800000000 sysb=400000000 pclk1=200000000
[TOF] res=-42 step=1 id=0xa5 blk=0x0 ctl=0x1ff
[DRV] init=0 id=7 mode=0x1 lib=0x2 seq=0x1 odc=0x8b sts=0xe0 armed=1
[TRG] pulses=80 suppressed=960 cyc=1600 rst=1 rstmode=0x40
[HLT] polls=164 faults=0x0 cfglost=0
[EFF] n=5 last=58500 min=58500 max=58645 late=0 stuck=0
[DWT] ok=1 cyc=684421810 cyc_per_ms=799997
[HB] up_ms=173849 frames=8250 inf=8250 hazard=1040 canary_err=0 q=0 qovr=0
[I2C] init=0 gate=0 whoami=0x140e0 wr=0 wrseen=0x27 addr=0x5a ok=2773 err=1 tmo=0 recov=0 pclk1=200000000 sysclk=400000000
[NAK] nacks=1
[CLK] cpu=800000000 sysb=400000000 pclk1=200000000
[TOF] res=-42 step=1 id=0xa5 blk=0x0 ctl=0x1ff
[DRV] init=0 id=7 mode=0x1 lib=0x2 seq=0x1 odc=0x8b sts=0xe0 armed=1
[TRG] pulses=80 suppressed=960 cyc=1600 rst=1 rstmode=0x40
[HLT] polls=165 faults=0x0 cfglost=0
[EFF] n=5 last=58500 min=58500 max=58645 late=0 stuck=0
[DWT] ok=1 cyc=1526021794 cyc_per_ms=799999
[HB] up_ms=174901 frames=8301 inf=8301 hazard=1040 canary_err=0 q=0 qovr=0
[I2C] init=0 gate=0 whoami=0x140e0 wr=0 wrseen=0x27 addr=0x5a ok=2775 err=1 tmo=0 recov=0 pclk1=200000000 sysclk=400000000
[NAK] nacks=1
[CLK] cpu=800000000 sysb=400000000 pclk1=200000000
[TOF] res=-42 step=1 id=0xa5 blk=0x0 ctl=0x1ff
[DRV] init=0 id=7 mode=0x1 lib=0x2 seq=0x1 odc=0x8b sts=0xe0 armed=1
[TRG] pulses=80 suppressed=960 cyc=1600 rst=1 rstmode=0x40
[HLT] polls=166 faults=0x0 cfglost=0
[EFF] n=5 last=58500 min=58500 max=58645 late=0 stuck=0
[DWT] ok=1 cyc=2367599870 cyc_per_ms=799979
[HB] up_ms=175953 frames=8351 inf=8351 hazard=1040 canary_err=0 q=0 qovr=0
[I2C] init=0 gate=0 whoami=0x140e0 wr=0 wrseen=0x27 addr=0x5a ok=2777 err=1 tmo=0 recov=0 pclk1=200000000 sysclk=400000000
[NAK] nacks=1
[CLK] cpu=800000000 sysb=400000000 pclk1=200000000
[TOF] res=-42 step=1 id=0xa5 blk=0x0 ctl=0x1ff
[DRV] init=0 id=7 mode=0x1 lib=0x2 seq=0x1 odc=0x8b sts=0xe0 armed=1
[TRG] pulses=80 suppressed=960 cyc=1600 rst=1 rstmode=0x40
[HLT] polls=167 faults=0x0 cfglost=0
[EFF] n=5 last=58500 min=58500 max=58645 late=0 stuck=0
[DWT] ok=1 cyc=3209199894 cyc_per_ms=800000
[HB] up_ms=177005 frames=8401 inf=8401 hazard=1040 canary_err=0 q=0 qovr=0
[I2C] init=0 gate=0 whoami=0x140e0 wr=0 wrseen=0x27 addr=0x5a ok=2779 err=1 tmo=0 recov=0 pclk1=200000000 sysclk=400000000
[NAK] nacks=1
[CLK] cpu=800000000 sysb=400000000 pclk1=200000000
[TOF] res=-42 step=1 id=0xa5 blk=0x0 ctl=0x1ff
[DRV] init=0 id=7 mode=0x1 lib=0x2 seq=0x1 odc=0x8b sts=0xe0 armed=1
[TRG] pulses=80 suppressed=960 cyc=1600 rst=1 rstmode=0x40
[HLT] polls=168 faults=0x0 cfglost=0
[EFF] n=5 last=58500 min=58500 max=58645 late=0 stuck=0
[DWT] ok=1 cyc=4050799822 cyc_per_ms=799999
[HB] up_ms=178057 frames=8451 inf=8451 hazard=1051 canary_err=0 q=0 qovr=0
[I2C] init=0 gate=0 whoami=0x140e0 wr=0 wrseen=0x27 addr=0x5a ok=2781 err=1 tmo=0 recov=0 pclk1=200000000 sysclk=400000000
[NAK] nacks=1
[CLK] cpu=800000000 sysb=400000000 pclk1=200000000
[TOF] res=-42 step=1 id=0xa5 blk=0x0 ctl=0x1ff
[DRV] init=0 id=7 mode=0x1 lib=0x2 seq=0x1 odc=0x8b sts=0xe0 armed=1
[TRG] pulses=81 suppressed=971 cyc=1600 rst=1 rstmode=0x40
[HLT] polls=169 faults=0x0 cfglost=0
[EFF] n=5 last=58500 min=58500 max=58645 late=0 stuck=0
[DWT] ok=1 cyc=597434394 cyc_per_ms=800001
[HB] up_ms=179109 frames=8501 inf=8501 hazard=1080 canary_err=0 q=0 qovr=0
[I2C] init=0 gate=0 whoami=0x140e0 wr=0 wrseen=0x27 addr=0x5a ok=2783 err=1 tmo=0 recov=0 pclk1=200000000 sysclk=400000000
[NAK] nacks=1
[CLK] cpu=800000000 sysb=400000000 pclk1=200000000
[TOF] res=-42 step=1 id=0xa5 blk=0x0 ctl=0x1ff
[DRV] init=0 id=7 mode=0x1 lib=0x2 seq=0x1 odc=0x8b sts=0xe0 armed=1
[TRG] pulses=83 suppressed=997 cyc=1600 rst=1 rstmode=0x40
[HLT] polls=170 faults=0x0 cfglost=0
[EFF] n=5 last=58500 min=58500 max=58645 late=0 stuck=0
[DWT] ok=1 cyc=1439032558 cyc_per_ms=799998
[HB] up_ms=180161 frames=8551 inf=8551 hazard=1080 canary_err=0 q=0 qovr=0
[I2C] init=0 gate=0 whoami=0x140e0 wr=0 wrseen=0x27 addr=0x5a ok=2785 err=1 tmo=0 recov=0 pclk1=200000000 sysclk=400000000
[NAK] nacks=1
[CLK] cpu=800000000 sysb=400000000 pclk1=200000000
[TOF] res=-42 step=1 id=0xa5 blk=0x0 ctl=0x1ff
[DRV] init=0 id=7 mode=0x1 lib=0x2 seq=0x1 odc=0x8b sts=0xe0 armed=1
[TRG] pulses=83 suppressed=997 cyc=1600 rst=1 rstmode=0x40
[HLT] polls=171 faults=0x0 cfglost=0
[EFF] n=5 last=58500 min=58500 max=58645 late=0 stuck=0
[DWT] ok=1 cyc=2280632582 cyc_per_ms=800000
[HB] up_ms=181213 frames=8601 inf=8601 hazard=1080 canary_err=0 q=0 qovr=0
[I2C] init=0 gate=0 whoami=0x140e0 wr=0 wrseen=0x27 addr=0x5a ok=2787 err=1 tmo=0 recov=0 pclk1=200000000 sysclk=400000000
[NAK] nacks=1
[CLK] cpu=800000000 sysb=400000000 pclk1=200000000
[TOF] res=-42 step=1 id=0xa5 blk=0x0 ctl=0x1ff
[DRV] init=0 id=7 mode=0x1 lib=0x2 seq=0x1 odc=0x8b sts=0xe0 armed=1
[TRG] pulses=83 suppressed=997 cyc=1600 rst=1 rstmode=0x40
[HLT] polls=172 faults=0x0 cfglost=0
[EFF] n=5 last=58500 min=58500 max=58645 late=0 stuck=0
[DWT] ok=1 cyc=3122232614 cyc_per_ms=800000
[HB] up_ms=182265 frames=8651 inf=8651 hazard=1080 canary_err=0 q=0 qovr=0
[I2C] init=0 gate=0 whoami=0x140e0 wr=0 wrseen=0x27 addr=0x5a ok=2789 err=1 tmo=0 recov=0 pclk1=200000000 sysclk=400000000
[NAK] nacks=1
[CLK] cpu=800000000 sysb=400000000 pclk1=200000000
[TOF] res=-42 step=1 id=0xa5 blk=0x0 ctl=0x1ff
[DRV] init=0 id=7 mode=0x1 lib=0x2 seq=0x1 odc=0x8b sts=0xe0 armed=1
[TRG] pulses=83 suppressed=997 cyc=1600 rst=1 rstmode=0x40
[HLT] polls=173 faults=0x0 cfglost=0
