1788578412.326711 [HB] up_ms=1389 frames=45 inf=45 hazard=0 canary_err=0 q=0 qovr=0
1788578412.337575 [I2C] init=0 gate=0 whoami=0x201e0 wr=0 wrseen=0x27 addr=0x5a ok=434 err=0 tmo=0 recov=0 pclk1=200000000 sysclk=400000000
1788578412.338823 [NAK] nacks=0
1788578412.343435 [CLK] cpu=800000000 sysb=400000000 pclk1=200000000
1788578412.348078 [TOF] res=0 step=0 id=0xeacc blk=0xeacc10 ctl=0x0
1788578412.353937 [RNG] init=0 step=99 id=0xeacc boot=1 calls=93 xerr=0 dm=1 tb=15
1788578412.360810 [RNG] osc=41 imp=881 imprb=881 mstart=0x40 cfg=91 cfgfail=0x0 vhv=0 vpolls=0
1788578412.366816 [PRT] calls=301 xerr=0 ler=1 lidx=0x0 perr=0 maxcnt=17 addr8=0x52
1788578412.370936 [RTY] wr=0 wmax=0 wref=0  rd=0 rmax=0 rref=0
1788578412.378559 [RNG] frames=47 last=59 min=42 max=83 nrdy=0 dxfer=0 dstat=1 lst=2 nrdyerr=0 dclr=0
1788578412.384687 [DRV] init=0 id=7 mode=0x1 lib=0x2 seq=0x1 odc=0x8b sts=0xe0 armed=1
1788578412.389694 [TRG] pulses=0 suppressed=0 cyc=1600 rst=1 rstmode=0x40
1788578412.393071 [HLT] polls=0 faults=0x0 cfglost=0
1788578412.403228 [IMU] init=0 addr=0x68 who=0x68 rst=1 pmrb0=0x40 pmrb=0x1 sr=19 cfg=4 gcfg=0x0 acfg=0x8 icfg=0x30 ien=0x1 armed=1
1788578412.408060 [ACC] reads=49 stale=49 rderr=0 ax=58 ay=-64 az=1122
1788578412.410733 [PWR] pm=0x1 drift=0 rderr=0
1788578412.414186 [DWT] ok=1 cyc=1030555219 cyc_per_ms=0
1788578413.427316 [HB] up_ms=2482 frames=95 inf=95 hazard=0 canary_err=0 q=0 qovr=0
1788578413.438350 [I2C] init=0 gate=0 whoami=0x201e0 wr=0 wrseen=0x27 addr=0x5a ok=730 err=0 tmo=0 recov=0 pclk1=200000000 sysclk=400000000
1788578413.439687 [NAK] nacks=0
1788578413.444308 [CLK] cpu=800000000 sysb=400000000 pclk1=200000000
1788578413.448814 [TOF] res=0 step=0 id=0xeacc blk=0xeacc10 ctl=0x0
1788578413.454688 [RNG] init=0 step=99 id=0xeacc boot=1 calls=93 xerr=0 dm=1 tb=15
1788578413.461692 [RNG] osc=41 imp=881 imprb=881 mstart=0x40 cfg=91 cfgfail=0x0 vhv=0 vpolls=0
1788578413.467560 [PRT] calls=501 xerr=0 ler=1 lidx=0x0 perr=0 maxcnt=17 addr8=0x52
1788578413.471683 [RTY] wr=0 wmax=0 wref=0  rd=0 rmax=0 rref=0
1788578413.479180 [RNG] frames=96 last=55 min=42 max=83 nrdy=0 dxfer=0 dstat=1 lst=2 nrdyerr=0 dclr=0
1788578413.485589 [DRV] init=0 id=7 mode=0x1 lib=0x2 seq=0x1 odc=0x8b sts=0xe0 armed=1
1788578413.490559 [TRG] pulses=0 suppressed=0 cyc=1600 rst=1 rstmode=0x40
1788578413.493680 [HLT] polls=1 faults=0x0 cfglost=0
1788578413.503934 [IMU] init=0 addr=0x68 who=0x68 rst=1 pmrb0=0x40 pmrb=0x1 sr=19 cfg=4 gcfg=0x0 acfg=0x8 icfg=0x30 ien=0x1 armed=1
1788578413.508807 [ACC] reads=99 stale=99 rderr=0 ax=58 ay=-63 az=1120
1788578413.511427 [PWR] pm=0x1 drift=0 rderr=0
1788578413.515440 [DWT] ok=1 cyc=1904955203 cyc_per_ms=799999
1788578414.529187 [HB] up_ms=3576 frames=139 inf=139 hazard=19 canary_err=0 q=0 qovr=0
1788578414.540299 [I2C] init=0 gate=0 whoami=0x201e0 wr=0 wrseen=0x27 addr=0x5a ok=2010 err=0 tmo=0 recov=0 pclk1=200000000 sysclk=400000000
1788578414.541524 [NAK] nacks=0
1788578414.546161 [CLK] cpu=800000000 sysb=400000000 pclk1=200000000
1788578414.550721 [TOF] res=0 step=0 id=0xeacc blk=0xeacc10 ctl=0x0
1788578414.556755 [RNG] init=0 step=99 id=0xeacc boot=1 calls=93 xerr=0 dm=1 tb=15
1788578414.563569 [RNG] osc=41 imp=881 imprb=881 mstart=0x40 cfg=91 cfgfail=0x0 vhv=0 vpolls=0
1788578414.569552 [PRT] calls=677 xerr=0 ler=1 lidx=0x0 perr=0 maxcnt=17 addr8=0x52
1788578414.573569 [RTY] wr=0 wmax=0 wref=0  rd=0 rmax=0 rref=0
1788578414.581305 [RNG] frames=140 last=50 min=42 max=83 nrdy=0 dxfer=0 dstat=1 lst=2 nrdyerr=0 dclr=0
1788578414.587564 [DRV] init=0 id=7 mode=0x1 lib=0x2 seq=0x1 odc=0x8b sts=0xe0 armed=1
1788578414.592672 [TRG] pulses=2 suppressed=20 cyc=1600 rst=1 rstmode=0x40
1788578414.595819 [HLT] polls=2 faults=0x0 cfglost=0
1788578414.601765 [EFF] n=2 last=58594 min=58594 max=58595 late=0 stuck=0 rderr=0
1788578414.611943 [IMU] init=0 addr=0x68 who=0x68 rst=1 pmrb0=0x40 pmrb=0x1 sr=19 cfg=4 gcfg=0x0 acfg=0x8 icfg=0x30 ien=0x1 armed=1
1788578414.616788 [ACC] reads=143 stale=143 rderr=0 ax=57 ay=-63 az=1121
1788578414.619415 [PWR] pm=0x1 drift=0 rderr=0
1788578414.623531 [DWT] ok=1 cyc=2785279371 cyc_per_ms=804683
1788578415.636452 [HB] up_ms=4676 frames=184 inf=184 hazard=41 canary_err=0 q=0 qovr=0
1788578415.647431 [I2C] init=0 gate=0 whoami=0x201e0 wr=0 wrseen=0x27 addr=0x5a ok=3293 err=0 tmo=0 recov=0 pclk1=200000000 sysclk=400000000
1788578415.648914 [NAK] nacks=0
1788578415.653455 [CLK] cpu=800000000 sysb=400000000 pclk1=200000000
1788578415.657915 [TOF] res=0 step=0 id=0xeacc blk=0xeacc10 ctl=0x0
1788578415.663791 [RNG] init=0 step=99 id=0xeacc boot=1 calls=93 xerr=0 dm=1 tb=15
1788578415.670877 [RNG] osc=41 imp=881 imprb=881 mstart=0x40 cfg=91 cfgfail=0x0 vhv=0 vpolls=0
1788578415.676724 [PRT] calls=855 xerr=0 ler=1 lidx=0x0 perr=0 maxcnt=17 addr8=0x52
1788578415.680890 [RTY] wr=0 wmax=0 wref=0  rd=0 rmax=0 rref=0
1788578415.688421 [RNG] frames=185 last=55 min=42 max=83 nrdy=0 dxfer=0 dstat=1 lst=2 nrdyerr=0 dclr=0
1788578415.694660 [DRV] init=0 id=7 mode=0x1 lib=0x2 seq=0x1 odc=0x8b sts=0xe0 armed=1
1788578415.699860 [TRG] pulses=4 suppressed=37 cyc=1600 rst=1 rstmode=0x40
1788578415.703031 [HLT] polls=3 faults=0x0 cfglost=0
1788578415.708776 [EFF] n=4 last=58595 min=58594 max=58654 late=0 stuck=0 rderr=0
1788578415.719047 [IMU] init=0 addr=0x68 who=0x68 rst=1 pmrb0=0x40 pmrb=0x1 sr=19 cfg=4 gcfg=0x0 acfg=0x8 icfg=0x30 ien=0x1 armed=1
1788578415.724030 [ACC] reads=188 stale=188 rderr=0 ax=59 ay=-62 az=1121
1788578415.726664 [PWR] pm=0x1 drift=0 rderr=0
1788578415.730685 [DWT] ok=1 cyc=3665275743 cyc_per_ms=799996
1788578416.743442 [HB] up_ms=5776 frames=234 inf=234 hazard=41 canary_err=0 q=0 qovr=0
1788578416.754306 [I2C] init=0 gate=0 whoami=0x201e0 wr=0 wrseen=0x27 addr=0x5a ok=3595 err=0 tmo=0 recov=0 pclk1=200000000 sysclk=400000000
1788578416.755682 [NAK] nacks=0
1788578416.760415 [CLK] cpu=800000000 sysb=400000000 pclk1=200000000
1788578416.764934 [TOF] res=0 step=0 id=0xeacc blk=0xeacc10 ctl=0x0
1788578416.770674 [RNG] init=0 step=99 id=0xeacc boot=1 calls=93 xerr=0 dm=1 tb=15
1788578416.777550 [RNG] osc=41 imp=881 imprb=881 mstart=0x40 cfg=91 cfgfail=0x0 vhv=0 vpolls=0
1788578416.783800 [PRT] calls=1053 xerr=0 ler=1 lidx=0x0 perr=0 maxcnt=17 addr8=0x52
1788578416.787790 [RTY] wr=0 wmax=0 wref=0  rd=0 rmax=0 rref=0
1788578416.795425 [RNG] frames=235 last=62 min=42 max=83 nrdy=0 dxfer=0 dstat=1 lst=2 nrdyerr=0 dclr=0
1788578416.801546 [DRV] init=0 id=7 mode=0x1 lib=0x2 seq=0x1 odc=0x8b sts=0xe0 armed=1
1788578416.806936 [TRG] pulses=4 suppressed=37 cyc=1600 rst=1 rstmode=0x40
1788578416.810041 [HLT] polls=4 faults=0x0 cfglost=0
1788578416.815812 [EFF] n=4 last=58595 min=58594 max=58654 late=0 stuck=0 rderr=0
1788578416.825933 [IMU] init=0 addr=0x68 who=0x68 rst=1 pmrb0=0x40 pmrb=0x1 sr=19 cfg=4 gcfg=0x0 acfg=0x8 icfg=0x30 ien=0x1 armed=1
1788578416.831118 [ACC] reads=237 stale=237 rderr=0 ax=59 ay=-65 az=1123
1788578416.833668 [PWR] pm=0x1 drift=0 rderr=0
1788578416.837548 [DWT] ok=1 cyc=250378263 cyc_per_ms=800063
1788578417.851438 [HB] up_ms=6876 frames=283 inf=283 hazard=41 canary_err=0 q=0 qovr=0
1788578417.862296 [I2C] init=0 gate=0 whoami=0x201e0 wr=0 wrseen=0x27 addr=0x5a ok=3897 err=0 tmo=0 recov=0 pclk1=200000000 sysclk=400000000
1788578417.863672 [NAK] nacks=0
1788578417.868301 [CLK] cpu=800000000 sysb=400000000 pclk1=200000000
1788578417.872948 [TOF] res=0 step=0 id=0xeacc blk=0xeacc10 ctl=0x0
1788578417.878800 [RNG] init=0 step=99 id=0xeacc boot=1 calls=93 xerr=0 dm=1 tb=15
1788578417.885678 [RNG] osc=41 imp=881 imprb=881 mstart=0x40 cfg=91 cfgfail=0x0 vhv=0 vpolls=0
1788578417.891665 [PRT] calls=1253 xerr=0 ler=1 lidx=0x0 perr=0 maxcnt=17 addr8=0x52
1788578417.895916 [RTY] wr=0 wmax=0 wref=0  rd=0 rmax=0 rref=0
1788578417.903555 [RNG] frames=285 last=51 min=42 max=83 nrdy=0 dxfer=0 dstat=1 lst=2 nrdyerr=0 dclr=0
1788578417.909673 [DRV] init=0 id=7 mode=0x1 lib=0x2 seq=0x1 odc=0x8b sts=0xe0 armed=1
1788578417.914847 [TRG] pulses=4 suppressed=37 cyc=1600 rst=1 rstmode=0x40
1788578417.918205 [HLT] polls=5 faults=0x0 cfglost=0
1788578417.923923 [EFF] n=4 last=58595 min=58594 max=58654 late=0 stuck=0 rderr=0
1788578417.934048 [IMU] init=0 addr=0x68 who=0x68 rst=1 pmrb0=0x40 pmrb=0x1 sr=19 cfg=4 gcfg=0x0 acfg=0x8 icfg=0x30 ien=0x1 armed=1
1788578417.939053 [ACC] reads=287 stale=287 rderr=0 ax=58 ay=-61 az=1121
1788578417.941793 [PWR] pm=0x1 drift=0 rderr=0
1788578417.945803 [DWT] ok=1 cyc=1130500639 cyc_per_ms=800111
1788578418.961437 [HB] up_ms=7977 frames=333 inf=333 hazard=41 canary_err=0 q=0 qovr=0
1788578418.971419 [I2C] init=0 gate=0 whoami=0x201e0 wr=0 wrseen=0x27 addr=0x5a ok=4193 err=0 tmo=0 recov=0 pclk1=200000000 sysclk=400000000
1788578418.984824 [NAK] nacks=0
1788578418.984962 [CLK] cpu=800000000 sysb=400000000 pclk1=200000000
1788578418.984996 [TOF] res=0 step=0 id=0xeacc blk=0xeacc10 ctl=0x0
1788578418.987765 [RNG] init=0 step=99 id=0xeacc boot=1 calls=93 xerr=0 dm=1 tb=15
1788578418.994763 [RNG] osc=41 imp=881 imprb=881 mstart=0x40 cfg=91 cfgfail=0x0 vhv=0 vpolls=0
1788578419.000777 [PRT] calls=1453 xerr=0 ler=1 lidx=0x0 perr=0 maxcnt=17 addr8=0x52
1788578419.004770 [RTY] wr=0 wmax=0 wref=0  rd=0 rmax=0 rref=0
1788578419.012512 [RNG] frames=334 last=65 min=39 max=83 nrdy=0 dxfer=0 dstat=1 lst=2 nrdyerr=0 dclr=0
1788578419.018774 [DRV] init=0 id=7 mode=0x1 lib=0x2 seq=0x1 odc=0x8b sts=0xe0 armed=1
1788578419.023885 [TRG] pulses=4 suppressed=37 cyc=1600 rst=1 rstmode=0x40
1788578419.027006 [HLT] polls=6 faults=0x0 cfglost=0
1788578419.032948 [EFF] n=4 last=58595 min=58594 max=58654 late=0 stuck=0 rderr=0
1788578419.043158 [IMU] init=0 addr=0x68 who=0x68 rst=1 pmrb0=0x40 pmrb=0x1 sr=19 cfg=4 gcfg=0x0 acfg=0x8 icfg=0x30 ien=0x1 armed=1
1788578419.048048 [ACC] reads=337 stale=337 rderr=0 ax=58 ay=-60 az=1122
1788578419.050655 [PWR] pm=0x1 drift=0 rderr=0
1788578419.054788 [DWT] ok=1 cyc=2011178399 cyc_per_ms=799888
1788578420.068805 [HB] up_ms=9078 frames=383 inf=383 hazard=41 canary_err=0 q=0 qovr=0
1788578420.079905 [I2C] init=0 gate=0 whoami=0x201e0 wr=0 wrseen=0x27 addr=0x5a ok=4495 err=0 tmo=0 recov=0 pclk1=200000000 sysclk=400000000
1788578420.081289 [NAK] nacks=0
1788578420.085824 [CLK] cpu=800000000 sysb=400000000 pclk1=200000000
1788578420.090277 [TOF] res=0 step=0 id=0xeacc blk=0xeacc10 ctl=0x0
1788578420.096155 [RNG] init=0 step=99 id=0xeacc boot=1 calls=93 xerr=0 dm=1 tb=15
1788578420.103170 [RNG] osc=41 imp=881 imprb=881 mstart=0x40 cfg=91 cfgfail=0x0 vhv=0 vpolls=0
1788578420.109288 [PRT] calls=1653 xerr=0 ler=1 lidx=0x0 perr=0 maxcnt=17 addr8=0x52
1788578420.113293 [RTY] wr=0 wmax=0 wref=0  rd=0 rmax=0 rref=0
1788578420.121045 [RNG] frames=384 last=59 min=39 max=83 nrdy=0 dxfer=0 dstat=1 lst=2 nrdyerr=0 dclr=0
1788578420.127294 [DRV] init=0 id=7 mode=0x1 lib=0x2 seq=0x1 odc=0x8b sts=0xe0 armed=1
1788578420.132436 [TRG] pulses=4 suppressed=37 cyc=1600 rst=1 rstmode=0x40
1788578420.135542 [HLT] polls=7 faults=0x0 cfglost=0
1788578420.141286 [EFF] n=4 last=58595 min=58594 max=58654 late=0 stuck=0 rderr=0
1788578420.151669 [IMU] init=0 addr=0x68 who=0x68 rst=1 pmrb0=0x40 pmrb=0x1 sr=19 cfg=4 gcfg=0x0 acfg=0x8 icfg=0x30 ien=0x1 armed=1
1788578420.156528 [ACC] reads=387 stale=387 rderr=0 ax=54 ay=-63 az=1122
1788578420.159158 [PWR] pm=0x1 drift=0 rderr=0
1788578420.163205 [DWT] ok=1 cyc=2891978411 cyc_per_ms=800000
1788578421.176792 [HB] up_ms=10178 frames=433 inf=433 hazard=41 canary_err=0 q=0 qovr=0
1788578421.187919 [I2C] init=0 gate=0 whoami=0x201e0 wr=0 wrseen=0x27 addr=0x5a ok=4797 err=0 tmo=0 recov=0 pclk1=200000000 sysclk=400000000
1788578421.189280 [NAK] nacks=0
1788578421.193780 [CLK] cpu=800000000 sysb=400000000 pclk1=200000000
1788578421.198294 [TOF] res=0 step=0 id=0xeacc blk=0xeacc10 ctl=0x0
1788578421.204156 [RNG] init=0 step=99 id=0xeacc boot=1 calls=93 xerr=0 dm=1 tb=15
1788578421.211157 [RNG] osc=41 imp=881 imprb=881 mstart=0x40 cfg=91 cfgfail=0x0 vhv=0 vpolls=0
1788578421.217158 [PRT] calls=1853 xerr=0 ler=1 lidx=0x0 perr=0 maxcnt=17 addr8=0x52
1788578421.221278 [RTY] wr=0 wmax=0 wref=0  rd=0 rmax=0 rref=0
1788578421.228906 [RNG] frames=434 last=49 min=39 max=83 nrdy=0 dxfer=0 dstat=1 lst=2 nrdyerr=0 dclr=0
1788578421.235160 [DRV] init=0 id=7 mode=0x1 lib=0x2 seq=0x1 odc=0x8b sts=0xe0 armed=1
1788578421.240284 [TRG] pulses=4 suppressed=37 cyc=1600 rst=1 rstmode=0x40
1788578421.243648 [HLT] polls=8 faults=0x0 cfglost=0
1788578421.249276 [EFF] n=4 last=58595 min=58594 max=58654 late=0 stuck=0 rderr=0
1788578421.259535 [IMU] init=0 addr=0x68 who=0x68 rst=1 pmrb0=0x40 pmrb=0x1 sr=19 cfg=4 gcfg=0x0 acfg=0x8 icfg=0x30 ien=0x1 armed=1
1788578421.264532 [ACC] reads=437 stale=437 rderr=0 ax=56 ay=-61 az=1120
1788578421.267155 [PWR] pm=0x1 drift=0 rderr=0
1788578421.271151 [DWT] ok=1 cyc=3772048985 cyc_per_ms=800064
1788578422.284910 [HB] up_ms=11278 frames=480 inf=480 hazard=81 canary_err=0 q=0 qovr=0
1788578422.296030 [I2C] init=0 gate=0 whoami=0x201e0 wr=0 wrseen=0x27 addr=0x5a ok=5588 err=0 tmo=0 recov=0 pclk1=200000000 sysclk=400000000
1788578422.297448 [NAK] nacks=0
1788578422.301913 [CLK] cpu=800000000 sysb=400000000 pclk1=200000000
1788578422.306420 [TOF] res=0 step=0 id=0xeacc blk=0xeacc10 ctl=0x0
1788578422.312277 [RNG] init=0 step=99 id=0xeacc boot=1 calls=93 xerr=0 dm=1 tb=15
1788578422.319441 [RNG] osc=41 imp=881 imprb=881 mstart=0x40 cfg=91 cfgfail=0x0 vhv=0 vpolls=0
1788578422.325429 [PRT] calls=2041 xerr=0 ler=1 lidx=0x0 perr=0 maxcnt=17 addr8=0x52
1788578422.329418 [RTY] wr=0 wmax=0 wref=0  rd=0 rmax=0 rref=0
1788578422.337162 [RNG] frames=481 last=48 min=39 max=83 nrdy=0 dxfer=0 dstat=1 lst=2 nrdyerr=0 dclr=0
1788578422.343424 [DRV] init=0 id=7 mode=0x1 lib=0x2 seq=0x1 odc=0x8b sts=0xe0 armed=1
1788578422.348533 [TRG] pulses=8 suppressed=74 cyc=1600 rst=1 rstmode=0x40
1788578422.351662 [HLT] polls=9 faults=0x0 cfglost=0
1788578422.357430 [EFF] n=5 last=58595 min=58594 max=58654 late=0 stuck=0 rderr=0
1788578422.367805 [IMU] init=0 addr=0x68 who=0x68 rst=1 pmrb0=0x40 pmrb=0x1 sr=19 cfg=4 gcfg=0x0 acfg=0x8 icfg=0x30 ien=0x1 armed=1
1788578422.372788 [ACC] reads=484 stale=484 rderr=0 ax=57 ay=-59 az=1120
1788578422.375423 [PWR] pm=0x1 drift=0 rderr=0
1788578422.379282 [DWT] ok=1 cyc=357082833 cyc_per_ms=800001
1788578423.393539 [HB] up_ms=12378 frames=530 inf=530 hazard=82 canary_err=0 q=0 qovr=0
1788578423.404648 [I2C] init=0 gate=0 whoami=0x201e0 wr=0 wrseen=0x27 addr=0x5a ok=5890 err=0 tmo=0 recov=0 pclk1=200000000 sysclk=400000000
1788578423.406018 [NAK] nacks=0
1788578423.410525 [CLK] cpu=800000000 sysb=400000000 pclk1=200000000
1788578423.415040 [TOF] res=0 step=0 id=0xeacc blk=0xeacc10 ctl=0x0
1788578423.420905 [RNG] init=0 step=99 id=0xeacc boot=1 calls=93 xerr=0 dm=1 tb=15
1788578423.428027 [RNG] osc=41 imp=881 imprb=881 mstart=0x40 cfg=91 cfgfail=0x0 vhv=0 vpolls=0
1788578423.434030 [PRT] calls=2241 xerr=0 ler=1 lidx=0x0 perr=0 maxcnt=17 addr8=0x52
1788578423.438017 [RTY] wr=0 wmax=0 wref=0  rd=0 rmax=0 rref=0
1788578423.445649 [RNG] frames=531 last=53 min=39 max=83 nrdy=0 dxfer=0 dstat=1 lst=2 nrdyerr=0 dclr=0
1788578423.452036 [DRV] init=0 id=7 mode=0x1 lib=0x2 seq=0x1 odc=0x8b sts=0xe0 armed=1
1788578423.457151 [TRG] pulses=8 suppressed=74 cyc=1600 rst=1 rstmode=0x40
1788578423.460414 [HLT] polls=10 faults=0x0 cfglost=0
1788578423.466144 [EFF] n=5 last=58595 min=58594 max=58654 late=0 stuck=0 rderr=0
1788578423.476524 [IMU] init=0 addr=0x68 who=0x68 rst=1 pmrb0=0x40 pmrb=0x1 sr=19 cfg=4 gcfg=0x0 acfg=0x8 icfg=0x30 ien=0x1 armed=1
1788578423.481424 [ACC] reads=534 stale=534 rderr=0 ax=56 ay=-62 az=1119
1788578423.484150 [PWR] pm=0x1 drift=0 rderr=0
1788578423.488022 [DWT] ok=1 cyc=1237151741 cyc_per_ms=800062
1788578424.503164 [HB] up_ms=13479 frames=580 inf=580 hazard=82 canary_err=0 q=0 qovr=0
1788578424.514144 [I2C] init=0 gate=0 whoami=0x201e0 wr=0 wrseen=0x27 addr=0x5a ok=6192 err=0 tmo=0 recov=0 pclk1=200000000 sysclk=400000000
1788578424.515558 [NAK] nacks=0
1788578424.520150 [CLK] cpu=800000000 sysb=400000000 pclk1=200000000
1788578424.524648 [TOF] res=0 step=0 id=0xeacc blk=0xeacc10 ctl=0x0
1788578424.530517 [RNG] init=0 step=99 id=0xeacc boot=1 calls=93 xerr=0 dm=1 tb=15
1788578424.537454 [RNG] osc=41 imp=881 imprb=881 mstart=0x40 cfg=91 cfgfail=0x0 vhv=0 vpolls=0
1788578424.543659 [PRT] calls=2437 xerr=0 ler=1 lidx=0x0 perr=0 maxcnt=17 addr8=0x52
1788578424.547647 [RTY] wr=0 wmax=0 wref=0  rd=0 rmax=0 rref=0
1788578424.555273 [RNG] frames=581 last=53 min=39 max=83 nrdy=0 dxfer=0 dstat=1 lst=2 nrdyerr=0 dclr=0
1788578424.561514 [DRV] init=0 id=7 mode=0x1 lib=0x2 seq=0x1 odc=0x8b sts=0xe0 armed=1
1788578424.566774 [TRG] pulses=8 suppressed=74 cyc=1600 rst=1 rstmode=0x40
1788578424.570024 [HLT] polls=11 faults=0x0 cfglost=0
1788578424.575766 [EFF] n=5 last=58595 min=58594 max=58654 late=0 stuck=0 rderr=0
1788578424.586149 [IMU] init=0 addr=0x68 who=0x68 rst=1 pmrb0=0x40 pmrb=0x1 sr=19 cfg=4 gcfg=0x0 acfg=0x8 icfg=0x30 ien=0x1 armed=1
1788578424.591015 [ACC] reads=584 stale=584 rderr=0 ax=59 ay=-62 az=1123
1788578424.593652 [PWR] pm=0x1 drift=0 rderr=0
1788578424.597640 [DWT] ok=1 cyc=2117952321 cyc_per_ms=800000
1788578425.611903 [HB] up_ms=14580 frames=630 inf=630 hazard=82 canary_err=0 q=0 qovr=0
1788578425.622896 [I2C] init=0 gate=0 whoami=0x201e0 wr=0 wrseen=0x27 addr=0x5a ok=6494 err=0 tmo=0 recov=0 pclk1=200000000 sysclk=400000000
1788578425.624297 [NAK] nacks=0
1788578425.629030 [CLK] cpu=800000000 sysb=400000000 pclk1=200000000
1788578425.633528 [TOF] res=0 step=0 id=0xeacc blk=0xeacc10 ctl=0x0
1788578425.639270 [RNG] init=0 step=99 id=0xeacc boot=1 calls=93 xerr=0 dm=1 tb=15
1788578425.646143 [RNG] osc=41 imp=881 imprb=881 mstart=0x40 cfg=91 cfgfail=0x0 vhv=0 vpolls=0
1788578425.652477 [PRT] calls=2637 xerr=0 ler=1 lidx=0x0 perr=0 maxcnt=17 addr8=0x52
1788578425.656411 [RTY] wr=0 wmax=0 wref=0  rd=0 rmax=0 rref=0
1788578425.664027 [RNG] frames=631 last=51 min=39 max=83 nrdy=0 dxfer=0 dstat=1 lst=2 nrdyerr=0 dclr=0
1788578425.670266 [DRV] init=0 id=7 mode=0x1 lib=0x2 seq=0x1 odc=0x8b sts=0xe0 armed=1
1788578425.675516 [TRG] pulses=8 suppressed=74 cyc=1600 rst=1 rstmode=0x40
1788578425.678764 [HLT] polls=12 faults=0x0 cfglost=0
1788578425.684514 [EFF] n=5 last=58595 min=58594 max=58654 late=0 stuck=0 rderr=0
1788578425.694642 [IMU] init=0 addr=0x68 who=0x68 rst=1 pmrb0=0x40 pmrb=0x1 sr=19 cfg=4 gcfg=0x0 acfg=0x8 icfg=0x30 ien=0x1 armed=1
1788578425.699766 [ACC] reads=633 stale=633 rderr=0 ax=62 ay=-62 az=1114
1788578425.702418 [PWR] pm=0x1 drift=0 rderr=0
1788578425.706425 [DWT] ok=1 cyc=2998751777 cyc_per_ms=799999
1788578426.721542 [HB] up_ms=15681 frames=679 inf=679 hazard=82 canary_err=0 q=0 qovr=0
1788578426.732485 [I2C] init=0 gate=0 whoami=0x201e0 wr=0 wrseen=0x27 addr=0x5a ok=6796 err=0 tmo=0 recov=0 pclk1=200000000 sysclk=400000000
1788578426.733760 [NAK] nacks=0
1788578426.738402 [CLK] cpu=800000000 sysb=400000000 pclk1=200000000
1788578426.743013 [TOF] res=0 step=0 id=0xeacc blk=0xeacc10 ctl=0x0
1788578426.748895 [RNG] init=0 step=99 id=0xeacc boot=1 calls=93 xerr=0 dm=1 tb=15
1788578426.755755 [RNG] osc=41 imp=881 imprb=881 mstart=0x40 cfg=91 cfgfail=0x0 vhv=0 vpolls=0
1788578426.762284 [PRT] calls=2837 xerr=0 ler=1 lidx=0x0 perr=0 maxcnt=17 addr8=0x52
1788578426.766019 [RTY] wr=0 wmax=0 wref=0  rd=0 rmax=0 rref=0
1788578426.773631 [RNG] frames=681 last=63 min=39 max=83 nrdy=0 dxfer=0 dstat=1 lst=2 nrdyerr=0 dclr=0
1788578426.779759 [DRV] init=0 id=7 mode=0x1 lib=0x2 seq=0x1 odc=0x8b sts=0xe0 armed=1
1788578426.784934 [TRG] pulses=8 suppressed=74 cyc=1600 rst=1 rstmode=0x40
1788578426.788420 [HLT] polls=13 faults=0x0 cfglost=0
1788578426.794135 [EFF] n=5 last=58595 min=58594 max=58654 late=0 stuck=0 rderr=0
1788578426.804274 [IMU] init=0 addr=0x68 who=0x68 rst=1 pmrb0=0x40 pmrb=0x1 sr=19 cfg=4 gcfg=0x0 acfg=0x8 icfg=0x30 ien=0x1 armed=1
1788578426.809256 [ACC] reads=683 stale=683 rderr=0 ax=57 ay=-60 az=1123
1788578426.812003 [PWR] pm=0x1 drift=0 rderr=0
1788578426.816018 [DWT] ok=1 cyc=3879685723 cyc_per_ms=800121
1788578427.830516 [HB] up_ms=16782 frames=729 inf=729 hazard=82 canary_err=0 q=0 qovr=0
1788578427.841605 [I2C] init=0 gate=0 whoami=0x201e0 wr=0 wrseen=0x27 addr=0x5a ok=7095 err=0 tmo=0 recov=0 pclk1=200000000 sysclk=400000000
1788578427.842891 [NAK] nacks=0
1788578427.847501 [CLK] cpu=800000000 sysb=400000000 pclk1=200000000
1788578427.851991 [TOF] res=0 step=0 id=0xeacc blk=0xeacc10 ctl=0x0
1788578427.858007 [RNG] init=0 step=99 id=0xeacc boot=1 calls=93 xerr=0 dm=1 tb=15
1788578427.864870 [RNG] osc=41 imp=881 imprb=881 mstart=0x40 cfg=91 cfgfail=0x0 vhv=0 vpolls=0
1788578427.870864 [PRT] calls=3037 xerr=0 ler=1 lidx=0x0 perr=0 maxcnt=17 addr8=0x52
1788578427.874983 [RTY] wr=0 wmax=0 wref=0  rd=0 rmax=0 rref=0
1788578427.882767 [RNG] frames=730 last=62 min=39 max=83 nrdy=0 dxfer=0 dstat=1 lst=2 nrdyerr=0 dclr=0
1788578427.888882 [DRV] init=0 id=7 mode=0x1 lib=0x2 seq=0x1 odc=0x8b sts=0xe0 armed=1
1788578427.893999 [TRG] pulses=8 suppressed=74 cyc=1600 rst=1 rstmode=0x40
1788578427.897251 [HLT] polls=14 faults=0x0 cfglost=0
1788578427.903245 [EFF] n=5 last=58595 min=58594 max=58654 late=0 stuck=0 rderr=0
1788578427.913376 [IMU] init=0 addr=0x68 who=0x68 rst=1 pmrb0=0x40 pmrb=0x1 sr=19 cfg=4 gcfg=0x0 acfg=0x8 icfg=0x30 ien=0x1 armed=1
1788578427.918742 [ACC] reads=733 stale=733 rderr=0 ax=60 ay=-61 az=1120
1788578427.920994 [PWR] pm=0x1 drift=0 rderr=0
1788578427.924982 [DWT] ok=1 cyc=465384453 cyc_per_ms=799878
1788578428.939874 [HB] up_ms=17883 frames=779 inf=779 hazard=101 canary_err=0 q=0 qovr=0
1788578428.951015 [I2C] init=0 gate=0 whoami=0x201e0 wr=0 wrseen=0x27 addr=0x5a ok=7394 err=0 tmo=0 recov=0 pclk1=200000000 sysclk=400000000
1788578428.952499 [NAK] nacks=0
1788578428.956999 [CLK] cpu=800000000 sysb=400000000 pclk1=200000000
1788578428.961482 [TOF] res=0 step=0 id=0xeacc blk=0xeacc10 ctl=0x0
1788578428.967483 [RNG] init=0 step=99 id=0xeacc boot=1 calls=93 xerr=0 dm=1 tb=15
1788578428.974403 [RNG] osc=41 imp=881 imprb=881 mstart=0x40 cfg=91 cfgfail=0x0 vhv=0 vpolls=0
1788578428.980396 [PRT] calls=3237 xerr=0 ler=1 lidx=0x0 perr=0 maxcnt=17 addr8=0x52
1788578428.984483 [RTY] wr=0 wmax=0 wref=0  rd=0 rmax=0 rref=0
1788578428.992224 [RNG] frames=780 last=54 min=39 max=83 nrdy=0 dxfer=0 dstat=1 lst=2 nrdyerr=0 dclr=0
1788578428.998411 [DRV] init=0 id=7 mode=0x1 lib=0x2 seq=0x1 odc=0x8b sts=0xe0 armed=1
1788578429.003612 [TRG] pulses=10 suppressed=94 cyc=1600 rst=1 rstmode=0x40
1788578429.006857 [HLT] polls=15 faults=0x0 cfglost=0
1788578429.012723 [EFF] n=5 last=58595 min=58594 max=58654 late=0 stuck=0 rderr=0
1788578429.023041 [IMU] init=0 addr=0x68 who=0x68 rst=1 pmrb0=0x40 pmrb=0x1 sr=19 cfg=4 gcfg=0x0 acfg=0x8 icfg=0x30 ien=0x1 armed=1
1788578429.027967 [ACC] reads=783 stale=783 rderr=0 ax=59 ay=-64 az=1119
1788578429.030591 [PWR] pm=0x1 drift=0 rderr=0
1788578429.034605 [DWT] ok=1 cyc=1346327959 cyc_per_ms=800130
1788578430.049466 [HB] up_ms=18984 frames=829 inf=829 hazard=123 canary_err=0 q=0 qovr=0
1788578430.060509 [I2C] init=0 gate=0 whoami=0x201e0 wr=0 wrseen=0x27 addr=0x5a ok=7696 err=0 tmo=0 recov=0 pclk1=200000000 sysclk=400000000
1788578430.061744 [NAK] nacks=0
1788578430.066390 [CLK] cpu=800000000 sysb=400000000 pclk1=200000000
1788578430.070892 [TOF] res=0 step=0 id=0xeacc blk=0xeacc10 ctl=0x0
1788578430.076750 [RNG] init=0 step=99 id=0xeacc boot=1 calls=93 xerr=0 dm=1 tb=15
1788578430.083747 [RNG] osc=41 imp=881 imprb=881 mstart=0x40 cfg=91 cfgfail=0x0 vhv=0 vpolls=0
1788578430.089754 [PRT] calls=3437 xerr=0 ler=1 lidx=0x0 perr=0 maxcnt=17 addr8=0x52
1788578430.093878 [RTY] wr=0 wmax=0 wref=0  rd=0 rmax=0 rref=0
1788578430.101499 [RNG] frames=830 last=55 min=39 max=83 nrdy=0 dxfer=0 dstat=1 lst=2 nrdyerr=0 dclr=0
1788578430.107868 [DRV] init=0 id=7 mode=0x1 lib=0x2 seq=0x1 odc=0x8b sts=0xe0 armed=1
1788578430.113125 [TRG] pulses=11 suppressed=112 cyc=1600 rst=1 rstmode=0x40
1788578430.116422 [HLT] polls=16 faults=0x0 cfglost=0
1788578430.122120 [EFF] n=5 last=58595 min=58594 max=58654 late=0 stuck=0 rderr=0
1788578430.132501 [IMU] init=0 addr=0x68 who=0x68 rst=1 pmrb0=0x40 pmrb=0x1 sr=19 cfg=4 gcfg=0x0 acfg=0x8 icfg=0x30 ien=0x1 armed=1
1788578430.137409 [ACC] reads=833 stale=833 rderr=0 ax=57 ay=-62 az=1121
1788578430.140120 [PWR] pm=0x1 drift=0 rderr=0
1788578430.143998 [DWT] ok=1 cyc=2227194595 cyc_per_ms=800060
1788578431.159133 [HB] up_ms=20085 frames=879 inf=879 hazard=123 canary_err=0 q=0 qovr=0
1788578431.170243 [I2C] init=0 gate=0 whoami=0x201e0 wr=0 wrseen=0x27 addr=0x5a ok=7998 err=0 tmo=0 recov=0 pclk1=200000000 sysclk=400000000
1788578431.171615 [NAK] nacks=0
1788578431.176245 [CLK] cpu=800000000 sysb=400000000 pclk1=200000000
1788578431.180742 [TOF] res=0 step=0 id=0xeacc blk=0xeacc10 ctl=0x0
1788578431.186489 [RNG] init=0 step=99 id=0xeacc boot=1 calls=93 xerr=0 dm=1 tb=15
1788578431.193619 [RNG] osc=41 imp=881 imprb=881 mstart=0x40 cfg=91 cfgfail=0x0 vhv=0 vpolls=0
1788578431.199636 [PRT] calls=3637 xerr=0 ler=1 lidx=0x0 perr=0 maxcnt=17 addr8=0x52
1788578431.203739 [RTY] wr=0 wmax=0 wref=0  rd=0 rmax=0 rref=0
1788578431.211241 [RNG] frames=880 last=44 min=39 max=83 nrdy=0 dxfer=0 dstat=1 lst=2 nrdyerr=0 dclr=0
1788578431.217627 [DRV] init=0 id=7 mode=0x1 lib=0x2 seq=0x1 odc=0x8b sts=0xe0 armed=1
1788578431.223013 [TRG] pulses=11 suppressed=112 cyc=1600 rst=1 rstmode=0x40
1788578431.226250 [HLT] polls=17 faults=0x0 cfglost=0
1788578431.231993 [EFF] n=5 last=58595 min=58594 max=58654 late=0 stuck=0 rderr=0
1788578431.242381 [IMU] init=0 addr=0x68 who=0x68 rst=1 pmrb0=0x40 pmrb=0x1 sr=19 cfg=4 gcfg=0x0 acfg=0x8 icfg=0x30 ien=0x1 armed=1
1788578431.247252 [ACC] reads=883 stale=883 rderr=0 ax=58 ay=-64 az=1118
1788578431.249876 [PWR] pm=0x1 drift=0 rderr=0
1788578431.253868 [DWT] ok=1 cyc=3107994379 cyc_per_ms=799999
1788578432.268994 [HB] up_ms=21186 frames=929 inf=929 hazard=123 canary_err=0 q=0 qovr=0
1788578432.279992 [I2C] init=0 gate=0 whoami=0x201e0 wr=0 wrseen=0x27 addr=0x5a ok=8300 err=0 tmo=0 recov=0 pclk1=200000000 sysclk=400000000
1788578432.281440 [NAK] nacks=0
1788578432.286122 [CLK] cpu=800000000 sysb=400000000 pclk1=200000000
1788578432.290616 [TOF] res=0 step=0 id=0xeacc blk=0xeacc10 ctl=0x0
1788578432.296387 [RNG] init=0 step=99 id=0xeacc boot=1 calls=93 xerr=0 dm=1 tb=15
1788578432.303245 [RNG] osc=41 imp=881 imprb=881 mstart=0x40 cfg=91 cfgfail=0x0 vhv=0 vpolls=0
1788578432.309588 [PRT] calls=3833 xerr=0 ler=1 lidx=0x0 perr=0 maxcnt=17 addr8=0x52
1788578432.313496 [RTY] wr=0 wmax=0 wref=0  rd=0 rmax=0 rref=0
1788578432.321127 [RNG] frames=930 last=53 min=39 max=83 nrdy=0 dxfer=0 dstat=1 lst=2 nrdyerr=0 dclr=0
1788578432.327411 [DRV] init=0 id=7 mode=0x1 lib=0x2 seq=0x1 odc=0x8b sts=0xe0 armed=1
1788578432.333064 [TRG] pulses=11 suppressed=112 cyc=1600 rst=1 rstmode=0x40
1788578432.336086 [HLT] polls=18 faults=0x0 cfglost=0
1788578432.341836 [EFF] n=5 last=58595 min=58594 max=58654 late=0 stuck=0 rderr=0
1788578432.352128 [IMU] init=0 addr=0x68 who=0x68 rst=1 pmrb0=0x40 pmrb=0x1 sr=19 cfg=4 gcfg=0x0 acfg=0x8 icfg=0x30 ien=0x1 armed=1
1788578432.357112 [ACC] reads=933 stale=933 rderr=0 ax=57 ay=-61 az=1131
1788578432.359737 [PWR] pm=0x1 drift=0 rderr=0
1788578432.363738 [DWT] ok=1 cyc=3988794275 cyc_per_ms=799999
1788578433.379122 [HB] up_ms=22287 frames=979 inf=979 hazard=123 canary_err=0 q=0 qovr=0
1788578433.390116 [I2C] init=0 gate=0 whoami=0x201e0 wr=0 wrseen=0x27 addr=0x5a ok=8602 err=0 tmo=0 recov=0 pclk1=200000000 sysclk=400000000
1788578433.391487 [NAK] nacks=0
1788578433.396232 [CLK] cpu=800000000 sysb=400000000 pclk1=200000000
1788578433.400735 [TOF] res=0 step=0 id=0xeacc blk=0xeacc10 ctl=0x0
1788578433.406472 [RNG] init=0 step=99 id=0xeacc boot=1 calls=93 xerr=0 dm=1 tb=15
1788578433.413377 [RNG] osc=41 imp=881 imprb=881 mstart=0x40 cfg=91 cfgfail=0x0 vhv=0 vpolls=0
1788578433.419613 [PRT] calls=4033 xerr=0 ler=1 lidx=0x0 perr=0 maxcnt=17 addr8=0x52
1788578433.423616 [RTY] wr=0 wmax=0 wref=0  rd=0 rmax=0 rref=0
1788578433.431245 [RNG] frames=980 last=56 min=39 max=83 nrdy=0 dxfer=0 dstat=1 lst=2 nrdyerr=0 dclr=0
1788578433.437486 [DRV] init=0 id=7 mode=0x1 lib=0x2 seq=0x1 odc=0x8b sts=0xe0 armed=1
1788578433.442988 [TRG] pulses=11 suppressed=112 cyc=1600 rst=1 rstmode=0x40
1788578433.446234 [HLT] polls=19 faults=0x0 cfglost=0
1788578433.451988 [EFF] n=5 last=58595 min=58594 max=58654 late=0 stuck=0 rderr=0
1788578433.462106 [IMU] init=0 addr=0x68 who=0x68 rst=1 pmrb0=0x40 pmrb=0x1 sr=19 cfg=4 gcfg=0x0 acfg=0x8 icfg=0x30 ien=0x1 armed=1
1788578433.467239 [ACC] reads=982 stale=982 rderr=0 ax=57 ay=-62 az=1121
1788578433.469861 [PWR] pm=0x1 drift=0 rderr=0
1788578433.473737 [DWT] ok=1 cyc=574655335 cyc_per_ms=800025
1788578434.489493 [HB] up_ms=23388 frames=1028 inf=1028 hazard=123 canary_err=0 q=0 qovr=0
1788578434.500507 [I2C] init=0 gate=0 whoami=0x201e0 wr=0 wrseen=0x27 addr=0x5a ok=8904 err=0 tmo=0 recov=0 pclk1=200000000 sysclk=400000000
1788578434.501737 [NAK] nacks=0
1788578434.506379 [CLK] cpu=800000000 sysb=400000000 pclk1=200000000
1788578434.511113 [TOF] res=0 step=0 id=0xeacc blk=0xeacc10 ctl=0x0
1788578434.516861 [RNG] init=0 step=99 id=0xeacc boot=1 calls=93 xerr=0 dm=1 tb=15
1788578434.523736 [RNG] osc=41 imp=881 imprb=881 mstart=0x40 cfg=91 cfgfail=0x0 vhv=0 vpolls=0
1788578434.529734 [PRT] calls=4233 xerr=0 ler=1 lidx=0x0 perr=0 maxcnt=17 addr8=0x52
1788578434.533983 [RTY] wr=0 wmax=0 wref=0  rd=0 rmax=0 rref=0
1788578434.541725 [RNG] frames=1030 last=61 min=39 max=83 nrdy=0 dxfer=0 dstat=1 lst=2 nrdyerr=0 dclr=0
1788578434.547979 [DRV] init=0 id=7 mode=0x1 lib=0x2 seq=0x1 odc=0x8b sts=0xe0 armed=1
1788578434.553234 [TRG] pulses=11 suppressed=112 cyc=1600 rst=1 rstmode=0x40
1788578434.556608 [HLT] polls=20 faults=0x0 cfglost=0
1788578434.562391 [EFF] n=5 last=58595 min=58594 max=58654 late=0 stuck=0 rderr=0
1788578434.572617 [IMU] init=0 addr=0x68 who=0x68 rst=1 pmrb0=0x40 pmrb=0x1 sr=19 cfg=4 gcfg=0x0 acfg=0x8 icfg=0x30 ien=0x1 armed=1
1788578434.577724 [ACC] reads=1032 stale=1032 rderr=0 ax=58 ay=-62 az=1121
1788578434.580494 [PWR] pm=0x1 drift=0 rderr=0
1788578434.584483 [DWT] ok=1 cyc=1455911371 cyc_per_ms=800414
1788578435.598613 [HB] up_ms=24489 frames=1078 inf=1078 hazard=123 canary_err=0 q=0 qovr=0
1788578435.609732 [I2C] init=0 gate=0 whoami=0x201e0 wr=0 wrseen=0x27 addr=0x5a ok=9201 err=0 tmo=0 recov=0 pclk1=200000000 sysclk=400000000
1788578435.610971 [NAK] nacks=0
1788578435.615613 [CLK] cpu=800000000 sysb=400000000 pclk1=200000000
1788578435.620102 [TOF] res=0 step=0 id=0xeacc blk=0xeacc10 ctl=0x0
1788578435.626099 [RNG] init=0 step=99 id=0xeacc boot=1 calls=93 xerr=0 dm=1 tb=15
1788578435.632995 [RNG] osc=41 imp=881 imprb=881 mstart=0x40 cfg=91 cfgfail=0x0 vhv=0 vpolls=0
1788578435.638979 [PRT] calls=4433 xerr=0 ler=1 lidx=0x0 perr=0 maxcnt=17 addr8=0x52
1788578435.643096 [RTY] wr=0 wmax=0 wref=0  rd=0 rmax=0 rref=0
1788578435.650997 [RNG] frames=1079 last=53 min=39 max=83 nrdy=0 dxfer=0 dstat=1 lst=2 nrdyerr=0 dclr=0
1788578435.657119 [DRV] init=0 id=7 mode=0x1 lib=0x2 seq=0x1 odc=0x8b sts=0xe0 armed=1
1788578435.662490 [TRG] pulses=12 suppressed=112 cyc=1600 rst=1 rstmode=0x40
1788578435.665733 [HLT] polls=21 faults=0x0 cfglost=0
1788578435.671601 [EFF] n=5 last=58595 min=58594 max=58654 late=0 stuck=0 rderr=0
1788578435.681734 [IMU] init=0 addr=0x68 who=0x68 rst=1 pmrb0=0x40 pmrb=0x1 sr=19 cfg=4 gcfg=0x0 acfg=0x8 icfg=0x30 ien=0x1 armed=1
1788578435.686853 [ACC] reads=1082 stale=1082 rderr=0 ax=56 ay=-64 az=1123
1788578435.689603 [PWR] pm=0x1 drift=0 rderr=0
1788578435.693722 [DWT] ok=1 cyc=2336581383 cyc_per_ms=799881
1788578436.708605 [HB] up_ms=25590 frames=1128 inf=1128 hazard=164 canary_err=0 q=0 qovr=0
1788578436.719749 [I2C] init=0 gate=0 whoami=0x201e0 wr=0 wrseen=0x27 addr=0x5a ok=9502 err=0 tmo=0 recov=0 pclk1=200000000 sysclk=400000000
1788578436.720996 [NAK] nacks=0
1788578436.725601 [CLK] cpu=800000000 sysb=400000000 pclk1=200000000
1788578436.730095 [TOF] res=0 step=0 id=0xeacc blk=0xeacc10 ctl=0x0
1788578436.736002 [RNG] init=0 step=99 id=0xeacc boot=1 calls=93 xerr=0 dm=1 tb=15
1788578436.742981 [RNG] osc=41 imp=881 imprb=881 mstart=0x40 cfg=91 cfgfail=0x0 vhv=0 vpolls=0
1788578436.749101 [PRT] calls=4633 xerr=0 ler=1 lidx=0x0 perr=0 maxcnt=17 addr8=0x52
1788578436.753103 [RTY] wr=0 wmax=0 wref=0  rd=0 rmax=0 rref=0
1788578436.760967 [RNG] frames=1129 last=50 min=39 max=83 nrdy=0 dxfer=0 dstat=1 lst=2 nrdyerr=0 dclr=0
1788578436.767223 [DRV] init=0 id=7 mode=0x1 lib=0x2 seq=0x1 odc=0x8b sts=0xe0 armed=1
1788578436.772479 [TRG] pulses=14 suppressed=150 cyc=1600 rst=1 rstmode=0x40
1788578436.775715 [HLT] polls=22 faults=0x0 cfglost=0
1788578436.781479 [EFF] n=5 last=58595 min=58594 max=58654 late=0 stuck=0 rderr=0
1788578436.791849 [IMU] init=0 addr=0x68 who=0x68 rst=1 pmrb0=0x40 pmrb=0x1 sr=19 cfg=4 gcfg=0x0 acfg=0x8 icfg=0x30 ien=0x1 armed=1
1788578436.796972 [ACC] reads=1132 stale=1132 rderr=0 ax=60 ay=-65 az=1119
1788578436.799593 [PWR] pm=0x1 drift=0 rderr=0
1788578436.803590 [DWT] ok=1 cyc=3217376955 cyc_per_ms=799995
1788578437.818728 [HB] up_ms=26691 frames=1178 inf=1178 hazard=164 canary_err=0 q=0 qovr=0
1788578437.829847 [I2C] init=0 gate=0 whoami=0x201e0 wr=0 wrseen=0x27 addr=0x5a ok=9804 err=0 tmo=0 recov=0 pclk1=200000000 sysclk=400000000
1788578437.831092 [NAK] nacks=0
1788578437.835742 [CLK] cpu=800000000 sysb=400000000 pclk1=200000000
1788578437.840228 [TOF] res=0 step=0 id=0xeacc blk=0xeacc10 ctl=0x0
1788578437.846085 [RNG] init=0 step=99 id=0xeacc boot=1 calls=93 xerr=0 dm=1 tb=15
1788578437.853114 [RNG] osc=41 imp=881 imprb=881 mstart=0x40 cfg=91 cfgfail=0x0 vhv=0 vpolls=0
1788578437.859091 [PRT] calls=4833 xerr=0 ler=1 lidx=0x0 perr=0 maxcnt=17 addr8=0x52
1788578437.863211 [RTY] wr=0 wmax=0 wref=0  rd=0 rmax=0 rref=0
1788578437.870851 [RNG] frames=1179 last=55 min=39 max=83 nrdy=0 dxfer=0 dstat=1 lst=2 nrdyerr=0 dclr=0
1788578437.877221 [DRV] init=0 id=7 mode=0x1 lib=0x2 seq=0x1 odc=0x8b sts=0xe0 armed=1
1788578437.882813 [TRG] pulses=14 suppressed=150 cyc=1600 rst=1 rstmode=0x40
1788578437.885842 [HLT] polls=23 faults=0x0 cfglost=0
1788578437.891601 [EFF] n=5 last=58595 min=58594 max=58654 late=0 stuck=0 rderr=0
1788578437.901971 [IMU] init=0 addr=0x68 who=0x68 rst=1 pmrb0=0x40 pmrb=0x1 sr=19 cfg=4 gcfg=0x0 acfg=0x8 icfg=0x30 ien=0x1 armed=1
1788578437.907108 [ACC] reads=1182 stale=1182 rderr=0 ax=60 ay=-60 az=1121
1788578437.909713 [PWR] pm=0x1 drift=0 rderr=0
1788578437.913715 [DWT] ok=1 cyc=4098177039 cyc_per_ms=800000
1788578438.928722 [HB] up_ms=27792 frames=1228 inf=1228 hazard=164 canary_err=0 q=0 qovr=0
1788578438.939841 [I2C] init=0 gate=0 whoami=0x201e0 wr=0 wrseen=0x27 addr=0x5a ok=10106 err=0 tmo=0 recov=0 pclk1=200000000 sysclk=400000000
1788578438.941668 [NAK] nacks=0
1788578438.945845 [CLK] cpu=800000000 sysb=400000000 pclk1=200000000
1788578438.950417 [TOF] res=0 step=0 id=0xeacc blk=0xeacc10 ctl=0x0
1788578438.956210 [RNG] init=0 step=99 id=0xeacc boot=1 calls=93 xerr=0 dm=1 tb=15
1788578438.963213 [RNG] osc=41 imp=881 imprb=881 mstart=0x40 cfg=91 cfgfail=0x0 vhv=0 vpolls=0
1788578438.969223 [PRT] calls=5032 xerr=0 ler=1 lidx=0x0 perr=0 maxcnt=17 addr8=0x52
1788578438.973373 [RTY] wr=0 wmax=0 wref=0  rd=0 rmax=0 rref=0
1788578438.980956 [RNG] frames=1229 last=42 min=39 max=83 nrdy=0 dxfer=0 dstat=1 lst=2 nrdyerr=0 dclr=0
1788578438.987372 [DRV] init=0 id=7 mode=0x1 lib=0x2 seq=0x1 odc=0x8b sts=0xe0 armed=1
1788578438.992711 [TRG] pulses=14 suppressed=150 cyc=1600 rst=1 rstmode=0x40
1788578438.995963 [HLT] polls=24 faults=0x0 cfglost=0
1788578439.001711 [EFF] n=5 last=58595 min=58594 max=58654 late=0 stuck=0 rderr=0
1788578439.011966 [IMU] init=0 addr=0x68 who=0x68 rst=1 pmrb0=0x40 pmrb=0x1 sr=19 cfg=4 gcfg=0x0 acfg=0x8 icfg=0x30 ien=0x1 armed=1
1788578439.017099 [ACC] reads=1232 stale=1232 rderr=0 ax=58 ay=-62 az=1119
1788578439.019860 [PWR] pm=0x1 drift=0 rderr=0
1788578439.023729 [DWT] ok=1 cyc=684079883 cyc_per_ms=800063
1788578440.038463 [HB] up_ms=28893 frames=1278 inf=1278 hazard=164 canary_err=0 q=0 qovr=0
1788578440.049802 [I2C] init=0 gate=0 whoami=0x201e0 wr=0 wrseen=0x27 addr=0x5a ok=10408 err=0 tmo=0 recov=0 pclk1=200000000 sysclk=400000000
1788578440.050848 [NAK] nacks=0
1788578440.055612 [CLK] cpu=800000000 sysb=400000000 pclk1=200000000
1788578440.060098 [TOF] res=0 step=0 id=0xeacc blk=0xeacc10 ctl=0x0
1788578440.065998 [RNG] init=0 step=99 id=0xeacc boot=1 calls=93 xerr=0 dm=1 tb=15
1788578440.072856 [RNG] osc=41 imp=881 imprb=881 mstart=0x40 cfg=91 cfgfail=0x0 vhv=0 vpolls=0
1788578440.078967 [PRT] calls=5229 xerr=0 ler=1 lidx=0x0 perr=0 maxcnt=17 addr8=0x52
1788578440.083154 [RTY] wr=0 wmax=0 wref=0  rd=0 rmax=0 rref=0
1788578440.090713 [RNG] frames=1279 last=58 min=39 max=83 nrdy=0 dxfer=0 dstat=1 lst=2 nrdyerr=0 dclr=0
1788578440.096961 [DRV] init=0 id=7 mode=0x1 lib=0x2 seq=0x1 odc=0x8b sts=0xe0 armed=1
1788578440.102470 [TRG] pulses=14 suppressed=150 cyc=1600 rst=1 rstmode=0x40
1788578440.105705 [HLT] polls=25 faults=0x0 cfglost=0
1788578440.111460 [EFF] n=5 last=58595 min=58594 max=58654 late=0 stuck=0 rderr=0
1788578440.121710 [IMU] init=0 addr=0x68 who=0x68 rst=1 pmrb0=0x40 pmrb=0x1 sr=19 cfg=4 gcfg=0x0 acfg=0x8 icfg=0x30 ien=0x1 armed=1
1788578440.126833 [ACC] reads=1282 stale=1282 rderr=0 ax=52 ay=-61 az=1116
1788578440.129579 [PWR] pm=0x1 drift=0 rderr=0
1788578440.133460 [DWT] ok=1 cyc=1564879751 cyc_per_ms=799999
1788578441.148462 [HB] up_ms=29994 frames=1327 inf=1327 hazard=164 canary_err=0 q=0 qovr=0
1788578441.159587 [I2C] init=0 gate=0 whoami=0x201e0 wr=0 wrseen=0x27 addr=0x5a ok=10710 err=0 tmo=0 recov=0 pclk1=200000000 sysclk=400000000
1788578441.160824 [NAK] nacks=0
1788578441.165456 [CLK] cpu=800000000 sysb=400000000 pclk1=200000000
1788578441.170094 [TOF] res=0 step=0 id=0xeacc blk=0xeacc10 ctl=0x0
1788578441.175962 [RNG] init=0 step=99 id=0xeacc boot=1 calls=93 xerr=0 dm=1 tb=15
1788578441.182833 [RNG] osc=41 imp=881 imprb=881 mstart=0x40 cfg=91 cfgfail=0x0 vhv=0 vpolls=0
1788578441.188952 [PRT] calls=5429 xerr=0 ler=1 lidx=0x0 perr=0 maxcnt=17 addr8=0x52
1788578441.193074 [RTY] wr=0 wmax=0 wref=0  rd=0 rmax=0 rref=0
1788578441.200830 [RNG] frames=1329 last=49 min=39 max=83 nrdy=0 dxfer=0 dstat=1 lst=2 nrdyerr=0 dclr=0
1788578441.206956 [DRV] init=0 id=7 mode=0x1 lib=0x2 seq=0x1 odc=0x8b sts=0xe0 armed=1
1788578441.212465 [TRG] pulses=14 suppressed=150 cyc=1600 rst=1 rstmode=0x40
1788578441.215721 [HLT] polls=26 faults=0x0 cfglost=0
1788578441.221453 [EFF] n=5 last=58595 min=58594 max=58654 late=0 stuck=0 rderr=0
1788578441.231715 [IMU] init=0 addr=0x68 who=0x68 rst=1 pmrb0=0x40 pmrb=0x1 sr=19 cfg=4 gcfg=0x0 acfg=0x8 icfg=0x30 ien=0x1 armed=1
1788578441.236960 [ACC] reads=1331 stale=1331 rderr=0 ax=57 ay=-61 az=1121
1788578441.239577 [PWR] pm=0x1 drift=0 rderr=0
1788578441.243577 [DWT] ok=1 cyc=2445813697 cyc_per_ms=800121
1788578442.258580 [HB] up_ms=31095 frames=1377 inf=1377 hazard=164 canary_err=0 q=0 qovr=0
1788578442.269590 [I2C] init=0 gate=0 whoami=0x201e0 wr=0 wrseen=0x27 addr=0x5a ok=11012 err=0 tmo=0 recov=0 pclk1=200000000 sysclk=400000000
1788578442.271004 [NAK] nacks=0
1788578442.275599 [CLK] cpu=800000000 sysb=400000000 pclk1=200000000
1788578442.280238 [TOF] res=0 step=0 id=0xeacc blk=0xeacc10 ctl=0x0
1788578442.286090 [RNG] init=0 step=99 id=0xeacc boot=1 calls=93 xerr=0 dm=1 tb=15
1788578442.292962 [RNG] osc=41 imp=881 imprb=881 mstart=0x40 cfg=91 cfgfail=0x0 vhv=0 vpolls=0
1788578442.299514 [PRT] calls=5629 xerr=0 ler=1 lidx=0x0 perr=0 maxcnt=17 addr8=0x52
1788578442.303088 [RTY] wr=0 wmax=0 wref=0  rd=0 rmax=0 rref=0
1788578442.310951 [RNG] frames=1378 last=49 min=39 max=83 nrdy=0 dxfer=0 dstat=1 lst=2 nrdyerr=0 dclr=0
1788578442.317077 [DRV] init=0 id=7 mode=0x1 lib=0x2 seq=0x1 odc=0x8b sts=0xe0 armed=1
1788578442.322447 [TRG] pulses=14 suppressed=150 cyc=1600 rst=1 rstmode=0x40
1788578442.325705 [HLT] polls=27 faults=0x0 cfglost=0
1788578442.331580 [EFF] n=5 last=58595 min=58594 max=58654 late=0 stuck=0 rderr=0
1788578442.341825 [IMU] init=0 addr=0x68 who=0x68 rst=1 pmrb0=0x40 pmrb=0x1 sr=19 cfg=4 gcfg=0x0 acfg=0x8 icfg=0x30 ien=0x1 armed=1
1788578442.346946 [ACC] reads=1381 stale=1380 rderr=0 ax=60 ay=-61 az=1122
1788578442.349706 [PWR] pm=0x1 drift=0 rderr=0
1788578442.353705 [DWT] ok=1 cyc=3326549379 cyc_per_ms=799941
1788578443.369342 [HB] up_ms=32196 frames=1427 inf=1427 hazard=191 canary_err=0 q=0 qovr=0
1788578443.380576 [I2C] init=0 gate=0 whoami=0x201e0 wr=0 wrseen=0x27 addr=0x5a ok=11308 err=0 tmo=0 recov=0 pclk1=200000000 sysclk=400000000
1788578443.381818 [NAK] nacks=0
1788578443.386477 [CLK] cpu=800000000 sysb=400000000 pclk1=200000000
1788578443.390941 [TOF] res=0 step=0 id=0xeacc blk=0xeacc10 ctl=0x0
1788578443.396950 [RNG] init=0 step=99 id=0xeacc boot=1 calls=93 xerr=0 dm=1 tb=15
1788578443.403822 [RNG] osc=41 imp=881 imprb=881 mstart=0x40 cfg=91 cfgfail=0x0 vhv=0 vpolls=0
1788578443.409948 [PRT] calls=5829 xerr=0 ler=1 lidx=0x0 perr=0 maxcnt=17 addr8=0x52
1788578443.413949 [RTY] wr=0 wmax=0 wref=0  rd=0 rmax=0 rref=0
1788578443.421823 [RNG] frames=1428 last=52 min=39 max=83 nrdy=0 dxfer=0 dstat=1 lst=2 nrdyerr=0 dclr=0
1788578443.428067 [DRV] init=0 id=7 mode=0x1 lib=0x2 seq=0x1 odc=0x8b sts=0xe0 armed=1
1788578443.433338 [TRG] pulses=17 suppressed=177 cyc=1600 rst=1 rstmode=0x40
1788578443.436574 [HLT] polls=28 faults=0x0 cfglost=0
1788578443.442443 [EFF] n=5 last=58595 min=58594 max=58654 late=0 stuck=0 rderr=0
1788578443.452696 [IMU] init=0 addr=0x68 who=0x68 rst=1 pmrb0=0x40 pmrb=0x1 sr=19 cfg=4 gcfg=0x0 acfg=0x8 icfg=0x30 ien=0x1 armed=1
1788578443.457827 [ACC] reads=1431 stale=1430 rderr=0 ax=55 ay=-63 az=1121
1788578443.460436 [PWR] pm=0x1 drift=0 rderr=0
1788578443.464566 [DWT] ok=1 cyc=4207285863 cyc_per_ms=799942
1788578444.480204 [HB] up_ms=33297 frames=1477 inf=1477 hazard=205 canary_err=0 q=0 qovr=0
1788578444.491451 [I2C] init=0 gate=0 whoami=0x201e0 wr=0 wrseen=0x27 addr=0x5a ok=11610 err=0 tmo=0 recov=0 pclk1=200000000 sysclk=400000000
1788578444.492702 [NAK] nacks=0
1788578444.497317 [CLK] cpu=800000000 sysb=400000000 pclk1=200000000
1788578444.501814 [TOF] res=0 step=0 id=0xeacc blk=0xeacc10 ctl=0x0
1788578444.507685 [RNG] init=0 step=99 id=0xeacc boot=1 calls=93 xerr=0 dm=1 tb=15
1788578444.514816 [RNG] osc=41 imp=881 imprb=881 mstart=0x40 cfg=91 cfgfail=0x0 vhv=0 vpolls=0
1788578444.520821 [PRT] calls=6029 xerr=0 ler=1 lidx=0x0 perr=0 maxcnt=17 addr8=0x52
1788578444.524820 [RTY] wr=0 wmax=0 wref=0  rd=0 rmax=0 rref=0
1788578444.532712 [RNG] frames=1478 last=57 min=39 max=83 nrdy=0 dxfer=0 dstat=1 lst=2 nrdyerr=0 dclr=0
1788578444.538941 [DRV] init=0 id=7 mode=0x1 lib=0x2 seq=0x1 odc=0x8b sts=0xe0 armed=1
1788578444.544185 [TRG] pulses=17 suppressed=188 cyc=1600 rst=1 rstmode=0x40
1788578444.547437 [HLT] polls=29 faults=0x0 cfglost=0
1788578444.553197 [EFF] n=5 last=58595 min=58594 max=58654 late=0 stuck=0 rderr=0
1788578444.563564 [IMU] init=0 addr=0x68 who=0x68 rst=1 pmrb0=0x40 pmrb=0x1 sr=19 cfg=4 gcfg=0x0 acfg=0x8 icfg=0x30 ien=0x1 armed=1
1788578444.568688 [ACC] reads=1481 stale=1480 rderr=0 ax=51 ay=-60 az=1122
1788578444.571313 [PWR] pm=0x1 drift=0 rderr=0
1788578444.575199 [DWT] ok=1 cyc=793112579 cyc_per_ms=799994
1788578445.590719 [HB] up_ms=34398 frames=1527 inf=1527 hazard=205 canary_err=0 q=0 qovr=0
1788578445.601958 [I2C] init=0 gate=0 whoami=0x201e0 wr=0 wrseen=0x27 addr=0x5a ok=11912 err=0 tmo=0 recov=0 pclk1=200000000 sysclk=400000000
1788578445.603359 [NAK] nacks=0
1788578445.607835 [CLK] cpu=800000000 sysb=400000000 pclk1=200000000
1788578445.612334 [TOF] res=0 step=0 id=0xeacc blk=0xeacc10 ctl=0x0
1788578445.618376 [RNG] init=0 step=99 id=0xeacc boot=1 calls=93 xerr=0 dm=1 tb=15
1788578445.625532 [RNG] osc=41 imp=881 imprb=881 mstart=0x40 cfg=91 cfgfail=0x0 vhv=0 vpolls=0
1788578445.631294 [PRT] calls=6229 xerr=0 ler=1 lidx=0x0 perr=0 maxcnt=17 addr8=0x52
1788578445.635302 [RTY] wr=0 wmax=0 wref=0  rd=0 rmax=0 rref=0
1788578445.643043 [RNG] frames=1528 last=52 min=39 max=83 nrdy=0 dxfer=0 dstat=1 lst=2 nrdyerr=0 dclr=0
1788578445.649451 [DRV] init=0 id=7 mode=0x1 lib=0x2 seq=0x1 odc=0x8b sts=0xe0 armed=1
1788578445.654683 [TRG] pulses=17 suppressed=188 cyc=1600 rst=1 rstmode=0x40
1788578445.657930 [HLT] polls=30 faults=0x0 cfglost=0
1788578445.663662 [EFF] n=5 last=58595 min=58594 max=58654 late=0 stuck=0 rderr=0
1788578445.674096 [IMU] init=0 addr=0x68 who=0x68 rst=1 pmrb0=0x40 pmrb=0x1 sr=19 cfg=4 gcfg=0x0 acfg=0x8 icfg=0x30 ien=0x1 armed=1
1788578445.679196 [ACC] reads=1531 stale=1530 rderr=0 ax=63 ay=-66 az=1118
1788578445.681813 [PWR] pm=0x1 drift=0 rderr=0
1788578445.685816 [DWT] ok=1 cyc=1673912383 cyc_per_ms=799999
1788578446.701195 [HB] up_ms=35499 frames=1577 inf=1577 hazard=205 canary_err=0 q=0 qovr=0
1788578446.712316 [I2C] init=0 gate=0 whoami=0x201e0 wr=0 wrseen=0x27 addr=0x5a ok=12214 err=0 tmo=0 recov=0 pclk1=200000000 sysclk=400000000
1788578446.713683 [NAK] nacks=0
1788578446.718384 [CLK] cpu=800000000 sysb=400000000 pclk1=200000000
1788578446.722818 [TOF] res=0 step=0 id=0xeacc blk=0xeacc10 ctl=0x0
1788578446.728728 [RNG] init=0 step=99 id=0xeacc boot=1 calls=93 xerr=0 dm=1 tb=15
1788578446.735574 [RNG] osc=41 imp=881 imprb=881 mstart=0x40 cfg=91 cfgfail=0x0 vhv=0 vpolls=0
1788578446.741685 [PRT] calls=6425 xerr=0 ler=1 lidx=0x0 perr=0 maxcnt=17 addr8=0x52
1788578446.745826 [RTY] wr=0 wmax=0 wref=0  rd=0 rmax=0 rref=0
1788578446.753443 [RNG] frames=1578 last=53 min=39 max=83 nrdy=0 dxfer=0 dstat=1 lst=2 nrdyerr=0 dclr=0
1788578446.759816 [DRV] init=0 id=7 mode=0x1 lib=0x2 seq=0x1 odc=0x8b sts=0xe0 armed=1
1788578446.765085 [TRG] pulses=17 suppressed=188 cyc=1600 rst=1 rstmode=0x40
1788578446.768430 [HLT] polls=31 faults=0x0 cfglost=0
1788578446.774190 [EFF] n=5 last=58595 min=58594 max=58654 late=0 stuck=0 rderr=0
1788578446.784438 [IMU] init=0 addr=0x68 who=0x68 rst=1 pmrb0=0x40 pmrb=0x1 sr=19 cfg=4 gcfg=0x0 acfg=0x8 icfg=0x30 ien=0x1 armed=1
1788578446.789575 [ACC] reads=1581 stale=1580 rderr=0 ax=57 ay=-62 az=1120
1788578446.792309 [PWR] pm=0x1 drift=0 rderr=0
1788578446.796184 [DWT] ok=1 cyc=2554712635 cyc_per_ms=800000
1788578447.811367 [HB] up_ms=36600 frames=1627 inf=1627 hazard=205 canary_err=0 q=0 qovr=0
1788578447.822418 [I2C] init=0 gate=0 whoami=0x201e0 wr=0 wrseen=0x27 addr=0x5a ok=12516 err=0 tmo=0 recov=0 pclk1=200000000 sysclk=400000000
1788578447.823717 [NAK] nacks=0
1788578447.828410 [CLK] cpu=800000000 sysb=400000000 pclk1=200000000
1788578447.833400 [TOF] res=0 step=0 id=0xeacc blk=0xeacc10 ctl=0x0
1788578447.839157 [RNG] init=0 step=99 id=0xeacc boot=1 calls=93 xerr=0 dm=1 tb=15
1788578447.845723 [RNG] osc=41 imp=881 imprb=881 mstart=0x40 cfg=91 cfgfail=0x0 vhv=0 vpolls=0
1788578447.851815 [PRT] calls=6625 xerr=0 ler=1 lidx=0x0 perr=0 maxcnt=17 addr8=0x52
1788578447.857549 [RTY] wr=0 wmax=0 wref=0  rd=0 rmax=0 rref=0
1788578447.863787 [RNG] frames=1628 last=55 min=39 max=83 nrdy=0 dxfer=0 dstat=1 lst=2 nrdyerr=0 dclr=0
1788578447.869802 [DRV] init=0 id=7 mode=0x1 lib=0x2 seq=0x1 odc=0x8b sts=0xe0 armed=1
1788578447.875412 [TRG] pulses=17 suppressed=188 cyc=1600 rst=1 rstmode=0x40
1788578447.878858 [HLT] polls=32 faults=0x0 cfglost=0
1788578447.884379 [EFF] n=5 last=58595 min=58594 max=58654 late=0 stuck=0 rderr=0
1788578447.896406 [IMU] init=0 addr=0x68 who=0x68 rst=1 pmrb0=0x40 pmrb=0x1 sr=19 cfg=4 gcfg=0x0 acfg=0x8 icfg=0x30 ien=0x1 armed=1
1788578447.899787 [ACC] reads=1630 stale=1629 rderr=0 ax=59 ay=-62 az=1121
1788578447.902471 [PWR] pm=0x1 drift=0 rderr=0
1788578447.906407 [DWT] ok=1 cyc=3435512375 cyc_per_ms=799999
1788578448.921975 [HB] up_ms=37701 frames=1676 inf=1676 hazard=205 canary_err=0 q=0 qovr=0
1788578448.932968 [I2C] init=0 gate=0 whoami=0x201e0 wr=0 wrseen=0x27 addr=0x5a ok=12818 err=0 tmo=0 recov=0 pclk1=200000000 sysclk=400000000
1788578448.934338 [NAK] nacks=0
1788578448.938820 [CLK] cpu=800000000 sysb=400000000 pclk1=200000000
1788578448.943565 [TOF] res=0 step=0 id=0xeacc blk=0xeacc10 ctl=0x0
1788578448.949359 [RNG] init=0 step=99 id=0xeacc boot=1 calls=93 xerr=0 dm=1 tb=15
1788578448.956807 [RNG] osc=41 imp=881 imprb=881 mstart=0x40 cfg=91 cfgfail=0x0 vhv=0 vpolls=0
1788578448.962534 [PRT] calls=6825 xerr=0 ler=1 lidx=0x0 perr=0 maxcnt=17 addr8=0x52
1788578448.966528 [RTY] wr=0 wmax=0 wref=0  rd=0 rmax=0 rref=0
1788578448.974476 [RNG] frames=1678 last=59 min=39 max=83 nrdy=0 dxfer=0 dstat=1 lst=2 nrdyerr=0 dclr=0
1788578448.980450 [DRV] init=0 id=7 mode=0x1 lib=0x2 seq=0x1 odc=0x8b sts=0xe0 armed=1
1788578448.985663 [TRG] pulses=17 suppressed=188 cyc=1600 rst=1 rstmode=0x40
1788578448.989154 [HLT] polls=33 faults=0x0 cfglost=0
1788578448.994910 [EFF] n=5 last=58595 min=58594 max=58654 late=0 stuck=0 rderr=0
1788578449.005024 [IMU] init=0 addr=0x68 who=0x68 rst=1 pmrb0=0x40 pmrb=0x1 sr=19 cfg=4 gcfg=0x0 acfg=0x8 icfg=0x30 ien=0x1 armed=1
1788578449.010272 [ACC] reads=1680 stale=1679 rderr=0 ax=56 ay=-58 az=1124
1788578449.014443 [PWR] pm=0x1 drift=0 rderr=0
1788578449.016793 [DWT] ok=1 cyc=21479961 cyc_per_ms=800122
1788578450.032228 [HB] up_ms=38802 frames=1726 inf=1726 hazard=211 canary_err=0 q=0 qovr=0
1788578450.043223 [I2C] init=0 gate=0 whoami=0x201e0 wr=0 wrseen=0x27 addr=0x5a ok=13118 err=0 tmo=0 recov=0 pclk1=200000000 sysclk=400000000
1788578450.044544 [NAK] nacks=0
1788578450.049487 [CLK] cpu=800000000 sysb=400000000 pclk1=200000000
1788578450.053686 [TOF] res=0 step=0 id=0xeacc blk=0xeacc10 ctl=0x0
1788578450.059687 [RNG] init=0 step=99 id=0xeacc boot=1 calls=93 xerr=0 dm=1 tb=15
1788578450.066568 [RNG] osc=41 imp=881 imprb=881 mstart=0x40 cfg=91 cfgfail=0x0 vhv=0 vpolls=0
1788578450.072548 [PRT] calls=7025 xerr=0 ler=1 lidx=0x0 perr=0 maxcnt=17 addr8=0x52
1788578450.076665 [RTY] wr=0 wmax=0 wref=0  rd=0 rmax=0 rref=0
1788578450.084555 [RNG] frames=1727 last=46 min=39 max=83 nrdy=0 dxfer=0 dstat=1 lst=2 nrdyerr=0 dclr=0
1788578450.090807 [DRV] init=0 id=7 mode=0x1 lib=0x2 seq=0x1 odc=0x8b sts=0xe0 armed=1
1788578450.096041 [TRG] pulses=18 suppressed=196 cyc=1600 rst=1 rstmode=0x40
1788578450.099306 [HLT] polls=34 faults=0x0 cfglost=0
1788578450.105289 [EFF] n=5 last=58595 min=58594 max=58654 late=0 stuck=0 rderr=0
1788578450.115435 [IMU] init=0 addr=0x68 who=0x68 rst=1 pmrb0=0x40 pmrb=0x1 sr=19 cfg=4 gcfg=0x0 acfg=0x8 icfg=0x30 ien=0x1 armed=1
1788578450.120556 [ACC] reads=1730 stale=1729 rderr=0 ax=55 ay=-58 az=1122
1788578450.123171 [PWR] pm=0x1 drift=0 rderr=0
1788578450.127292 [DWT] ok=1 cyc=902148707 cyc_per_ms=799880
1788578451.143166 [HB] up_ms=39903 frames=1776 inf=1776 hazard=246 canary_err=0 q=0 qovr=0
1788578451.154426 [I2C] init=0 gate=0 whoami=0x201e0 wr=0 wrseen=0x27 addr=0x5a ok=13416 err=0 tmo=0 recov=0 pclk1=200000000 sysclk=400000000
1788578451.155666 [NAK] nacks=0
1788578451.160282 [CLK] cpu=800000000 sysb=400000000 pclk1=200000000
1788578451.164793 [TOF] res=0 step=0 id=0xeacc blk=0xeacc10 ctl=0x0
1788578451.170798 [RNG] init=0 step=99 id=0xeacc boot=1 calls=93 xerr=0 dm=1 tb=15
1788578451.177665 [RNG] osc=41 imp=881 imprb=881 mstart=0x40 cfg=91 cfgfail=0x0 vhv=0 vpolls=0
1788578451.183794 [PRT] calls=7225 xerr=0 ler=1 lidx=0x0 perr=0 maxcnt=17 addr8=0x52
1788578451.187799 [RTY] wr=0 wmax=0 wref=0  rd=0 rmax=0 rref=0
1788578451.195668 [RNG] frames=1777 last=47 min=39 max=83 nrdy=0 dxfer=0 dstat=1 lst=2 nrdyerr=0 dclr=0
1788578451.201919 [DRV] init=0 id=7 mode=0x1 lib=0x2 seq=0x1 odc=0x8b sts=0xe0 armed=1
1788578451.207162 [TRG] pulses=20 suppressed=226 cyc=1600 rst=1 rstmode=0x40
1788578451.210428 [HLT] polls=35 faults=0x0 cfglost=0
1788578451.216297 [EFF] n=5 last=58595 min=58594 max=58654 late=0 stuck=0 rderr=0
1788578451.226571 [IMU] init=0 addr=0x68 who=0x68 rst=1 pmrb0=0x40 pmrb=0x1 sr=19 cfg=4 gcfg=0x0 acfg=0x8 icfg=0x30 ien=0x1 armed=1
1788578451.231662 [ACC] reads=1780 stale=1779 rderr=0 ax=56 ay=-61 az=1120
1788578451.234287 [PWR] pm=0x1 drift=0 rderr=0
1788578451.238291 [DWT] ok=1 cyc=1782945215 cyc_per_ms=799996
1788578452.254042 [HB] up_ms=41004 frames=1826 inf=1826 hazard=246 canary_err=0 q=0 qovr=0
1788578452.265293 [I2C] init=0 gate=0 whoami=0x201e0 wr=0 wrseen=0x27 addr=0x5a ok=13718 err=0 tmo=0 recov=0 pclk1=200000000 sysclk=400000000
1788578452.266702 [NAK] nacks=0
1788578452.271290 [CLK] cpu=800000000 sysb=400000000 pclk1=200000000
1788578452.275787 [TOF] res=0 step=0 id=0xeacc blk=0xeacc10 ctl=0x0
1788578452.281659 [RNG] init=0 step=99 id=0xeacc boot=1 calls=93 xerr=0 dm=1 tb=15
1788578452.288682 [RNG] osc=41 imp=881 imprb=881 mstart=0x40 cfg=91 cfgfail=0x0 vhv=0 vpolls=0
1788578452.294667 [PRT] calls=7425 xerr=0 ler=1 lidx=0x0 perr=0 maxcnt=17 addr8=0x52
1788578452.298790 [RTY] wr=0 wmax=0 wref=0  rd=0 rmax=0 rref=0
1788578452.306542 [RNG] frames=1827 last=48 min=39 max=83 nrdy=0 dxfer=0 dstat=1 lst=2 nrdyerr=0 dclr=0
1788578452.312811 [DRV] init=0 id=7 mode=0x1 lib=0x2 seq=0x1 odc=0x8b sts=0xe0 armed=1
1788578452.318208 [TRG] pulses=20 suppressed=226 cyc=1600 rst=1 rstmode=0x40
1788578452.321511 [HLT] polls=36 faults=0x0 cfglost=0
1788578452.327174 [EFF] n=5 last=58595 min=58594 max=58654 late=0 stuck=0 rderr=0
1788578452.337572 [IMU] init=0 addr=0x68 who=0x68 rst=1 pmrb0=0x40 pmrb=0x1 sr=19 cfg=4 gcfg=0x0 acfg=0x8 icfg=0x30 ien=0x1 armed=1
1788578452.342670 [ACC] reads=1830 stale=1829 rderr=0 ax=58 ay=-65 az=1121
1788578452.345280 [PWR] pm=0x1 drift=0 rderr=0
1788578452.349310 [DWT] ok=1 cyc=2663745459 cyc_per_ms=800000
1788578453.364787 [HB] up_ms=42105 frames=1876 inf=1876 hazard=246 canary_err=0 q=0 qovr=0
1788578453.376040 [I2C] init=0 gate=0 whoami=0x201e0 wr=0 wrseen=0x27 addr=0x5a ok=14020 err=0 tmo=0 recov=0 pclk1=200000000 sysclk=400000000
1788578453.377430 [NAK] nacks=0
1788578453.381908 [CLK] cpu=800000000 sysb=400000000 pclk1=200000000
1788578453.386477 [TOF] res=0 step=0 id=0xeacc blk=0xeacc10 ctl=0x0
1788578453.392293 [RNG] init=0 step=99 id=0xeacc boot=1 calls=93 xerr=0 dm=1 tb=15
1788578453.399450 [RNG] osc=41 imp=881 imprb=881 mstart=0x40 cfg=91 cfgfail=0x0 vhv=0 vpolls=0
1788578453.405451 [PRT] calls=7625 xerr=0 ler=1 lidx=0x0 perr=0 maxcnt=17 addr8=0x52
1788578453.409404 [RTY] wr=0 wmax=0 wref=0  rd=0 rmax=0 rref=0
1788578453.417196 [RNG] frames=1877 last=53 min=39 max=83 nrdy=0 dxfer=0 dstat=1 lst=2 nrdyerr=0 dclr=0
1788578453.423525 [DRV] init=0 id=7 mode=0x1 lib=0x2 seq=0x1 odc=0x8b sts=0xe0 armed=1
1788578453.428783 [TRG] pulses=20 suppressed=226 cyc=1600 rst=1 rstmode=0x40
1788578453.432080 [HLT] polls=37 faults=0x0 cfglost=0
1788578453.437794 [EFF] n=5 last=58595 min=58594 max=58654 late=0 stuck=0 rderr=0
1788578453.448133 [IMU] init=0 addr=0x68 who=0x68 rst=1 pmrb0=0x40 pmrb=0x1 sr=19 cfg=4 gcfg=0x0 acfg=0x8 icfg=0x30 ien=0x1 armed=1
1788578453.453264 [ACC] reads=1880 stale=1879 rderr=0 ax=59 ay=-62 az=1122
1788578453.455880 [PWR] pm=0x1 drift=0 rderr=0
1788578453.459876 [DWT] ok=1 cyc=3544544987 cyc_per_ms=799999
1788578454.475434 [HB] up_ms=43206 frames=1926 inf=1926 hazard=246 canary_err=0 q=0 qovr=0
1788578454.486537 [I2C] init=0 gate=0 whoami=0x201e0 wr=0 wrseen=0x27 addr=0x5a ok=14322 err=0 tmo=0 recov=0 pclk1=200000000 sysclk=400000000
1788578454.487906 [NAK] nacks=0
1788578454.492651 [CLK] cpu=800000000 sysb=400000000 pclk1=200000000
1788578454.497158 [TOF] res=0 step=0 id=0xeacc blk=0xeacc10 ctl=0x0
1788578454.502904 [RNG] init=0 step=99 id=0xeacc boot=1 calls=93 xerr=0 dm=1 tb=15
1788578454.509907 [RNG] osc=41 imp=881 imprb=881 mstart=0x40 cfg=91 cfgfail=0x0 vhv=0 vpolls=0
1788578454.516037 [PRT] calls=7821 xerr=0 ler=1 lidx=0x0 perr=0 maxcnt=17 addr8=0x52
1788578454.520149 [RTY] wr=0 wmax=0 wref=0  rd=0 rmax=0 rref=0
1788578454.527794 [RNG] frames=1927 last=52 min=39 max=83 nrdy=0 dxfer=0 dstat=1 lst=2 nrdyerr=0 dclr=0
1788578454.534042 [DRV] init=0 id=7 mode=0x1 lib=0x2 seq=0x1 odc=0x8b sts=0xe0 armed=1
1788578454.539543 [TRG] pulses=20 suppressed=226 cyc=1600 rst=1 rstmode=0x40
1788578454.542776 [HLT] polls=38 faults=0x0 cfglost=0
1788578454.548528 [EFF] n=5 last=58595 min=58594 max=58654 late=0 stuck=0 rderr=0
1788578454.558814 [IMU] init=0 addr=0x68 who=0x68 rst=1 pmrb0=0x40 pmrb=0x1 sr=19 cfg=4 gcfg=0x0 acfg=0x8 icfg=0x30 ien=0x1 armed=1
1788578454.564107 [ACC] reads=1930 stale=1929 rderr=0 ax=57 ay=-62 az=1120
1788578454.566650 [PWR] pm=0x1 drift=0 rderr=0
1788578454.570537 [DWT] ok=1 cyc=130377791 cyc_per_ms=800000
1788578455.586669 [HB] up_ms=44307 frames=1976 inf=1976 hazard=246 canary_err=0 q=0 qovr=0
1788578455.597775 [I2C] init=0 gate=0 whoami=0x201e0 wr=0 wrseen=0x27 addr=0x5a ok=14624 err=0 tmo=0 recov=0 pclk1=200000000 sysclk=400000000
1788578455.599029 [NAK] nacks=0
1788578455.603781 [CLK] cpu=800000000 sysb=400000000 pclk1=200000000
1788578455.608412 [TOF] res=0 step=0 id=0xeacc blk=0xeacc10 ctl=0x0
1788578455.614146 [RNG] init=0 step=99 id=0xeacc boot=1 calls=93 xerr=0 dm=1 tb=15
1788578455.621159 [RNG] osc=41 imp=881 imprb=881 mstart=0x40 cfg=91 cfgfail=0x0 vhv=0 vpolls=0
1788578455.627283 [PRT] calls=8021 xerr=0 ler=1 lidx=0x0 perr=0 maxcnt=17 addr8=0x52
1788578455.631432 [RTY] wr=0 wmax=0 wref=0  rd=0 rmax=0 rref=0
1788578455.639032 [RNG] frames=1977 last=60 min=39 max=83 nrdy=0 dxfer=0 dstat=1 lst=2 nrdyerr=0 dclr=0
1788578455.645278 [DRV] init=0 id=7 mode=0x1 lib=0x2 seq=0x1 odc=0x8b sts=0xe0 armed=1
1788578455.650786 [TRG] pulses=20 suppressed=226 cyc=1600 rst=1 rstmode=0x40
1788578455.654037 [HLT] polls=39 faults=0x0 cfglost=0
1788578455.659794 [EFF] n=5 last=58595 min=58594 max=58654 late=0 stuck=0 rderr=0
1788578455.669910 [IMU] init=0 addr=0x68 who=0x68 rst=1 pmrb0=0x40 pmrb=0x1 sr=19 cfg=4 gcfg=0x0 acfg=0x8 icfg=0x30 ien=0x1 armed=1
1788578455.675292 [ACC] reads=1979 stale=1978 rderr=0 ax=59 ay=-62 az=1120
1788578455.677903 [PWR] pm=0x1 drift=0 rderr=0
1788578455.681895 [DWT] ok=1 cyc=1011206047 cyc_per_ms=800025
1788578456.698437 [HB] up_ms=45408 frames=2025 inf=2025 hazard=246 canary_err=0 q=0 qovr=0
1788578456.709431 [I2C] init=0 gate=0 whoami=0x201e0 wr=0 wrseen=0x27 addr=0x5a ok=14926 err=0 tmo=0 recov=0 pclk1=200000000 sysclk=400000000
1788578456.710780 [NAK] nacks=0
1788578456.715445 [CLK] cpu=800000000 sysb=400000000 pclk1=200000000
1788578456.720026 [TOF] res=0 step=0 id=0xeacc blk=0xeacc10 ctl=0x0
1788578456.725902 [RNG] init=0 step=99 id=0xeacc boot=1 calls=93 xerr=0 dm=1 tb=15
1788578456.732786 [RNG] osc=41 imp=881 imprb=881 mstart=0x40 cfg=91 cfgfail=0x0 vhv=0 vpolls=0
1788578456.738785 [PRT] calls=8221 xerr=0 ler=1 lidx=0x0 perr=0 maxcnt=17 addr8=0x52
1788578456.743023 [RTY] wr=0 wmax=0 wref=0  rd=0 rmax=0 rref=0
1788578456.750769 [RNG] frames=2027 last=49 min=39 max=83 nrdy=0 dxfer=0 dstat=1 lst=2 nrdyerr=0 dclr=0
1788578456.757044 [DRV] init=0 id=7 mode=0x1 lib=0x2 seq=0x1 odc=0x8b sts=0xe0 armed=1
1788578456.762262 [TRG] pulses=20 suppressed=226 cyc=1600 rst=1 rstmode=0x40
1788578456.765651 [HLT] polls=40 faults=0x0 cfglost=0
1788578456.771515 [EFF] n=5 last=58595 min=58594 max=58654 late=0 stuck=0 rderr=0
1788578456.781641 [IMU] init=0 addr=0x68 who=0x68 rst=1 pmrb0=0x40 pmrb=0x1 sr=19 cfg=4 gcfg=0x0 acfg=0x8 icfg=0x30 ien=0x1 armed=1
1788578456.786766 [ACC] reads=2029 stale=2028 rderr=0 ax=57 ay=-60 az=1121
1788578456.789647 [PWR] pm=0x1 drift=0 rderr=0
1788578456.793516 [DWT] ok=1 cyc=1892112833 cyc_per_ms=800096
1788578457.809272 [HB] up_ms=46509 frames=2075 inf=2075 hazard=281 canary_err=0 q=0 qovr=0
1788578457.820407 [I2C] init=0 gate=0 whoami=0x201e0 wr=0 wrseen=0x27 addr=0x5a ok=15223 err=0 tmo=0 recov=0 pclk1=200000000 sysclk=400000000
1788578457.821764 [NAK] nacks=0
1788578457.826278 [CLK] cpu=800000000 sysb=400000000 pclk1=200000000
1788578457.830883 [TOF] res=0 step=0 id=0xeacc blk=0xeacc10 ctl=0x0
1788578457.836911 [RNG] init=0 step=99 id=0xeacc boot=1 calls=93 xerr=0 dm=1 tb=15
1788578457.843771 [RNG] osc=41 imp=881 imprb=881 mstart=0x40 cfg=91 cfgfail=0x0 vhv=0 vpolls=0
1788578457.849780 [PRT] calls=8421 xerr=0 ler=1 lidx=0x0 perr=0 maxcnt=17 addr8=0x52
1788578457.853913 [RTY] wr=0 wmax=0 wref=0  rd=0 rmax=0 rref=0
1788578457.861645 [RNG] frames=2076 last=56 min=39 max=83 nrdy=0 dxfer=0 dstat=1 lst=2 nrdyerr=0 dclr=0
1788578457.867905 [DRV] init=0 id=7 mode=0x1 lib=0x2 seq=0x1 odc=0x8b sts=0xe0 armed=1
1788578457.873138 [TRG] pulses=23 suppressed=261 cyc=1600 rst=1 rstmode=0x40
1788578457.876415 [HLT] polls=41 faults=0x0 cfglost=0
1788578457.882398 [EFF] n=5 last=58595 min=58594 max=58654 late=0 stuck=0 rderr=0
1788578457.892513 [IMU] init=0 addr=0x68 who=0x68 rst=1 pmrb0=0x40 pmrb=0x1 sr=19 cfg=4 gcfg=0x0 acfg=0x8 icfg=0x30 ien=0x1 armed=1
1788578457.897636 [ACC] reads=2079 stale=2078 rderr=0 ax=57 ay=-63 az=1117
1788578457.900263 [PWR] pm=0x1 drift=0 rderr=0
1788578457.904421 [DWT] ok=1 cyc=2772781447 cyc_per_ms=799880
1788578458.918885 [HB] up_ms=47610 frames=2125 inf=2125 hazard=287 canary_err=0 q=0 qovr=0
1788578458.930015 [I2C] init=0 gate=0 whoami=0x201e0 wr=0 wrseen=0x27 addr=0x5a ok=15524 err=0 tmo=0 recov=0 pclk1=200000000 sysclk=400000000
1788578458.931402 [NAK] nacks=0
1788578458.936029 [CLK] cpu=800000000 sysb=400000000 pclk1=200000000
1788578458.940527 [TOF] res=0 step=0 id=0xeacc blk=0xeacc10 ctl=0x0
1788578458.946406 [RNG] init=0 step=99 id=0xeacc boot=1 calls=93 xerr=0 dm=1 tb=15
1788578458.953419 [RNG] osc=41 imp=881 imprb=881 mstart=0x40 cfg=91 cfgfail=0x0 vhv=0 vpolls=0
1788578458.959404 [PRT] calls=8621 xerr=0 ler=1 lidx=0x0 perr=0 maxcnt=17 addr8=0x52
1788578458.963529 [RTY] wr=0 wmax=0 wref=0  rd=0 rmax=0 rref=0
1788578458.971415 [RNG] frames=2126 last=59 min=39 max=83 nrdy=0 dxfer=0 dstat=1 lst=2 nrdyerr=0 dclr=0
1788578458.977512 [DRV] init=0 id=7 mode=0x1 lib=0x2 seq=0x1 odc=0x8b sts=0xe0 armed=1
1788578458.982957 [TRG] pulses=23 suppressed=264 cyc=1600 rst=1 rstmode=0x40
1788578458.986140 [HLT] polls=42 faults=0x0 cfglost=0
1788578458.991887 [EFF] n=5 last=58595 min=58594 max=58654 late=0 stuck=0 rderr=0
1788578459.002271 [IMU] init=0 addr=0x68 who=0x68 rst=1 pmrb0=0x40 pmrb=0x1 sr=19 cfg=4 gcfg=0x0 acfg=0x8 icfg=0x30 ien=0x1 armed=1
1788578459.007402 [ACC] reads=2129 stale=2128 rderr=0 ax=59 ay=-62 az=1122
1788578459.010022 [PWR] pm=0x1 drift=0 rderr=0
1788578459.014012 [DWT] ok=1 cyc=3653577735 cyc_per_ms=799996
1788578460.028892 [HB] up_ms=48711 frames=2175 inf=2175 hazard=287 canary_err=0 q=0 qovr=0
1788578460.040140 [I2C] init=0 gate=0 whoami=0x201e0 wr=0 wrseen=0x27 addr=0x5a ok=15826 err=0 tmo=0 recov=0 pclk1=200000000 sysclk=400000000
1788578460.041421 [NAK] nacks=0
1788578460.046012 [CLK] cpu=800000000 sysb=400000000 pclk1=200000000
1788578460.050520 [TOF] res=0 step=0 id=0xeacc blk=0xeacc10 ctl=0x0
1788578460.056420 [RNG] init=0 step=99 id=0xeacc boot=1 calls=93 xerr=0 dm=1 tb=15
1788578460.063508 [RNG] osc=41 imp=881 imprb=881 mstart=0x40 cfg=91 cfgfail=0x0 vhv=0 vpolls=0
1788578460.069521 [PRT] calls=8821 xerr=0 ler=1 lidx=0x0 perr=0 maxcnt=17 addr8=0x52
1788578460.073504 [RTY] wr=0 wmax=0 wref=0  rd=0 rmax=0 rref=0
1788578460.081257 [RNG] frames=2176 last=53 min=39 max=83 nrdy=0 dxfer=0 dstat=1 lst=2 nrdyerr=0 dclr=0
1788578460.087659 [DRV] init=0 id=7 mode=0x1 lib=0x2 seq=0x1 odc=0x8b sts=0xe0 armed=1
1788578460.092878 [TRG] pulses=23 suppressed=264 cyc=1600 rst=1 rstmode=0x40
1788578460.096122 [HLT] polls=43 faults=0x0 cfglost=0
1788578460.101873 [EFF] n=5 last=58595 min=58594 max=58654 late=0 stuck=0 rderr=0
1788578460.112257 [IMU] init=0 addr=0x68 who=0x68 rst=1 pmrb0=0x40 pmrb=0x1 sr=19 cfg=4 gcfg=0x0 acfg=0x8 icfg=0x30 ien=0x1 armed=1
1788578460.117451 [ACC] reads=2179 stale=2178 rderr=0 ax=58 ay=-61 az=1120
1788578460.120016 [PWR] pm=0x1 drift=0 rderr=0
1788578460.123884 [DWT] ok=1 cyc=239410487 cyc_per_ms=800000
1788578461.138501 [HB] up_ms=49812 frames=2225 inf=2225 hazard=287 canary_err=0 q=0 qovr=0
1788578461.149624 [I2C] init=0 gate=0 whoami=0x201e0 wr=0 wrseen=0x27 addr=0x5a ok=16128 err=0 tmo=0 recov=0 pclk1=200000000 sysclk=400000000
1788578461.151010 [NAK] nacks=0
1788578461.155619 [CLK] cpu=800000000 sysb=400000000 pclk1=200000000
1788578461.160120 [TOF] res=0 step=0 id=0xeacc blk=0xeacc10 ctl=0x0
1788578461.166000 [RNG] init=0 step=99 id=0xeacc boot=1 calls=93 xerr=0 dm=1 tb=15
1788578461.173003 [RNG] osc=41 imp=881 imprb=881 mstart=0x40 cfg=91 cfgfail=0x0 vhv=0 vpolls=0
1788578461.179002 [PRT] calls=9020 xerr=0 ler=1 lidx=0x0 perr=0 maxcnt=17 addr8=0x52
1788578461.183127 [RTY] wr=0 wmax=0 wref=0  rd=0 rmax=0 rref=0
1788578461.190768 [RNG] frames=2226 last=49 min=39 max=83 nrdy=0 dxfer=0 dstat=1 lst=2 nrdyerr=0 dclr=0
1788578461.197122 [DRV] init=0 id=7 mode=0x1 lib=0x2 seq=0x1 odc=0x8b sts=0xe0 armed=1
1788578461.202457 [TRG] pulses=23 suppressed=264 cyc=1600 rst=1 rstmode=0x40
1788578461.205641 [HLT] polls=44 faults=0x0 cfglost=0
1788578461.211399 [EFF] n=5 last=58595 min=58594 max=58654 late=0 stuck=0 rderr=0
1788578461.221760 [IMU] init=0 addr=0x68 who=0x68 rst=1 pmrb0=0x40 pmrb=0x1 sr=19 cfg=4 gcfg=0x0 acfg=0x8 icfg=0x30 ien=0x1 armed=1
1788578461.226877 [ACC] reads=2229 stale=2228 rderr=0 ax=56 ay=-61 az=1117
1788578461.229494 [PWR] pm=0x1 drift=0 rderr=0
1788578461.233508 [DWT] ok=1 cyc=1120210727 cyc_per_ms=800000
1788578462.248137 [HB] up_ms=50913 frames=2275 inf=2275 hazard=287 canary_err=0 q=0 qovr=0
1788578462.259122 [I2C] init=0 gate=0 whoami=0x201e0 wr=0 wrseen=0x27 addr=0x5a ok=16430 err=0 tmo=0 recov=0 pclk1=200000000 sysclk=400000000
1788578462.260505 [NAK] nacks=0
1788578462.265239 [CLK] cpu=800000000 sysb=400000000 pclk1=200000000
1788578462.269749 [TOF] res=0 step=0 id=0xeacc blk=0xeacc10 ctl=0x0
1788578462.275637 [RNG] init=0 step=99 id=0xeacc boot=1 calls=93 xerr=0 dm=1 tb=15
1788578462.282489 [RNG] osc=41 imp=881 imprb=881 mstart=0x40 cfg=91 cfgfail=0x0 vhv=0 vpolls=0
1788578462.288622 [PRT] calls=9217 xerr=0 ler=1 lidx=0x0 perr=0 maxcnt=17 addr8=0x52
1788578462.292777 [RTY] wr=0 wmax=0 wref=0  rd=0 rmax=0 rref=0
1788578462.300517 [RNG] frames=2276 last=57 min=37 max=83 nrdy=0 dxfer=0 dstat=1 lst=2 nrdyerr=0 dclr=0
1788578462.306630 [DRV] init=0 id=7 mode=0x1 lib=0x2 seq=0x1 odc=0x8b sts=0xe0 armed=1
1788578462.312114 [TRG] pulses=23 suppressed=264 cyc=1600 rst=1 rstmode=0x40
1788578462.315392 [HLT] polls=45 faults=0x0 cfglost=0
1788578462.321123 [EFF] n=5 last=58595 min=58594 max=58654 late=0 stuck=0 rderr=0
1788578462.331399 [IMU] init=0 addr=0x68 who=0x68 rst=1 pmrb0=0x40 pmrb=0x1 sr=19 cfg=4 gcfg=0x0 acfg=0x8 icfg=0x30 ien=0x1 armed=1
1788578462.336619 [ACC] reads=2279 stale=2278 rderr=0 ax=58 ay=-61 az=1122
1788578462.339244 [PWR] pm=0x1 drift=0 rderr=0
1788578462.343252 [DWT] ok=1 cyc=2001010539 cyc_per_ms=799999
1788578463.359025 [HB] up_ms=52014 frames=2324 inf=2324 hazard=287 canary_err=0 q=0 qovr=0
1788578463.369620 [I2C] init=0 gate=0 whoami=0x201e0 wr=0 wrseen=0x27 addr=0x5a ok=16732 err=0 tmo=0 recov=0 pclk1=200000000 sysclk=400000000
1788578463.370869 [NAK] nacks=0
1788578463.375627 [CLK] cpu=800000000 sysb=400000000 pclk1=200000000
1788578463.380252 [TOF] res=0 step=0 id=0xeacc blk=0xeacc10 ctl=0x0
1788578463.385995 [RNG] init=0 step=99 id=0xeacc boot=1 calls=93 xerr=0 dm=1 tb=15
1788578463.392866 [RNG] osc=41 imp=881 imprb=881 mstart=0x40 cfg=91 cfgfail=0x0 vhv=0 vpolls=0
1788578463.398998 [PRT] calls=9417 xerr=0 ler=1 lidx=0x0 perr=0 maxcnt=17 addr8=0x52
1788578463.403136 [RTY] wr=0 wmax=0 wref=0  rd=0 rmax=0 rref=0
1788578463.410864 [RNG] frames=2326 last=57 min=37 max=83 nrdy=0 dxfer=0 dstat=1 lst=2 nrdyerr=0 dclr=0
1788578463.417120 [DRV] init=0 id=7 mode=0x1 lib=0x2 seq=0x1 odc=0x8b sts=0xe0 armed=1
1788578463.422509 [TRG] pulses=23 suppressed=264 cyc=1600 rst=1 rstmode=0x40
1788578463.425753 [HLT] polls=46 faults=0x0 cfglost=0
1788578463.431503 [EFF] n=5 last=58595 min=58594 max=58654 late=0 stuck=0 rderr=0
1788578463.441742 [IMU] init=0 addr=0x68 who=0x68 rst=1 pmrb0=0x40 pmrb=0x1 sr=19 cfg=4 gcfg=0x0 acfg=0x8 icfg=0x30 ien=0x1 armed=1
1788578463.446996 [ACC] reads=2328 stale=2327 rderr=0 ax=58 ay=-61 az=1119
1788578463.449622 [PWR] pm=0x1 drift=0 rderr=0
1788578463.453625 [DWT] ok=1 cyc=2881944485 cyc_per_ms=800121
1788578464.468270 [HB] up_ms=53115 frames=2374 inf=2374 hazard=301 canary_err=0 q=0 qovr=0
1788578464.479242 [I2C] init=0 gate=0 whoami=0x201e0 wr=0 wrseen=0x27 addr=0x5a ok=17034 err=0 tmo=0 recov=0 pclk1=200000000 sysclk=400000000
1788578464.480609 [NAK] nacks=0
1788578464.485256 [CLK] cpu=800000000 sysb=400000000 pclk1=200000000
1788578464.489860 [TOF] res=0 step=0 id=0xeacc blk=0xeacc10 ctl=0x0
1788578464.495733 [RNG] init=0 step=99 id=0xeacc boot=1 calls=93 xerr=0 dm=1 tb=15
1788578464.502630 [RNG] osc=41 imp=881 imprb=881 mstart=0x40 cfg=91 cfgfail=0x0 vhv=0 vpolls=0
1788578464.508622 [PRT] calls=9617 xerr=0 ler=1 lidx=0x0 perr=0 maxcnt=17 addr8=0x52
1788578464.512744 [RTY] wr=0 wmax=0 wref=0  rd=0 rmax=0 rref=0
1788578464.520628 [RNG] frames=2375 last=51 min=37 max=83 nrdy=0 dxfer=0 dstat=1 lst=2 nrdyerr=0 dclr=0
1788578464.526742 [DRV] init=0 id=7 mode=0x1 lib=0x2 seq=0x1 odc=0x8b sts=0xe0 armed=1
1788578464.532112 [TRG] pulses=25 suppressed=279 cyc=1600 rst=1 rstmode=0x40
1788578464.535393 [HLT] polls=47 faults=0x0 cfglost=0
1788578464.541252 [EFF] n=5 last=58595 min=58594 max=58654 late=0 stuck=0 rderr=0
1788578464.551545 [IMU] init=0 addr=0x68 who=0x68 rst=1 pmrb0=0x40 pmrb=0x1 sr=19 cfg=4 gcfg=0x0 acfg=0x8 icfg=0x30 ien=0x1 armed=1
1788578464.556621 [ACC] reads=2378 stale=2377 rderr=0 ax=57 ay=-59 az=1117
1788578464.559378 [PWR] pm=0x1 drift=0 rderr=0
1788578464.563388 [DWT] ok=1 cyc=3762687175 cyc_per_ms=799947
1788578465.577241 [HB] up_ms=54216 frames=2424 inf=2424 hazard=328 canary_err=0 q=0 qovr=0
1788578465.588385 [I2C] init=0 gate=0 whoami=0x201e0 wr=0 wrseen=0x27 addr=0x5a ok=17330 err=0 tmo=0 recov=0 pclk1=200000000 sysclk=400000000
1788578465.589738 [NAK] nacks=0
1788578465.594385 [CLK] cpu=800000000 sysb=400000000 pclk1=200000000
1788578465.598864 [TOF] res=0 step=0 id=0xeacc blk=0xeacc10 ctl=0x0
1788578465.604871 [RNG] init=0 step=99 id=0xeacc boot=1 calls=93 xerr=0 dm=1 tb=15
1788578465.611733 [RNG] osc=41 imp=881 imprb=881 mstart=0x40 cfg=91 cfgfail=0x0 vhv=0 vpolls=0
1788578465.617738 [PRT] calls=9817 xerr=0 ler=1 lidx=0x0 perr=0 maxcnt=17 addr8=0x52
1788578465.621735 [RTY] wr=0 wmax=0 wref=0  rd=0 rmax=0 rref=0
1788578465.629605 [RNG] frames=2425 last=57 min=37 max=83 nrdy=0 dxfer=0 dstat=1 lst=2 nrdyerr=0 dclr=0
1788578465.635733 [DRV] init=0 id=7 mode=0x1 lib=0x2 seq=0x1 odc=0x8b sts=0xe0 armed=1
1788578465.641104 [TRG] pulses=26 suppressed=302 cyc=1600 rst=1 rstmode=0x40
1788578465.644454 [HLT] polls=48 faults=0x0 cfglost=0
1788578465.650267 [EFF] n=5 last=58595 min=58594 max=58654 late=0 stuck=0 rderr=0
1788578465.660530 [IMU] init=0 addr=0x68 who=0x68 rst=1 pmrb0=0x40 pmrb=0x1 sr=19 cfg=4 gcfg=0x0 acfg=0x8 icfg=0x30 ien=0x1 armed=1
1788578465.665489 [ACC] reads=2428 stale=2426 rderr=0 ax=56 ay=-60 az=1122
1788578465.668231 [PWR] pm=0x1 drift=0 rderr=0
1788578465.672114 [DWT] ok=1 cyc=348444075 cyc_per_ms=799931
1788578466.686391 [HB] up_ms=55317 frames=2474 inf=2474 hazard=328 canary_err=0 q=0 qovr=0
1788578466.697601 [I2C] init=0 gate=0 whoami=0x201e0 wr=0 wrseen=0x27 addr=0x5a ok=17632 err=0 tmo=0 recov=0 pclk1=200000000 sysclk=400000000
1788578466.698975 [NAK] nacks=0
1788578466.703491 [CLK] cpu=800000000 sysb=400000000 pclk1=200000000
1788578466.707975 [TOF] res=0 step=0 id=0xeacc blk=0xeacc10 ctl=0x0
1788578466.713859 [RNG] init=0 step=99 id=0xeacc boot=1 calls=93 xerr=0 dm=1 tb=15
1788578466.720866 [RNG] osc=41 imp=881 imprb=881 mstart=0x40 cfg=91 cfgfail=0x0 vhv=0 vpolls=0
1788578466.726979 [PRT] calls=10017 xerr=0 ler=1 lidx=0x0 perr=0 maxcnt=17 addr8=0x52
1788578466.731115 [RTY] wr=0 wmax=0 wref=0  rd=0 rmax=0 rref=0
1788578466.738850 [RNG] frames=2475 last=55 min=37 max=83 nrdy=0 dxfer=0 dstat=1 lst=2 nrdyerr=0 dclr=0
1788578466.745097 [DRV] init=0 id=7 mode=0x1 lib=0x2 seq=0x1 odc=0x8b sts=0xe0 armed=1
1788578466.750377 [TRG] pulses=26 suppressed=302 cyc=1600 rst=1 rstmode=0x40
1788578466.753747 [HLT] polls=49 faults=0x0 cfglost=0
1788578466.759471 [EFF] n=5 last=58595 min=58594 max=58654 late=0 stuck=0 rderr=0
1788578466.769732 [IMU] init=0 addr=0x68 who=0x68 rst=1 pmrb0=0x40 pmrb=0x1 sr=19 cfg=4 gcfg=0x0 acfg=0x8 icfg=0x30 ien=0x1 armed=1
1788578466.774885 [ACC] reads=2478 stale=2476 rderr=0 ax=62 ay=-70 az=1113
1788578466.777483 [PWR] pm=0x1 drift=0 rderr=0
1788578466.781486 [DWT] ok=1 cyc=1229313439 cyc_per_ms=800063
1788578467.795485 [HB] up_ms=56418 frames=2524 inf=2524 hazard=328 canary_err=0 q=0 qovr=0
1788578467.806726 [I2C] init=0 gate=0 whoami=0x201e0 wr=0 wrseen=0x27 addr=0x5a ok=17934 err=0 tmo=0 recov=0 pclk1=200000000 sysclk=400000000
1788578467.807974 [NAK] nacks=0
1788578467.812596 [CLK] cpu=800000000 sysb=400000000 pclk1=200000000
1788578467.817141 [TOF] res=0 step=0 id=0xeacc blk=0xeacc10 ctl=0x0
1788578467.822979 [RNG] init=0 step=99 id=0xeacc boot=1 calls=93 xerr=0 dm=1 tb=15
1788578467.829977 [RNG] osc=41 imp=881 imprb=881 mstart=0x40 cfg=91 cfgfail=0x0 vhv=0 vpolls=0
1788578467.836110 [PRT] calls=10217 xerr=0 ler=1 lidx=0x0 perr=0 maxcnt=17 addr8=0x52
1788578467.840126 [RTY] wr=0 wmax=0 wref=0  rd=0 rmax=0 rref=0
1788578467.847854 [RNG] frames=2525 last=65 min=37 max=83 nrdy=0 dxfer=0 dstat=1 lst=2 nrdyerr=0 dclr=0
1788578467.854221 [DRV] init=0 id=7 mode=0x1 lib=0x2 seq=0x1 odc=0x8b sts=0xe0 armed=1
1788578467.859474 [TRG] pulses=26 suppressed=302 cyc=1600 rst=1 rstmode=0x40
1788578467.862725 [HLT] polls=50 faults=0x0 cfglost=0
1788578467.868502 [EFF] n=5 last=58595 min=58594 max=58654 late=0 stuck=0 rderr=0
1788578467.878852 [IMU] init=0 addr=0x68 who=0x68 rst=1 pmrb0=0x40 pmrb=0x1 sr=19 cfg=4 gcfg=0x0 acfg=0x8 icfg=0x30 ien=0x1 armed=1
1788578467.883992 [ACC] reads=2528 stale=2526 rderr=0 ax=63 ay=-69 az=1124
1788578467.886605 [PWR] pm=0x1 drift=0 rderr=0
1788578467.890593 [DWT] ok=1 cyc=2110113115 cyc_per_ms=799999
1788578468.904732 [HB] up_ms=57519 frames=2573 inf=2573 hazard=328 canary_err=0 q=0 qovr=0
1788578468.915732 [I2C] init=0 gate=0 whoami=0x201e0 wr=0 wrseen=0x27 addr=0x5a ok=18236 err=0 tmo=0 recov=1 pclk1=200000000 sysclk=400000000
1788578468.917100 [NAK] nacks=0
1788578468.921724 [CLK] cpu=800000000 sysb=400000000 pclk1=200000000
1788578468.926378 [TOF] res=0 step=0 id=0xeacc blk=0xeacc10 ctl=0x0
1788578468.932223 [RNG] init=0 step=99 id=0xeacc boot=1 calls=93 xerr=0 dm=1 tb=15
1788578468.939107 [RNG] osc=41 imp=881 imprb=881 mstart=0x40 cfg=91 cfgfail=0x0 vhv=0 vpolls=0
1788578468.945222 [PRT] calls=10413 xerr=0 ler=1 lidx=0x0 perr=0 maxcnt=17 addr8=0x52
1788578468.949473 [RTY] wr=0 wmax=0 wref=0  rd=0 rmax=0 rref=0
1788578468.957107 [RNG] frames=2575 last=62 min=37 max=83 nrdy=0 dxfer=0 dstat=1 lst=2 nrdyerr=0 dclr=0
1788578468.963371 [DRV] init=0 id=7 mode=0x1 lib=0x2 seq=0x1 odc=0x8b sts=0xe0 armed=1
1788578468.968601 [TRG] pulses=26 suppressed=302 cyc=1600 rst=1 rstmode=0x40
1788578468.972106 [HLT] polls=51 faults=0x0 cfglost=0
1788578468.977857 [EFF] n=5 last=58595 min=58594 max=58654 late=0 stuck=0 rderr=0
1788578468.987972 [IMU] init=0 addr=0x68 who=0x68 rst=1 pmrb0=0x40 pmrb=0x1 sr=19 cfg=4 gcfg=0x0 acfg=0x8 icfg=0x30 ien=0x1 armed=1
1788578468.993219 [ACC] reads=2577 stale=2575 rderr=0 ax=55 ay=-58 az=1120
1788578468.995843 [PWR] pm=0x1 drift=0 rderr=0
1788578469.000111 [DWT] ok=1 cyc=2991047853 cyc_per_ms=800122
1788578470.015093 [HB] up_ms=58621 frames=2623 inf=2623 hazard=328 canary_err=0 q=0 qovr=0
1788578470.026100 [I2C] init=0 gate=0 whoami=0x201e0 wr=0 wrseen=0x27 addr=0x5a ok=18538 err=0 tmo=0 recov=1 pclk1=200000000 sysclk=400000000
1788578470.027476 [NAK] nacks=0
1788578470.032083 [CLK] cpu=800000000 sysb=400000000 pclk1=200000000
1788578470.036592 [TOF] res=0 step=0 id=0xeacc blk=0xeacc10 ctl=0x0
1788578470.042587 [RNG] init=0 step=99 id=0xeacc boot=1 calls=93 xerr=0 dm=1 tb=15
1788578470.049473 [RNG] osc=41 imp=881 imprb=881 mstart=0x40 cfg=91 cfgfail=0x0 vhv=0 vpolls=0
1788578470.055684 [PRT] calls=10613 xerr=0 ler=1 lidx=0x0 perr=0 maxcnt=17 addr8=0x52
1788578470.059713 [RTY] wr=0 wmax=0 wref=0  rd=0 rmax=0 rref=0
1788578470.067484 [RNG] frames=2624 last=58 min=37 max=83 nrdy=0 dxfer=0 dstat=1 lst=2 nrdyerr=0 dclr=0
1788578470.073719 [DRV] init=0 id=7 mode=0x1 lib=0x2 seq=0x1 odc=0x8b sts=0xe0 armed=1
1788578470.078981 [TRG] pulses=26 suppressed=302 cyc=1600 rst=1 rstmode=0x40
1788578470.082217 [HLT] polls=52 faults=0x0 cfglost=0
1788578470.088096 [EFF] n=5 last=58595 min=58594 max=58654 late=0 stuck=0 rderr=0
1788578470.098375 [IMU] init=0 addr=0x68 who=0x68 rst=1 pmrb0=0x40 pmrb=0x1 sr=19 cfg=4 gcfg=0x0 acfg=0x8 icfg=0x30 ien=0x1 armed=1
1788578470.103473 [ACC] reads=2627 stale=2625 rderr=0 ax=54 ay=-61 az=1122
1788578470.106214 [PWR] pm=0x1 drift=0 rderr=0
1788578470.110210 [DWT] ok=1 cyc=3872585579 cyc_per_ms=799943
1788578471.125095 [HB] up_ms=59723 frames=2673 inf=2673 hazard=328 canary_err=0 q=0 qovr=0
1788578471.136381 [I2C] init=0 gate=0 whoami=0x201e0 wr=0 wrseen=0x27 addr=0x5a ok=18834 err=0 tmo=0 recov=1 pclk1=200000000 sysclk=400000000
1788578471.137589 [NAK] nacks=0
1788578471.142207 [CLK] cpu=800000000 sysb=400000000 pclk1=200000000
1788578471.146706 [TOF] res=0 step=0 id=0xeacc blk=0xeacc10 ctl=0x0
1788578471.152707 [RNG] init=0 step=99 id=0xeacc boot=1 calls=93 xerr=0 dm=1 tb=15
1788578471.159594 [RNG] osc=41 imp=881 imprb=881 mstart=0x40 cfg=91 cfgfail=0x0 vhv=0 vpolls=0
1788578471.165721 [PRT] calls=10813 xerr=0 ler=1 lidx=0x0 perr=0 maxcnt=17 addr8=0x52
1788578471.169837 [RTY] wr=0 wmax=0 wref=0  rd=0 rmax=0 rref=0
1788578471.177584 [RNG] frames=2674 last=53 min=37 max=83 nrdy=0 dxfer=0 dstat=1 lst=2 nrdyerr=0 dclr=0
1788578471.183852 [DRV] init=0 id=7 mode=0x1 lib=0x2 seq=0x1 odc=0x8b sts=0xe0 armed=1
1788578471.189088 [TRG] pulses=26 suppressed=302 cyc=1600 rst=1 rstmode=0x40
1788578471.192467 [HLT] polls=53 faults=0x0 cfglost=0
1788578471.198364 [EFF] n=5 last=58595 min=58594 max=58654 late=0 stuck=0 rderr=0
1788578471.208466 [IMU] init=0 addr=0x68 who=0x68 rst=1 pmrb0=0x40 pmrb=0x1 sr=19 cfg=4 gcfg=0x0 acfg=0x8 icfg=0x30 ien=0x1 armed=1
1788578471.213601 [ACC] reads=2677 stale=2675 rderr=0 ax=56 ay=-59 az=1117
1788578471.216214 [PWR] pm=0x1 drift=0 rderr=0
1788578471.220372 [DWT] ok=1 cyc=459146227 cyc_per_ms=799934
1788578472.234364 [HB] up_ms=60824 frames=2723 inf=2723 hazard=369 canary_err=0 q=0 qovr=0
1788578472.245481 [I2C] init=0 gate=0 whoami=0x201e0 wr=0 wrseen=0x27 addr=0x5a ok=19136 err=0 tmo=0 recov=1 pclk1=200000000 sysclk=400000000
1788578472.246844 [NAK] nacks=0
1788578472.251484 [CLK] cpu=800000000 sysb=400000000 pclk1=200000000
1788578472.255962 [TOF] res=0 step=0 id=0xeacc blk=0xeacc10 ctl=0x0
1788578472.261870 [RNG] init=0 step=99 id=0xeacc boot=1 calls=93 xerr=0 dm=1 tb=15
1788578472.268840 [RNG] osc=41 imp=881 imprb=881 mstart=0x40 cfg=91 cfgfail=0x0 vhv=0 vpolls=0
1788578472.274961 [PRT] calls=11013 xerr=0 ler=1 lidx=0x0 perr=0 maxcnt=17 addr8=0x52
1788578472.278966 [RTY] wr=0 wmax=0 wref=0  rd=0 rmax=0 rref=0
1788578472.286834 [RNG] frames=2724 last=47 min=37 max=83 nrdy=0 dxfer=0 dstat=1 lst=2 nrdyerr=0 dclr=0
1788578472.293088 [DRV] init=0 id=7 mode=0x1 lib=0x2 seq=0x1 odc=0x8b sts=0xe0 armed=1
1788578472.298349 [TRG] pulses=29 suppressed=340 cyc=1600 rst=1 rstmode=0x40
1788578472.301588 [HLT] polls=54 faults=0x0 cfglost=0
1788578472.307351 [EFF] n=5 last=58595 min=58594 max=58654 late=0 stuck=0 rderr=0
1788578472.317720 [IMU] init=0 addr=0x68 who=0x68 rst=1 pmrb0=0x40 pmrb=0x1 sr=19 cfg=4 gcfg=0x0 acfg=0x8 icfg=0x30 ien=0x1 armed=1
1788578472.322842 [ACC] reads=2727 stale=2725 rderr=0 ax=55 ay=-58 az=1123
1788578472.325470 [PWR] pm=0x1 drift=0 rderr=0
1788578472.329459 [DWT] ok=1 cyc=1339946179 cyc_per_ms=799999
1788578473.343463 [HB] up_ms=61925 frames=2773 inf=2773 hazard=369 canary_err=0 q=0 qovr=0
1788578473.354716 [I2C] init=0 gate=0 whoami=0x201e0 wr=0 wrseen=0x27 addr=0x5a ok=19438 err=0 tmo=0 recov=1 pclk1=200000000 sysclk=400000000
1788578473.355964 [NAK] nacks=0
1788578473.360581 [CLK] cpu=800000000 sysb=400000000 pclk1=200000000
1788578473.365087 [TOF] res=0 step=0 id=0xeacc blk=0xeacc10 ctl=0x0
1788578473.370959 [RNG] init=0 step=99 id=0xeacc boot=1 calls=93 xerr=0 dm=1 tb=15
1788578473.377955 [RNG] osc=41 imp=881 imprb=881 mstart=0x40 cfg=91 cfgfail=0x0 vhv=0 vpolls=0
1788578473.384123 [PRT] calls=11213 xerr=0 ler=1 lidx=0x0 perr=0 maxcnt=17 addr8=0x52
1788578473.388085 [RTY] wr=0 wmax=0 wref=0  rd=0 rmax=0 rref=0
1788578473.395827 [RNG] frames=2774 last=41 min=37 max=83 nrdy=0 dxfer=0 dstat=1 lst=2 nrdyerr=0 dclr=0
1788578473.402206 [DRV] init=0 id=7 mode=0x1 lib=0x2 seq=0x1 odc=0x8b sts=0xe0 armed=1
1788578473.407451 [TRG] pulses=29 suppressed=340 cyc=1600 rst=1 rstmode=0x40
1788578473.410699 [HLT] polls=55 faults=0x0 cfglost=0
1788578473.416459 [EFF] n=5 last=58595 min=58594 max=58654 late=0 stuck=0 rderr=0
1788578473.426837 [IMU] init=0 addr=0x68 who=0x68 rst=1 pmrb0=0x40 pmrb=0x1 sr=19 cfg=4 gcfg=0x0 acfg=0x8 icfg=0x30 ien=0x1 armed=1
1788578473.431951 [ACC] reads=2777 stale=2775 rderr=0 ax=56 ay=-62 az=1121
1788578473.434582 [PWR] pm=0x1 drift=0 rderr=0
1788578473.438578 [DWT] ok=1 cyc=2220745851 cyc_per_ms=799999
1788578474.452316 [HB] up_ms=63026 frames=2823 inf=2823 hazard=369 canary_err=0 q=0 qovr=0
1788578474.463460 [I2C] init=0 gate=0 whoami=0x201e0 wr=0 wrseen=0x27 addr=0x5a ok=19740 err=0 tmo=0 recov=1 pclk1=200000000 sysclk=400000000
1788578474.464825 [NAK] nacks=0
1788578474.469450 [CLK] cpu=800000000 sysb=400000000 pclk1=200000000
1788578474.473961 [TOF] res=0 step=0 id=0xeacc blk=0xeacc10 ctl=0x0
1788578474.479830 [RNG] init=0 step=99 id=0xeacc boot=1 calls=93 xerr=0 dm=1 tb=15
1788578474.486838 [RNG] osc=41 imp=881 imprb=881 mstart=0x40 cfg=91 cfgfail=0x0 vhv=0 vpolls=0
1788578474.492948 [PRT] calls=11409 xerr=0 ler=1 lidx=0x0 perr=0 maxcnt=17 addr8=0x52
1788578474.497075 [RTY] wr=0 wmax=0 wref=0  rd=0 rmax=0 rref=0
1788578474.504702 [RNG] frames=2824 last=43 min=37 max=83 nrdy=0 dxfer=0 dstat=1 lst=2 nrdyerr=0 dclr=0
1788578474.511072 [DRV] init=0 id=7 mode=0x1 lib=0x2 seq=0x1 odc=0x8b sts=0xe0 armed=1
1788578474.516455 [TRG] pulses=29 suppressed=340 cyc=1600 rst=1 rstmode=0x40
1788578474.519708 [HLT] polls=56 faults=0x0 cfglost=0
1788578474.525459 [EFF] n=5 last=58595 min=58594 max=58654 late=0 stuck=0 rderr=0
1788578474.535702 [IMU] init=0 addr=0x68 who=0x68 rst=1 pmrb0=0x40 pmrb=0x1 sr=19 cfg=4 gcfg=0x0 acfg=0x8 icfg=0x30 ien=0x1 armed=1
1788578474.540827 [ACC] reads=2827 stale=2825 rderr=0 ax=54 ay=-58 az=1122
1788578474.543578 [PWR] pm=0x1 drift=0 rderr=0
1788578474.547456 [DWT] ok=1 cyc=3101546007 cyc_per_ms=800000
1788578475.561084 [HB] up_ms=64127 frames=2873 inf=2873 hazard=369 canary_err=0 q=0 qovr=0
1788578475.572226 [I2C] init=0 gate=0 whoami=0x201e0 wr=0 wrseen=0x27 addr=0x5a ok=20042 err=0 tmo=0 recov=1 pclk1=200000000 sysclk=400000000
1788578475.573450 [NAK] nacks=0
1788578475.578199 [CLK] cpu=800000000 sysb=400000000 pclk1=200000000
1788578475.582704 [TOF] res=0 step=0 id=0xeacc blk=0xeacc10 ctl=0x0
1788578475.588591 [RNG] init=0 step=99 id=0xeacc boot=1 calls=93 xerr=0 dm=1 tb=15
1788578475.595440 [RNG] osc=41 imp=881 imprb=881 mstart=0x40 cfg=91 cfgfail=0x0 vhv=0 vpolls=0
1788578475.601700 [PRT] calls=11609 xerr=0 ler=1 lidx=0x0 perr=0 maxcnt=17 addr8=0x52
1788578475.605815 [RTY] wr=0 wmax=0 wref=0  rd=0 rmax=0 rref=0
1788578475.613441 [RNG] frames=2874 last=58 min=37 max=83 nrdy=0 dxfer=0 dstat=1 lst=2 nrdyerr=0 dclr=0
1788578475.619703 [DRV] init=0 id=7 mode=0x1 lib=0x2 seq=0x1 odc=0x8b sts=0xe0 armed=1
1788578475.625200 [TRG] pulses=29 suppressed=340 cyc=1600 rst=1 rstmode=0x40
1788578475.628437 [HLT] polls=57 faults=0x0 cfglost=0
1788578475.634276 [EFF] n=5 last=58595 min=58594 max=58654 late=0 stuck=0 rderr=0
1788578475.644339 [IMU] init=0 addr=0x68 who=0x68 rst=1 pmrb0=0x40 pmrb=0x1 sr=19 cfg=4 gcfg=0x0 acfg=0x8 icfg=0x30 ien=0x1 armed=1
1788578475.649575 [ACC] reads=2876 stale=2874 rderr=0 ax=54 ay=-59 az=1121
1788578475.652212 [PWR] pm=0x1 drift=0 rderr=0
1788578475.656218 [DWT] ok=1 cyc=3982346095 cyc_per_ms=800000
1788578476.670148 [HB] up_ms=65228 frames=2922 inf=2922 hazard=369 canary_err=0 q=0 qovr=0
1788578476.682640 [I2C] init=0 gate=0 whoami=0x201e0 wr=0 wrseen=0x27 addr=0x5a ok=20344 err=0 tmo=0 recov=1 pclk1=200000000 sysclk=400000000
1788578476.682793 [NAK] nacks=0
1788578476.686921 [CLK] cpu=800000000 sysb=400000000 pclk1=200000000
1788578476.691663 [TOF] res=0 step=0 id=0xeacc blk=0xeacc10 ctl=0x0
1788578476.697412 [RNG] init=0 step=99 id=0xeacc boot=1 calls=93 xerr=0 dm=1 tb=15
1788578476.704285 [RNG] osc=41 imp=881 imprb=881 mstart=0x40 cfg=91 cfgfail=0x0 vhv=0 vpolls=0
1788578476.710411 [PRT] calls=11809 xerr=0 ler=1 lidx=0x0 perr=0 maxcnt=17 addr8=0x52
1788578476.714691 [RTY] wr=0 wmax=0 wref=0  rd=0 rmax=0 rref=0
1788578476.722292 [RNG] frames=2924 last=50 min=37 max=83 nrdy=0 dxfer=0 dstat=1 lst=2 nrdyerr=0 dclr=0
1788578476.728551 [DRV] init=0 id=7 mode=0x1 lib=0x2 seq=0x1 odc=0x8b sts=0xe0 armed=1
1788578476.733822 [TRG] pulses=29 suppressed=340 cyc=1600 rst=1 rstmode=0x40
1788578476.737346 [HLT] polls=58 faults=0x0 cfglost=0
1788578476.743069 [EFF] n=5 last=58595 min=58594 max=58654 late=0 stuck=0 rderr=0
1788578476.753183 [IMU] init=0 addr=0x68 who=0x68 rst=1 pmrb0=0x40 pmrb=0x1 sr=19 cfg=4 gcfg=0x0 acfg=0x8 icfg=0x30 ien=0x1 armed=1
1788578476.758450 [ACC] reads=2926 stale=2924 rderr=0 ax=55 ay=-60 az=1122
1788578476.761051 [PWR] pm=0x1 drift=0 rderr=0
1788578476.765079 [DWT] ok=1 cyc=568313509 cyc_per_ms=800122
1788578477.778567 [HB] up_ms=66329 frames=2972 inf=2972 hazard=369 canary_err=0 q=0 qovr=0
1788578477.789691 [I2C] init=0 gate=0 whoami=0x201e0 wr=0 wrseen=0x27 addr=0x5a ok=20644 err=0 tmo=0 recov=1 pclk1=200000000 sysclk=400000000
1788578477.790937 [NAK] nacks=0
1788578477.795554 [CLK] cpu=800000000 sysb=400000000 pclk1=200000000
1788578477.800072 [TOF] res=0 step=0 id=0xeacc blk=0xeacc10 ctl=0x0
1788578477.806060 [RNG] init=0 step=99 id=0xeacc boot=1 calls=93 xerr=0 dm=1 tb=15
1788578477.812981 [RNG] osc=41 imp=881 imprb=881 mstart=0x40 cfg=91 cfgfail=0x0 vhv=0 vpolls=0
1788578477.819069 [PRT] calls=12009 xerr=0 ler=1 lidx=0x0 perr=0 maxcnt=17 addr8=0x52
1788578477.823065 [RTY] wr=0 wmax=0 wref=0  rd=0 rmax=0 rref=0
1788578477.830950 [RNG] frames=2973 last=47 min=37 max=83 nrdy=0 dxfer=0 dstat=1 lst=2 nrdyerr=0 dclr=0
1788578477.837184 [DRV] init=0 id=7 mode=0x1 lib=0x2 seq=0x1 odc=0x8b sts=0xe0 armed=1
1788578477.842450 [TRG] pulses=29 suppressed=340 cyc=1600 rst=1 rstmode=0x40
1788578477.845693 [HLT] polls=59 faults=0x0 cfglost=0
1788578477.851687 [EFF] n=5 last=58595 min=58594 max=58654 late=0 stuck=0 rderr=0
1788578477.861810 [IMU] init=0 addr=0x68 who=0x68 rst=1 pmrb0=0x40 pmrb=0x1 sr=19 cfg=4 gcfg=0x0 acfg=0x8 icfg=0x30 ien=0x1 armed=1
1788578477.866936 [ACC] reads=2976 stale=2974 rderr=0 ax=51 ay=-58 az=1120
1788578477.869566 [PWR] pm=0x1 drift=0 rderr=0
1788578477.873690 [DWT] ok=1 cyc=1448978635 cyc_per_ms=799877
1788578478.888447 [HB] up_ms=67431 frames=3022 inf=3022 hazard=391 canary_err=0 q=0 qovr=0
1788578478.899554 [I2C] init=0 gate=0 whoami=0x201e0 wr=0 wrseen=0x27 addr=0x5a ok=20942 err=0 tmo=0 recov=2 pclk1=200000000 sysclk=400000000
1788578478.900965 [NAK] nacks=0
1788578478.905562 [CLK] cpu=800000000 sysb=400000000 pclk1=200000000
1788578478.910060 [TOF] res=0 step=0 id=0xeacc blk=0xeacc10 ctl=0x0
1788578478.915820 [RNG] init=0 step=99 id=0xeacc boot=1 calls=93 xerr=0 dm=1 tb=15
1788578478.922941 [RNG] osc=41 imp=881 imprb=881 mstart=0x40 cfg=91 cfgfail=0x0 vhv=0 vpolls=0
1788578478.929061 [PRT] calls=12209 xerr=0 ler=1 lidx=0x0 perr=0 maxcnt=17 addr8=0x52
1788578478.933062 [RTY] wr=0 wmax=0 wref=0  rd=0 rmax=0 rref=0
1788578478.940808 [RNG] frames=3023 last=56 min=37 max=83 nrdy=0 dxfer=0 dstat=1 lst=2 nrdyerr=0 dclr=0
1788578478.947057 [DRV] init=0 id=7 mode=0x1 lib=0x2 seq=0x1 odc=0x8b sts=0xe0 armed=1
1788578478.952429 [TRG] pulses=31 suppressed=363 cyc=1600 rst=1 rstmode=0x40
1788578478.955687 [HLT] polls=60 faults=0x0 cfglost=0
1788578478.961428 [EFF] n=5 last=58595 min=58594 max=58654 late=0 stuck=0 rderr=0
1788578478.971831 [IMU] init=0 addr=0x68 who=0x68 rst=1 pmrb0=0x40 pmrb=0x1 sr=19 cfg=4 gcfg=0x0 acfg=0x8 icfg=0x30 ien=0x1 armed=1
1788578478.976935 [ACC] reads=3026 stale=3024 rderr=0 ax=53 ay=-60 az=1122
1788578478.979549 [PWR] pm=0x1 drift=0 rderr=0
1788578478.983560 [DWT] ok=1 cyc=2330582147 cyc_per_ms=800003
1788578479.997453 [HB] up_ms=68532 frames=3072 inf=3072 hazard=410 canary_err=0 q=0 qovr=0
1788578480.008428 [I2C] init=0 gate=0 whoami=0x201e0 wr=0 wrseen=0x27 addr=0x5a ok=21244 err=0 tmo=0 recov=2 pclk1=200000000 sysclk=400000000
1788578480.020715 [NAK] nacks=0
1788578480.020847 [CLK] cpu=800000000 sysb=400000000 pclk1=200000000
1788578480.020920 [TOF] res=0 step=0 id=0xeacc blk=0xeacc10 ctl=0x0
1788578480.024813 [RNG] init=0 step=99 id=0xeacc boot=1 calls=93 xerr=0 dm=1 tb=15
1788578480.031807 [RNG] osc=41 imp=881 imprb=881 mstart=0x40 cfg=91 cfgfail=0x0 vhv=0 vpolls=0
1788578480.037921 [PRT] calls=12405 xerr=0 ler=1 lidx=0x0 perr=0 maxcnt=17 addr8=0x52
1788578480.042054 [RTY] wr=0 wmax=0 wref=0  rd=0 rmax=0 rref=0
1788578480.049821 [RNG] frames=3073 last=58 min=37 max=83 nrdy=0 dxfer=0 dstat=1 lst=2 nrdyerr=0 dclr=0
1788578480.056076 [DRV] init=0 id=7 mode=0x1 lib=0x2 seq=0x1 odc=0x8b sts=0xe0 armed=1
1788578480.061433 [TRG] pulses=32 suppressed=378 cyc=1600 rst=1 rstmode=0x40
1788578480.064683 [HLT] polls=61 faults=0x0 cfglost=0
1788578480.070439 [EFF] n=5 last=58595 min=58594 max=58654 late=0 stuck=0 rderr=0
1788578480.080808 [IMU] init=0 addr=0x68 who=0x68 rst=1 pmrb0=0x40 pmrb=0x1 sr=19 cfg=4 gcfg=0x0 acfg=0x8 icfg=0x30 ien=0x1 armed=1
1788578480.085931 [ACC] reads=3076 stale=3074 rderr=0 ax=53 ay=-61 az=1122
1788578480.088563 [PWR] pm=0x1 drift=0 rderr=0
1788578480.092550 [DWT] ok=1 cyc=3211378755 cyc_per_ms=799996
1788578481.105943 [HB] up_ms=69633 frames=3122 inf=3122 hazard=410 canary_err=0 q=0 qovr=0
1788578481.116928 [I2C] init=0 gate=0 whoami=0x201e0 wr=0 wrseen=0x27 addr=0x5a ok=21546 err=0 tmo=0 recov=2 pclk1=200000000 sysclk=400000000
1788578481.118393 [NAK] nacks=0
1788578481.123071 [CLK] cpu=800000000 sysb=400000000 pclk1=200000000
1788578481.127559 [TOF] res=0 step=0 id=0xeacc blk=0xeacc10 ctl=0x0
1788578481.133425 [RNG] init=0 step=99 id=0xeacc boot=1 calls=93 xerr=0 dm=1 tb=15
1788578481.140305 [RNG] osc=41 imp=881 imprb=881 mstart=0x40 cfg=91 cfgfail=0x0 vhv=0 vpolls=0
1788578481.146548 [PRT] calls=12605 xerr=0 ler=1 lidx=0x0 perr=0 maxcnt=17 addr8=0x52
1788578481.150581 [RTY] wr=0 wmax=0 wref=0  rd=0 rmax=0 rref=0
1788578481.158299 [RNG] frames=3123 last=56 min=37 max=83 nrdy=0 dxfer=0 dstat=1 lst=2 nrdyerr=0 dclr=0
1788578481.164424 [DRV] init=0 id=7 mode=0x1 lib=0x2 seq=0x1 odc=0x8b sts=0xe0 armed=1
1788578481.169924 [TRG] pulses=32 suppressed=378 cyc=1600 rst=1 rstmode=0x40
1788578481.173214 [HLT] polls=62 faults=0x0 cfglost=0
1788578481.178923 [EFF] n=5 last=58595 min=58594 max=58654 late=0 stuck=0 rderr=0
1788578481.189051 [IMU] init=0 addr=0x68 who=0x68 rst=1 pmrb0=0x40 pmrb=0x1 sr=19 cfg=4 gcfg=0x0 acfg=0x8 icfg=0x30 ien=0x1 armed=1
1788578481.194299 [ACC] reads=3125 stale=3123 rderr=0 ax=52 ay=-57 az=1121
1788578481.197045 [PWR] pm=0x1 drift=0 rderr=0
1788578481.200975 [DWT] ok=1 cyc=4092178803 cyc_per_ms=800000
1788578482.214431 [HB] up_ms=70734 frames=3171 inf=3171 hazard=410 canary_err=0 q=0 qovr=0
1788578482.225583 [I2C] init=0 gate=0 whoami=0x201e0 wr=0 wrseen=0x27 addr=0x5a ok=21848 err=0 tmo=0 recov=2 pclk1=200000000 sysclk=400000000
1788578482.226794 [NAK] nacks=0
1788578482.231424 [CLK] cpu=800000000 sysb=400000000 pclk1=200000000
1788578482.236051 [TOF] res=0 step=0 id=0xeacc blk=0xeacc10 ctl=0x0
1788578482.241929 [RNG] init=0 step=99 id=0xeacc boot=1 calls=93 xerr=0 dm=1 tb=15
1788578482.248791 [RNG] osc=41 imp=881 imprb=881 mstart=0x40 cfg=91 cfgfail=0x0 vhv=0 vpolls=0
1788578482.254917 [PRT] calls=12805 xerr=0 ler=1 lidx=0x0 perr=0 maxcnt=17 addr8=0x52
1788578482.259168 [RTY] wr=0 wmax=0 wref=0  rd=0 rmax=0 rref=0
1788578482.266806 [RNG] frames=3173 last=61 min=37 max=83 nrdy=0 dxfer=0 dstat=1 lst=2 nrdyerr=0 dclr=0
1788578482.273046 [DRV] init=0 id=7 mode=0x1 lib=0x2 seq=0x1 odc=0x8b sts=0xe0 armed=1
1788578482.278293 [TRG] pulses=32 suppressed=378 cyc=1600 rst=1 rstmode=0x40
1788578482.281669 [HLT] polls=63 faults=0x0 cfglost=0
1788578482.287428 [EFF] n=5 last=58595 min=58594 max=58654 late=0 stuck=0 rderr=0
1788578482.297661 [IMU] init=0 addr=0x68 who=0x68 rst=1 pmrb0=0x40 pmrb=0x1 sr=19 cfg=4 gcfg=0x0 acfg=0x8 icfg=0x30 ien=0x1 armed=1
1788578482.302932 [ACC] reads=3175 stale=3173 rderr=0 ax=54 ay=-58 az=1122
1788578482.305546 [PWR] pm=0x1 drift=0 rderr=0
1788578482.309429 [DWT] ok=1 cyc=678146189 cyc_per_ms=800122
1788578483.323178 [HB] up_ms=71835 frames=3221 inf=3221 hazard=410 canary_err=0 q=0 qovr=0
1788578483.334308 [I2C] init=0 gate=0 whoami=0x201e0 wr=0 wrseen=0x27 addr=0x5a ok=22148 err=0 tmo=0 recov=2 pclk1=200000000 sysclk=400000000
1788578483.335673 [NAK] nacks=0
1788578483.340166 [CLK] cpu=800000000 sysb=400000000 pclk1=200000000
1788578483.344661 [TOF] res=0 step=0 id=0xeacc blk=0xeacc10 ctl=0x0
1788578483.350923 [RNG] init=0 step=99 id=0xeacc boot=1 calls=93 xerr=0 dm=1 tb=15
1788578483.357545 [RNG] osc=41 imp=881 imprb=881 mstart=0x40 cfg=91 cfgfail=0x0 vhv=0 vpolls=0
1788578483.363666 [PRT] calls=13005 xerr=0 ler=1 lidx=0x0 perr=0 maxcnt=17 addr8=0x52
1788578483.367901 [RTY] wr=0 wmax=0 wref=0  rd=0 rmax=0 rref=0
1788578483.375539 [RNG] frames=3222 last=60 min=37 max=83 nrdy=0 dxfer=0 dstat=1 lst=2 nrdyerr=0 dclr=0
1788578483.381784 [DRV] init=0 id=7 mode=0x1 lib=0x2 seq=0x1 odc=0x8b sts=0xe0 armed=1
1788578483.387037 [TRG] pulses=32 suppressed=378 cyc=1600 rst=1 rstmode=0x40
1788578483.390287 [HLT] polls=64 faults=0x0 cfglost=0
1788578483.396160 [EFF] n=5 last=58595 min=58594 max=58654 late=0 stuck=0 rderr=0
1788578483.406437 [IMU] init=0 addr=0x68 who=0x68 rst=1 pmrb0=0x40 pmrb=0x1 sr=19 cfg=4 gcfg=0x0 acfg=0x8 icfg=0x30 ien=0x1 armed=1
1788578483.411544 [ACC] reads=3225 stale=3223 rderr=0 ax=55 ay=-60 az=1120
1788578483.414163 [PWR] pm=0x1 drift=0 rderr=0
1788578483.418485 [DWT] ok=1 cyc=1558811339 cyc_per_ms=799877
1788578484.433039 [HB] up_ms=72937 frames=3271 inf=3271 hazard=410 canary_err=0 q=0 qovr=0
1788578484.444290 [I2C] init=0 gate=0 whoami=0x201e0 wr=0 wrseen=0x27 addr=0x5a ok=22446 err=0 tmo=0 recov=2 pclk1=200000000 sysclk=400000000
1788578484.445659 [NAK] nacks=0
1788578484.450166 [CLK] cpu=800000000 sysb=400000000 pclk1=200000000
1788578484.454803 [TOF] res=0 step=0 id=0xeacc blk=0xeacc10 ctl=0x0
1788578484.460795 [RNG] init=0 step=99 id=0xeacc boot=1 calls=93 xerr=0 dm=1 tb=15
1788578484.467658 [RNG] osc=41 imp=881 imprb=881 mstart=0x40 cfg=91 cfgfail=0x0 vhv=0 vpolls=0
1788578484.473665 [PRT] calls=13205 xerr=0 ler=1 lidx=0x0 perr=0 maxcnt=17 addr8=0x52
1788578484.477792 [RTY] wr=0 wmax=0 wref=0  rd=0 rmax=0 rref=0
1788578484.485663 [RNG] frames=3272 last=60 min=37 max=83 nrdy=0 dxfer=0 dstat=1 lst=2 nrdyerr=0 dclr=0
1788578484.491787 [DRV] init=0 id=7 mode=0x1 lib=0x2 seq=0x1 odc=0x8b sts=0xe0 armed=1
1788578484.497164 [TRG] pulses=32 suppressed=378 cyc=1600 rst=1 rstmode=0x40
1788578484.500404 [HLT] polls=65 faults=0x0 cfglost=0
1788578484.506283 [EFF] n=5 last=58595 min=58594 max=58654 late=0 stuck=0 rderr=0
1788578484.516538 [IMU] init=0 addr=0x68 who=0x68 rst=1 pmrb0=0x40 pmrb=0x1 sr=19 cfg=4 gcfg=0x0 acfg=0x8 icfg=0x30 ien=0x1 armed=1
1788578484.521665 [ACC] reads=3275 stale=3273 rderr=0 ax=56 ay=-58 az=1119
1788578484.524297 [PWR] pm=0x1 drift=0 rderr=0
1788578484.528284 [DWT] ok=1 cyc=2440412139 cyc_per_ms=800000
1788578485.542288 [HB] up_ms=74038 frames=3321 inf=3321 hazard=411 canary_err=0 q=0 qovr=0
1788578485.553443 [I2C] init=0 gate=0 whoami=0x201e0 wr=0 wrseen=0x27 addr=0x5a ok=22748 err=0 tmo=0 recov=2 pclk1=200000000 sysclk=400000000
1788578485.554932 [NAK] nacks=0
1788578485.559558 [CLK] cpu=800000000 sysb=400000000 pclk1=200000000
1788578485.563919 [TOF] res=0 step=0 id=0xeacc blk=0xeacc10 ctl=0x0
1788578485.569652 [RNG] init=0 step=99 id=0xeacc boot=1 calls=93 xerr=0 dm=1 tb=15
1788578485.576795 [RNG] osc=41 imp=881 imprb=881 mstart=0x40 cfg=91 cfgfail=0x0 vhv=0 vpolls=0
1788578485.582786 [PRT] calls=13405 xerr=0 ler=1 lidx=0x0 perr=0 maxcnt=17 addr8=0x52
1788578485.586910 [RTY] wr=0 wmax=0 wref=0  rd=0 rmax=0 rref=0
1788578485.594779 [RNG] frames=3322 last=52 min=37 max=83 nrdy=0 dxfer=0 dstat=1 lst=2 nrdyerr=0 dclr=0
1788578485.600926 [DRV] init=0 id=7 mode=0x1 lib=0x2 seq=0x1 odc=0x8b sts=0xe0 armed=1
1788578485.606289 [TRG] pulses=33 suppressed=381 cyc=1600 rst=1 rstmode=0x40
1788578485.609525 [HLT] polls=66 faults=0x0 cfglost=0
1788578485.615277 [EFF] n=5 last=58595 min=58594 max=58654 late=0 stuck=0 rderr=0
1788578485.625666 [IMU] init=0 addr=0x68 who=0x68 rst=1 pmrb0=0x40 pmrb=0x1 sr=19 cfg=4 gcfg=0x0 acfg=0x8 icfg=0x30 ien=0x1 armed=1
1788578485.630787 [ACC] reads=3325 stale=3322 rderr=0 ax=52 ay=-55 az=1121
1788578485.633430 [PWR] pm=0x1 drift=0 rderr=0
1788578485.637432 [DWT] ok=1 cyc=3321215035 cyc_per_ms=800002
1788578486.651919 [HB] up_ms=75139 frames=3371 inf=3371 hazard=451 canary_err=0 q=0 qovr=0
1788578486.663182 [I2C] init=0 gate=0 whoami=0x201e0 wr=0 wrseen=0x27 addr=0x5a ok=23050 err=0 tmo=0 recov=2 pclk1=200000000 sysclk=400000000
1788578486.664432 [NAK] nacks=0
1788578486.669042 [CLK] cpu=800000000 sysb=400000000 pclk1=200000000
1788578486.673526 [TOF] res=0 step=0 id=0xeacc blk=0xeacc10 ctl=0x0
1788578486.679429 [RNG] init=0 step=99 id=0xeacc boot=1 calls=93 xerr=0 dm=1 tb=15
1788578486.686431 [RNG] osc=41 imp=881 imprb=881 mstart=0x40 cfg=91 cfgfail=0x0 vhv=0 vpolls=0
1788578486.692538 [PRT] calls=13605 xerr=0 ler=1 lidx=0x0 perr=0 maxcnt=17 addr8=0x52
1788578486.696660 [RTY] wr=0 wmax=0 wref=0  rd=0 rmax=0 rref=0
1788578486.704274 [RNG] frames=3372 last=55 min=37 max=83 nrdy=0 dxfer=0 dstat=1 lst=2 nrdyerr=0 dclr=0
1788578486.710651 [DRV] init=0 id=7 mode=0x1 lib=0x2 seq=0x1 odc=0x8b sts=0xe0 armed=1
1788578486.715908 [TRG] pulses=35 suppressed=416 cyc=1600 rst=1 rstmode=0x40
1788578486.719161 [HLT] polls=67 faults=0x0 cfglost=0
1788578486.724906 [EFF] n=5 last=58595 min=58594 max=58654 late=0 stuck=0 rderr=0
1788578486.735279 [IMU] init=0 addr=0x68 who=0x68 rst=1 pmrb0=0x40 pmrb=0x1 sr=19 cfg=4 gcfg=0x0 acfg=0x8 icfg=0x30 ien=0x1 armed=1
1788578486.740466 [ACC] reads=3375 stale=3372 rderr=0 ax=55 ay=-58 az=1124
1788578486.743049 [PWR] pm=0x1 drift=0 rderr=0
1788578486.747034 [DWT] ok=1 cyc=4202011179 cyc_per_ms=799996
1788578487.760775 [HB] up_ms=76240 frames=3421 inf=3421 hazard=451 canary_err=0 q=0 qovr=0
1788578487.771777 [I2C] init=0 gate=0 whoami=0x201e0 wr=0 wrseen=0x27 addr=0x5a ok=23352 err=0 tmo=0 recov=2 pclk1=200000000 sysclk=400000000
1788578487.773284 [NAK] nacks=0
1788578487.777892 [CLK] cpu=800000000 sysb=400000000 pclk1=200000000
1788578487.782405 [TOF] res=0 step=0 id=0xeacc blk=0xeacc10 ctl=0x0
1788578487.788152 [RNG] init=0 step=99 id=0xeacc boot=1 calls=93 xerr=0 dm=1 tb=15
1788578487.795147 [RNG] osc=41 imp=881 imprb=881 mstart=0x40 cfg=91 cfgfail=0x0 vhv=0 vpolls=0
1788578487.801350 [PRT] calls=13801 xerr=0 ler=1 lidx=0x0 perr=0 maxcnt=17 addr8=0x52
