[HB] up_ms=912629 frames=41289 inf=41289 hazard=118 canary_err=0 q=0 qovr=0
[I2C] init=0 gate=0 whoami=0x140e0 wr=0 wrseen=0x27 addr=0x5a ok=252105 err=1 tmo=0 recov=2 pclk1=200000000 sysclk=400000000
[NAK] nacks=1
[CLK] cpu=800000000 sysb=400000000 pclk1=200000000
[TOF] res=0 step=0 id=0xeacc blk=0xeacc10 ctl=0x0
[RNG] init=0 step=99 id=0xeacc boot=1 calls=93 xerr=0 dm=1 tb=15
[RNG] osc=41 imp=881 imprb=881 mstart=0x40 cfg=91 cfgfail=0x0 vhv=0 vpolls=0
[PRT] calls=165277 xerr=0 ler=1 lidx=0x0 perr=0 maxcnt=17 addr8=0x52
[RTY] wr=0 wmax=0 wref=0  rd=0 rmax=0 rref=0
[RNG] frames=41291 last=31 min=16 max=166 nrdy=0 dxfer=0 dstat=0 lst=0 nrdyerr=0 dclr=0
[DRV] init=0 id=7 mode=0x1 lib=0x2 seq=0x1 odc=0x8b sts=0xe0 armed=1
[TRG] pulses=92 suppressed=26 cyc=1600 rst=1 rstmode=0x40
[HLT] polls=825 faults=0x0 cfglost=0
[EFF] n=5 last=58416 min=58416 max=58535 late=0 stuck=0 rderr=0
[IMU] init=0 addr=0x68 who=0x68 rst=1 pmrb0=0x40 pmrb=0x1 sr=19 cfg=4 gcfg=0x0 acfg=0x8 icfg=0x30 ien=0x1 armed=1
[ACC] reads=41292 stale=41241 rderr=1 ax=-5 ay=-28 az=1123
[PWR] pm=0x1 drift=0 rderr=0
[DWT] ok=1 cyc=4179772438 cyc_per_ms=799898
[HB] up_ms=913731 frames=41339 inf=41339 hazard=118 canary_err=0 q=0 qovr=0
[I2C] init=0 gate=0 whoami=0x140e0 wr=0 wrseen=0x27 addr=0x5a ok=252407 err=1 tmo=0 recov=2 pclk1=200000000 sysclk=400000000
[NAK] nacks=1
[CLK] cpu=800000000 sysb=400000000 pclk1=200000000
[TOF] res=0 step=0 id=0xeacc blk=0xeacc10 ctl=0x0
[RNG] init=0 step=99 id=0xeacc boot=1 calls=93 xerr=0 dm=1 tb=15
[RNG] osc=41 imp=881 imprb=881 mstart=0x40 cfg=91 cfgfail=0x0 vhv=0 vpolls=0
[PRT] calls=165477 xerr=0 ler=1 lidx=0x0 perr=0 maxcnt=17 addr8=0x52
[RTY] wr=0 wmax=0 wref=0  rd=0 rmax=0 rref=0
[RNG] frames=41341 last=36 min=16 max=166 nrdy=0 dxfer=0 dstat=0 lst=0 nrdyerr=0 dclr=0
[DRV] init=0 id=7 mode=0x1 lib=0x2 seq=0x1 odc=0x8b sts=0xe0 armed=1
[TRG] pulses=92 suppressed=26 cyc=1600 rst=1 rstmode=0x40
[HLT] polls=826 faults=0x0 cfglost=0
[EFF] n=5 last=58416 min=58416 max=58535 late=0 stuck=0 rderr=0
[IMU] init=0 addr=0x68 who=0x68 rst=1 pmrb0=0x40 pmrb=0x1 sr=19 cfg=4 gcfg=0x0 acfg=0x8 icfg=0x30 ien=0x1 armed=1
[ACC] reads=41342 stale=41291 rderr=1 ax=-7 ay=-28 az=1125
[PWR] pm=0x1 drift=0 rderr=0
[DWT] ok=1 cyc=766405074 cyc_per_ms=799999
[HB] up_ms=914833 frames=41389 inf=41389 hazard=118 canary_err=0 q=0 qovr=0
[I2C] init=0 gate=0 whoami=0x140e0 wr=0 wrseen=0x27 addr=0x5a ok=252709 err=1 tmo=0 recov=2 pclk1=200000000 sysclk=400000000
[NAK] nacks=1
[CLK] cpu=800000000 sysb=400000000 pclk1=200000000
[TOF] res=0 step=0 id=0xeacc blk=0xeacc10 ctl=0x0
[RNG] init=0 step=99 id=0xeacc boot=1 calls=93 xerr=0 dm=1 tb=15
[RNG] osc=41 imp=881 imprb=881 mstart=0x40 cfg=91 cfgfail=0x0 vhv=0 vpolls=0
[PRT] calls=165677 xerr=0 ler=1 lidx=0x0 perr=0 maxcnt=17 addr8=0x52
[RTY] wr=0 wmax=0 wref=0  rd=0 rmax=0 rref=0
[RNG] frames=41391 last=42 min=16 max=166 nrdy=0 dxfer=0 dstat=0 lst=0 nrdyerr=0 dclr=0
[DRV] init=0 id=7 mode=0x1 lib=0x2 seq=0x1 odc=0x8b sts=0xe0 armed=1
[TRG] pulses=92 suppressed=26 cyc=1600 rst=1 rstmode=0x40
[HLT] polls=827 faults=0x0 cfglost=0
[EFF] n=5 last=58416 min=58416 max=58535 late=0 stuck=0 rderr=0
[IMU] init=0 addr=0x68 who=0x68 rst=1 pmrb0=0x40 pmrb=0x1 sr=19 cfg=4 gcfg=0x0 acfg=0x8 icfg=0x30 ien=0x1 armed=1
[ACC] reads=41392 stale=41341 rderr=1 ax=-7 ay=-28 az=1121
[PWR] pm=0x1 drift=0 rderr=0
[DWT] ok=1 cyc=1648004946 cyc_per_ms=799999
[HB] up_ms=915935 frames=41439 inf=41439 hazard=118 canary_err=0 q=0 qovr=0
[I2C] init=0 gate=0 whoami=0x140e0 wr=0 wrseen=0x27 addr=0x5a ok=253011 err=1 tmo=0 recov=2 pclk1=200000000 sysclk=400000000
[NAK] nacks=1
[CLK] cpu=800000000 sysb=400000000 pclk1=200000000
[TOF] res=0 step=0 id=0xeacc blk=0xeacc10 ctl=0x0
[RNG] init=0 step=99 id=0xeacc boot=1 calls=93 xerr=0 dm=1 tb=15
[RNG] osc=41 imp=881 imprb=881 mstart=0x40 cfg=91 cfgfail=0x0 vhv=0 vpolls=0
[PRT] calls=165877 xerr=0 ler=1 lidx=0x0 perr=0 maxcnt=17 addr8=0x52
[RTY] wr=0 wmax=0 wref=0  rd=0 rmax=0 rref=0
[RNG] frames=41441 last=43 min=16 max=166 nrdy=0 dxfer=0 dstat=0 lst=0 nrdyerr=0 dclr=0
[DRV] init=0 id=7 mode=0x1 lib=0x2 seq=0x1 odc=0x8b sts=0xe0 armed=1
[TRG] pulses=92 suppressed=26 cyc=1600 rst=1 rstmode=0x40
[HLT] polls=828 faults=0x0 cfglost=0
[EFF] n=5 last=58416 min=58416 max=58535 late=0 stuck=0 rderr=0
[IMU] init=0 addr=0x68 who=0x68 rst=1 pmrb0=0x40 pmrb=0x1 sr=19 cfg=4 gcfg=0x0 acfg=0x8 icfg=0x30 ien=0x1 armed=1
[ACC] reads=41442 stale=41391 rderr=1 ax=-7 ay=-28 az=1124
[PWR] pm=0x1 drift=0 rderr=0
[DWT] ok=1 cyc=2529605110 cyc_per_ms=800000
[HB] up_ms=917037 frames=41489 inf=41489 hazard=118 canary_err=0 q=0 qovr=0
[I2C] init=0 gate=0 whoami=0x140e0 wr=0 wrseen=0x27 addr=0x5a ok=253313 err=1 tmo=0 recov=2 pclk1=200000000 sysclk=400000000
[NAK] nacks=1
[CLK] cpu=800000000 sysb=400000000 pclk1=200000000
[TOF] res=0 step=0 id=0xeacc blk=0xeacc10 ctl=0x0
[RNG] init=0 step=99 id=0xeacc boot=1 calls=93 xerr=0 dm=1 tb=15
[RNG] osc=41 imp=881 imprb=881 mstart=0x40 cfg=91 cfgfail=0x0 vhv=0 vpolls=0
[PRT] calls=166077 xerr=0 ler=1 lidx=0x0 perr=0 maxcnt=17 addr8=0x52
[RTY] wr=0 wmax=0 wref=0  rd=0 rmax=0 rref=0
[RNG] frames=41491 last=34 min=16 max=166 nrdy=0 dxfer=0 dstat=0 lst=0 nrdyerr=0 dclr=0
[DRV] init=0 id=7 mode=0x1 lib=0x2 seq=0x1 odc=0x8b sts=0xe0 armed=1
[TRG] pulses=92 suppressed=26 cyc=1600 rst=1 rstmode=0x40
[HLT] polls=829 faults=0x0 cfglost=0
[EFF] n=5 last=58416 min=58416 max=58535 late=0 stuck=0 rderr=0
[IMU] init=0 addr=0x68 who=0x68 rst=1 pmrb0=0x40 pmrb=0x1 sr=19 cfg=4 gcfg=0x0 acfg=0x8 icfg=0x30 ien=0x1 armed=1
[ACC] reads=41492 stale=41441 rderr=1 ax=-6 ay=-29 az=1124
[PWR] pm=0x1 drift=0 rderr=0
[DWT] ok=1 cyc=3411205146 cyc_per_ms=800000
[HB] up_ms=918139 frames=41539 inf=41539 hazard=118 canary_err=0 q=0 qovr=0
[I2C] init=0 gate=0 whoami=0x140e0 wr=0 wrseen=0x27 addr=0x5a ok=253615 err=1 tmo=0 recov=2 pclk1=200000000 sysclk=400000000
[NAK] nacks=1
[CLK] cpu=800000000 sysb=400000000 pclk1=200000000
[TOF] res=0 step=0 id=0xeacc blk=0xeacc10 ctl=0x0
[RNG] init=0 step=99 id=0xeacc boot=1 calls=93 xerr=0 dm=1 tb=15
[RNG] osc=41 imp=881 imprb=881 mstart=0x40 cfg=91 cfgfail=0x0 vhv=0 vpolls=0
[PRT] calls=166273 xerr=0 ler=1 lidx=0x0 perr=0 maxcnt=17 addr8=0x52
[RTY] wr=0 wmax=0 wref=0  rd=0 rmax=0 rref=0
[RNG] frames=41541 last=31 min=16 max=166 nrdy=0 dxfer=0 dstat=0 lst=0 nrdyerr=0 dclr=0
[DRV] init=0 id=7 mode=0x1 lib=0x2 seq=0x1 odc=0x8b sts=0xe0 armed=1
[TRG] pulses=92 suppressed=26 cyc=1600 rst=1 rstmode=0x40
[HLT] polls=830 faults=0x0 cfglost=0
[EFF] n=5 last=58416 min=58416 max=58535 late=0 stuck=0 rderr=0
[IMU] init=0 addr=0x68 who=0x68 rst=1 pmrb0=0x40 pmrb=0x1 sr=19 cfg=4 gcfg=0x0 acfg=0x8 icfg=0x30 ien=0x1 armed=1
[ACC] reads=41542 stale=41491 rderr=1 ax=-6 ay=-28 az=1125
[PWR] pm=0x1 drift=0 rderr=0
[DWT] ok=1 cyc=4292804958 cyc_per_ms=799999
[HB] up_ms=919241 frames=41589 inf=41589 hazard=118 canary_err=0 q=0 qovr=0
[I2C] init=0 gate=0 whoami=0x140e0 wr=0 wrseen=0x27 addr=0x5a ok=253917 err=1 tmo=0 recov=2 pclk1=200000000 sysclk=400000000
[NAK] nacks=1
[CLK] cpu=800000000 sysb=400000000 pclk1=200000000
[TOF] res=0 step=0 id=0xeacc blk=0xeacc10 ctl=0x0
[RNG] init=0 step=99 id=0xeacc boot=1 calls=93 xerr=0 dm=1 tb=15
[RNG] osc=41 imp=881 imprb=881 mstart=0x40 cfg=91 cfgfail=0x0 vhv=0 vpolls=0
[PRT] calls=166473 xerr=0 ler=1 lidx=0x0 perr=0 maxcnt=17 addr8=0x52
[RTY] wr=0 wmax=0 wref=0  rd=0 rmax=0 rref=0
[RNG] frames=41591 last=41 min=16 max=166 nrdy=0 dxfer=0 dstat=0 lst=0 nrdyerr=0 dclr=0
[DRV] init=0 id=7 mode=0x1 lib=0x2 seq=0x1 odc=0x8b sts=0xe0 armed=1
[TRG] pulses=92 suppressed=26 cyc=1600 rst=1 rstmode=0x40
[HLT] polls=831 faults=0x0 cfglost=0
[EFF] n=5 last=58416 min=58416 max=58535 late=0 stuck=0 rderr=0
[IMU] init=0 addr=0x68 who=0x68 rst=1 pmrb0=0x40 pmrb=0x1 sr=19 cfg=4 gcfg=0x0 acfg=0x8 icfg=0x30 ien=0x1 armed=1
[ACC] reads=41591 stale=41540 rderr=1 ax=-4 ay=-29 az=1124
[PWR] pm=0x1 drift=0 rderr=0
[DWT] ok=1 cyc=879437810 cyc_per_ms=800000
[HB] up_ms=920343 frames=41638 inf=41638 hazard=118 canary_err=0 q=0 qovr=0
[I2C] init=0 gate=0 whoami=0x140e0 wr=0 wrseen=0x27 addr=0x5a ok=254219 err=1 tmo=0 recov=2 pclk1=200000000 sysclk=400000000
[NAK] nacks=1
[CLK] cpu=800000000 sysb=400000000 pclk1=200000000
[TOF] res=0 step=0 id=0xeacc blk=0xeacc10 ctl=0x0
[RNG] init=0 step=99 id=0xeacc boot=1 calls=93 xerr=0 dm=1 tb=15
[RNG] osc=41 imp=881 imprb=881 mstart=0x40 cfg=91 cfgfail=0x0 vhv=0 vpolls=0
[PRT] calls=166673 xerr=0 ler=1 lidx=0x0 perr=0 maxcnt=17 addr8=0x52
[RTY] wr=0 wmax=0 wref=0  rd=0 rmax=0 rref=0
[RNG] frames=41641 last=30 min=16 max=166 nrdy=0 dxfer=0 dstat=0 lst=0 nrdyerr=0 dclr=0
[DRV] init=0 id=7 mode=0x1 lib=0x2 seq=0x1 odc=0x8b sts=0xe0 armed=1
[TRG] pulses=92 suppressed=26 cyc=1600 rst=1 rstmode=0x40
[HLT] polls=832 faults=0x0 cfglost=0
[EFF] n=5 last=58416 min=58416 max=58535 late=0 stuck=0 rderr=0
[IMU] init=0 addr=0x68 who=0x68 rst=1 pmrb0=0x40 pmrb=0x1 sr=19 cfg=4 gcfg=0x0 acfg=0x8 icfg=0x30 ien=0x1 armed=1
[ACC] reads=41641 stale=41590 rderr=1 ax=-7 ay=-29 az=1122
[PWR] pm=0x1 drift=0 rderr=0
[DWT] ok=1 cyc=1761173626 cyc_per_ms=800123
[HB] up_ms=921445 frames=41688 inf=41688 hazard=119 canary_err=0 q=0 qovr=0
[I2C] init=0 gate=0 whoami=0x140e0 wr=0 wrseen=0x27 addr=0x5a ok=254521 err=1 tmo=0 recov=2 pclk1=200000000 sysclk=400000000
[NAK] nacks=1
[CLK] cpu=800000000 sysb=400000000 pclk1=200000000
[TOF] res=0 step=0 id=0xeacc blk=0xeacc10 ctl=0x0
[RNG] init=0 step=99 id=0xeacc boot=1 calls=93 xerr=0 dm=1 tb=15
[RNG] osc=41 imp=881 imprb=881 mstart=0x40 cfg=91 cfgfail=0x0 vhv=0 vpolls=0
[PRT] calls=166873 xerr=0 ler=1 lidx=0x0 perr=0 maxcnt=17 addr8=0x52
[RTY] wr=0 wmax=0 wref=0  rd=0 rmax=0 rref=0
[RNG] frames=41691 last=41 min=16 max=166 nrdy=0 dxfer=0 dstat=0 lst=0 nrdyerr=0 dclr=0
[DRV] init=0 id=7 mode=0x1 lib=0x2 seq=0x1 odc=0x8b sts=0xe0 armed=1
[TRG] pulses=93 suppressed=26 cyc=1600 rst=1 rstmode=0x40
[HLT] polls=833 faults=0x0 cfglost=0
[EFF] n=5 last=58416 min=58416 max=58535 late=0 stuck=0 rderr=0
[IMU] init=0 addr=0x68 who=0x68 rst=1 pmrb0=0x40 pmrb=0x1 sr=19 cfg=4 gcfg=0x0 acfg=0x8 icfg=0x30 ien=0x1 armed=1
[ACC] reads=41691 stale=41640 rderr=1 ax=-5 ay=-29 az=1122
[PWR] pm=0x1 drift=0 rderr=0
[DWT] ok=1 cyc=2642774406 cyc_per_ms=800000
[HB] up_ms=922547 frames=41738 inf=41738 hazard=119 canary_err=0 q=0 qovr=0
[I2C] init=0 gate=0 whoami=0x140e0 wr=0 wrseen=0x27 addr=0x5a ok=254819 err=1 tmo=0 recov=2 pclk1=200000000 sysclk=400000000
[NAK] nacks=1
[CLK] cpu=800000000 sysb=400000000 pclk1=200000000
[TOF] res=0 step=0 id=0xeacc blk=0xeacc10 ctl=0x0
[RNG] init=0 step=99 id=0xeacc boot=1 calls=93 xerr=0 dm=1 tb=15
[RNG] osc=41 imp=881 imprb=881 mstart=0x40 cfg=91 cfgfail=0x0 vhv=0 vpolls=0
[PRT] calls=167073 xerr=0 ler=1 lidx=0x0 perr=0 maxcnt=17 addr8=0x52
[RTY] wr=0 wmax=0 wref=0  rd=0 rmax=0 rref=0
[RNG] frames=41740 last=49 min=16 max=166 nrdy=0 dxfer=0 dstat=0 lst=0 nrdyerr=0 dclr=0
[DRV] init=0 id=7 mode=0x1 lib=0x2 seq=0x1 odc=0x8b sts=0xe0 armed=1
[TRG] pulses=93 suppressed=26 cyc=1600 rst=1 rstmode=0x40
[HLT] polls=834 faults=0x0 cfglost=0
[EFF] n=5 last=58416 min=58416 max=58535 late=0 stuck=0 rderr=0
[IMU] init=0 addr=0x68 who=0x68 rst=1 pmrb0=0x40 pmrb=0x1 sr=19 cfg=4 gcfg=0x0 acfg=0x8 icfg=0x30 ien=0x1 armed=1
[ACC] reads=41741 stale=41690 rderr=1 ax=-8 ay=-28 az=1123
[PWR] pm=0x1 drift=0 rderr=0
[DWT] ok=1 cyc=3524237738 cyc_per_ms=799875
[HB] up_ms=923649 frames=41788 inf=41788 hazard=119 canary_err=0 q=0 qovr=0
[I2C] init=0 gate=0 whoami=0x140e0 wr=0 wrseen=0x27 addr=0x5a ok=255119 err=1 tmo=0 recov=2 pclk1=200000000 sysclk=400000000
[NAK] nacks=1
[CLK] cpu=800000000 sysb=400000000 pclk1=200000000
[TOF] res=0 step=0 id=0xeacc blk=0xeacc10 ctl=0x0
[RNG] init=0 step=99 id=0xeacc boot=1 calls=93 xerr=0 dm=1 tb=15
[RNG] osc=41 imp=881 imprb=881 mstart=0x40 cfg=91 cfgfail=0x0 vhv=0 vpolls=0
[PRT] calls=167273 xerr=0 ler=1 lidx=0x0 perr=0 maxcnt=17 addr8=0x52
[RTY] wr=0 wmax=0 wref=0  rd=0 rmax=0 rref=0
[RNG] frames=41790 last=36 min=16 max=166 nrdy=0 dxfer=0 dstat=0 lst=0 nrdyerr=0 dclr=0
[DRV] init=0 id=7 mode=0x1 lib=0x2 seq=0x1 odc=0x8b sts=0xe0 armed=1
[TRG] pulses=93 suppressed=26 cyc=1600 rst=1 rstmode=0x40
[HLT] polls=835 faults=0x0 cfglost=0
[EFF] n=5 last=58416 min=58416 max=58535 late=0 stuck=0 rderr=0
[IMU] init=0 addr=0x68 who=0x68 rst=1 pmrb0=0x40 pmrb=0x1 sr=19 cfg=4 gcfg=0x0 acfg=0x8 icfg=0x30 ien=0x1 armed=1
[ACC] reads=41791 stale=41740 rderr=1 ax=-7 ay=-28 az=1122
[PWR] pm=0x1 drift=0 rderr=0
[DWT] ok=1 cyc=110870578 cyc_per_ms=800000
[HB] up_ms=924751 frames=41838 inf=41838 hazard=119 canary_err=0 q=0 qovr=0
[I2C] init=0 gate=0 whoami=0x140e0 wr=0 wrseen=0x27 addr=0x5a ok=255421 err=1 tmo=0 recov=2 pclk1=200000000 sysclk=400000000
[NAK] nacks=1
[CLK] cpu=800000000 sysb=400000000 pclk1=200000000
[TOF] res=0 step=0 id=0xeacc blk=0xeacc10 ctl=0x0
[RNG] init=0 step=99 id=0xeacc boot=1 calls=93 xerr=0 dm=1 tb=15
[RNG] osc=41 imp=881 imprb=881 mstart=0x40 cfg=91 cfgfail=0x0 vhv=0 vpolls=0
[PRT] calls=167473 xerr=0 ler=1 lidx=0x0 perr=0 maxcnt=17 addr8=0x52
[RTY] wr=0 wmax=0 wref=0  rd=0 rmax=0 rref=0
[RNG] frames=41840 last=29 min=16 max=166 nrdy=0 dxfer=0 dstat=0 lst=0 nrdyerr=0 dclr=0
[DRV] init=0 id=7 mode=0x1 lib=0x2 seq=0x1 odc=0x8b sts=0xe0 armed=1
[TRG] pulses=93 suppressed=26 cyc=1600 rst=1 rstmode=0x40
[HLT] polls=836 faults=0x0 cfglost=0
[EFF] n=5 last=58416 min=58416 max=58535 late=0 stuck=0 rderr=0
[IMU] init=0 addr=0x68 who=0x68 rst=1 pmrb0=0x40 pmrb=0x1 sr=19 cfg=4 gcfg=0x0 acfg=0x8 icfg=0x30 ien=0x1 armed=1
[ACC] reads=41841 stale=41790 rderr=1 ax=-7 ay=-29 az=1121
[PWR] pm=0x1 drift=0 rderr=0
[DWT] ok=1 cyc=992470482 cyc_per_ms=799999
[HB] up_ms=925853 frames=41888 inf=41888 hazard=119 canary_err=0 q=0 qovr=0
[I2C] init=0 gate=0 whoami=0x140e0 wr=0 wrseen=0x27 addr=0x5a ok=255723 err=1 tmo=0 recov=2 pclk1=200000000 sysclk=400000000
[NAK] nacks=1
[CLK] cpu=800000000 sysb=400000000 pclk1=200000000
[TOF] res=0 step=0 id=0xeacc blk=0xeacc10 ctl=0x0
[RNG] init=0 step=99 id=0xeacc boot=1 calls=93 xerr=0 dm=1 tb=15
[RNG] osc=41 imp=881 imprb=881 mstart=0x40 cfg=91 cfgfail=0x0 vhv=0 vpolls=0
[PRT] calls=167673 xerr=0 ler=1 lidx=0x0 perr=0 maxcnt=17 addr8=0x52
[RTY] wr=0 wmax=0 wref=0  rd=0 rmax=0 rref=0
[RNG] frames=41890 last=37 min=16 max=166 nrdy=0 dxfer=0 dstat=0 lst=0 nrdyerr=0 dclr=0
[DRV] init=0 id=7 mode=0x1 lib=0x2 seq=0x1 odc=0x8b sts=0xe0 armed=1
[TRG] pulses=93 suppressed=26 cyc=1600 rst=1 rstmode=0x40
[HLT] polls=837 faults=0x0 cfglost=0
[EFF] n=5 last=58416 min=58416 max=58535 late=0 stuck=0 rderr=0
[IMU] init=0 addr=0x68 who=0x68 rst=1 pmrb0=0x40 pmrb=0x1 sr=19 cfg=4 gcfg=0x0 acfg=0x8 icfg=0x30 ien=0x1 armed=1
[ACC] reads=41891 stale=41839 rderr=1 ax=-5 ay=-28 az=1123
[PWR] pm=0x1 drift=0 rderr=0
[DWT] ok=1 cyc=1874070446 cyc_per_ms=799999
[HB] up_ms=926955 frames=41938 inf=41938 hazard=120 canary_err=0 q=0 qovr=0
[I2C] init=0 gate=0 whoami=0x140e0 wr=0 wrseen=0x27 addr=0x5a ok=256025 err=1 tmo=0 recov=2 pclk1=200000000 sysclk=400000000
[NAK] nacks=1
[CLK] cpu=800000000 sysb=400000000 pclk1=200000000
[TOF] res=0 step=0 id=0xeacc blk=0xeacc10 ctl=0x0
[RNG] init=0 step=99 id=0xeacc boot=1 calls=93 xerr=0 dm=1 tb=15
[RNG] osc=41 imp=881 imprb=881 mstart=0x40 cfg=91 cfgfail=0x0 vhv=0 vpolls=0
[PRT] calls=167873 xerr=0 ler=1 lidx=0x0 perr=0 maxcnt=17 addr8=0x52
[RTY] wr=0 wmax=0 wref=0  rd=0 rmax=0 rref=0
[RNG] frames=41940 last=37 min=16 max=166 nrdy=0 dxfer=0 dstat=0 lst=0 nrdyerr=0 dclr=0
[DRV] init=0 id=7 mode=0x1 lib=0x2 seq=0x1 odc=0x8b sts=0xe0 armed=1
[TRG] pulses=94 suppressed=26 cyc=1600 rst=1 rstmode=0x40
[HLT] polls=838 faults=0x0 cfglost=0
[EFF] n=5 last=58416 min=58416 max=58535 late=0 stuck=0 rderr=0
[IMU] init=0 addr=0x68 who=0x68 rst=1 pmrb0=0x40 pmrb=0x1 sr=19 cfg=4 gcfg=0x0 acfg=0x8 icfg=0x30 ien=0x1 armed=1
[ACC] reads=41941 stale=41889 rderr=1 ax=-8 ay=-28 az=1129
[PWR] pm=0x1 drift=0 rderr=0
[DWT] ok=1 cyc=2755670554 cyc_per_ms=800000
[HB] up_ms=928057 frames=41988 inf=41988 hazard=120 canary_err=0 q=0 qovr=0
[I2C] init=0 gate=0 whoami=0x140e0 wr=0 wrseen=0x27 addr=0x5a ok=256327 err=1 tmo=0 recov=2 pclk1=200000000 sysclk=400000000
[NAK] nacks=1
[CLK] cpu=800000000 sysb=400000000 pclk1=200000000
[TOF] res=0 step=0 id=0xeacc blk=0xeacc10 ctl=0x0
[RNG] init=0 step=99 id=0xeacc boot=1 calls=93 xerr=0 dm=1 tb=15
[RNG] osc=41 imp=881 imprb=881 mstart=0x40 cfg=91 cfgfail=0x0 vhv=0 vpolls=0
[PRT] calls=168072 xerr=0 ler=1 lidx=0x0 perr=0 maxcnt=17 addr8=0x52
[RTY] wr=0 wmax=0 wref=0  rd=0 rmax=0 rref=0
[RNG] frames=41990 last=32 min=16 max=166 nrdy=0 dxfer=0 dstat=0 lst=0 nrdyerr=0 dclr=0
[DRV] init=0 id=7 mode=0x1 lib=0x2 seq=0x1 odc=0x8b sts=0xe0 armed=1
[TRG] pulses=94 suppressed=26 cyc=1600 rst=1 rstmode=0x40
[HLT] polls=839 faults=0x0 cfglost=0
[EFF] n=5 last=58416 min=58416 max=58535 late=0 stuck=0 rderr=0
[IMU] init=0 addr=0x68 who=0x68 rst=1 pmrb0=0x40 pmrb=0x1 sr=19 cfg=4 gcfg=0x0 acfg=0x8 icfg=0x30 ien=0x1 armed=1
[ACC] reads=41991 stale=41939 rderr=1 ax=-6 ay=-29 az=1124
[PWR] pm=0x1 drift=0 rderr=0
[DWT] ok=1 cyc=3637270310 cyc_per_ms=799999
[HB] up_ms=929159 frames=42038 inf=42038 hazard=120 canary_err=0 q=0 qovr=0
[I2C] init=0 gate=0 whoami=0x140e0 wr=0 wrseen=0x27 addr=0x5a ok=256629 err=1 tmo=0 recov=2 pclk1=200000000 sysclk=400000000
[NAK] nacks=1
[CLK] cpu=800000000 sysb=400000000 pclk1=200000000
[TOF] res=0 step=0 id=0xeacc blk=0xeacc10 ctl=0x0
[RNG] init=0 step=99 id=0xeacc boot=1 calls=93 xerr=0 dm=1 tb=15
[RNG] osc=41 imp=881 imprb=881 mstart=0x40 cfg=91 cfgfail=0x0 vhv=0 vpolls=0
[PRT] calls=168269 xerr=0 ler=1 lidx=0x0 perr=0 maxcnt=17 addr8=0x52
[RTY] wr=0 wmax=0 wref=0  rd=0 rmax=0 rref=0
[RNG] frames=42040 last=31 min=16 max=166 nrdy=0 dxfer=0 dstat=0 lst=0 nrdyerr=0 dclr=0
[DRV] init=0 id=7 mode=0x1 lib=0x2 seq=0x1 odc=0x8b sts=0xe0 armed=1
[TRG] pulses=94 suppressed=26 cyc=1600 rst=1 rstmode=0x40
[HLT] polls=840 faults=0x0 cfglost=0
[EFF] n=5 last=58416 min=58416 max=58535 late=0 stuck=0 rderr=0
[IMU] init=0 addr=0x68 who=0x68 rst=1 pmrb0=0x40 pmrb=0x1 sr=19 cfg=4 gcfg=0x0 acfg=0x8 icfg=0x30 ien=0x1 armed=1
[ACC] reads=42040 stale=41989 rderr=1 ax=-6 ay=-28 az=1124
[PWR] pm=0x1 drift=0 rderr=0
[DWT] ok=1 cyc=223903138 cyc_per_ms=800000
[HB] up_ms=930261 frames=42087 inf=42087 hazard=120 canary_err=0 q=0 qovr=0
[I2C] init=0 gate=0 whoami=0x140e0 wr=0 wrseen=0x27 addr=0x5a ok=256931 err=1 tmo=0 recov=2 pclk1=200000000 sysclk=400000000
[NAK] nacks=1
[CLK] cpu=800000000 sysb=400000000 pclk1=200000000
[TOF] res=0 step=0 id=0xeacc blk=0xeacc10 ctl=0x0
[RNG] init=0 step=99 id=0xeacc boot=1 calls=93 xerr=0 dm=1 tb=15
[RNG] osc=41 imp=881 imprb=881 mstart=0x40 cfg=91 cfgfail=0x0 vhv=0 vpolls=0
[PRT] calls=168469 xerr=0 ler=1 lidx=0x0 perr=0 maxcnt=17 addr8=0x52
[RTY] wr=0 wmax=0 wref=0  rd=0 rmax=0 rref=0
[RNG] frames=42090 last=29 min=16 max=166 nrdy=0 dxfer=0 dstat=0 lst=0 nrdyerr=0 dclr=0
[DRV] init=0 id=7 mode=0x1 lib=0x2 seq=0x1 odc=0x8b sts=0xe0 armed=1
[TRG] pulses=94 suppressed=26 cyc=1600 rst=1 rstmode=0x40
[HLT] polls=841 faults=0x0 cfglost=0
[EFF] n=5 last=58416 min=58416 max=58535 late=0 stuck=0 rderr=0
[IMU] init=0 addr=0x68 who=0x68 rst=1 pmrb0=0x40 pmrb=0x1 sr=19 cfg=4 gcfg=0x0 acfg=0x8 icfg=0x30 ien=0x1 armed=1
[ACC] reads=42090 stale=42038 rderr=1 ax=-6 ay=-30 az=1124
[PWR] pm=0x1 drift=0 rderr=0
[DWT] ok=1 cyc=1105543778 cyc_per_ms=800036
[HB] up_ms=931363 frames=42137 inf=42137 hazard=120 canary_err=0 q=0 qovr=0
[I2C] init=0 gate=0 whoami=0x140e0 wr=0 wrseen=0x27 addr=0x5a ok=257233 err=1 tmo=0 recov=2 pclk1=200000000 sysclk=400000000
[NAK] nacks=1
[CLK] cpu=800000000 sysb=400000000 pclk1=200000000
[TOF] res=0 step=0 id=0xeacc blk=0xeacc10 ctl=0x0
[RNG] init=0 step=99 id=0xeacc boot=1 calls=93 xerr=0 dm=1 tb=15
[RNG] osc=41 imp=881 imprb=881 mstart=0x40 cfg=91 cfgfail=0x0 vhv=0 vpolls=0
[PRT] calls=168669 xerr=0 ler=1 lidx=0x0 perr=0 maxcnt=17 addr8=0x52
[RTY] wr=0 wmax=0 wref=0  rd=0 rmax=0 rref=0
[RNG] frames=42140 last=36 min=16 max=166 nrdy=0 dxfer=0 dstat=0 lst=0 nrdyerr=0 dclr=0
[DRV] init=0 id=7 mode=0x1 lib=0x2 seq=0x1 odc=0x8b sts=0xe0 armed=1
[TRG] pulses=94 suppressed=26 cyc=1600 rst=1 rstmode=0x40
[HLT] polls=842 faults=0x0 cfglost=0
[EFF] n=5 last=58416 min=58416 max=58535 late=0 stuck=0 rderr=0
[IMU] init=0 addr=0x68 who=0x68 rst=1 pmrb0=0x40 pmrb=0x1 sr=19 cfg=4 gcfg=0x0 acfg=0x8 icfg=0x30 ien=0x1 armed=1
[ACC] reads=42140 stale=42088 rderr=1 ax=-6 ay=-29 az=1124
[PWR] pm=0x1 drift=0 rderr=0
[DWT] ok=1 cyc=1987239918 cyc_per_ms=800087
[HB] up_ms=932465 frames=42187 inf=42187 hazard=120 canary_err=0 q=0 qovr=0
[I2C] init=0 gate=0 whoami=0x140e0 wr=0 wrseen=0x27 addr=0x5a ok=257535 err=1 tmo=0 recov=2 pclk1=200000000 sysclk=400000000
[NAK] nacks=1
[CLK] cpu=800000000 sysb=400000000 pclk1=200000000
[TOF] res=0 step=0 id=0xeacc blk=0xeacc10 ctl=0x0
[RNG] init=0 step=99 id=0xeacc boot=1 calls=93 xerr=0 dm=1 tb=15
[RNG] osc=41 imp=881 imprb=881 mstart=0x40 cfg=91 cfgfail=0x0 vhv=0 vpolls=0
[PRT] calls=168869 xerr=0 ler=1 lidx=0x0 perr=0 maxcnt=17 addr8=0x52
[RTY] wr=0 wmax=0 wref=0  rd=0 rmax=0 rref=0
[RNG] frames=42189 last=37 min=16 max=166 nrdy=0 dxfer=0 dstat=0 lst=0 nrdyerr=0 dclr=0
[DRV] init=0 id=7 mode=0x1 lib=0x2 seq=0x1 odc=0x8b sts=0xe0 armed=1
[TRG] pulses=94 suppressed=26 cyc=1600 rst=1 rstmode=0x40
[HLT] polls=843 faults=0x0 cfglost=0
[EFF] n=5 last=58416 min=58416 max=58535 late=0 stuck=0 rderr=0
[IMU] init=0 addr=0x68 who=0x68 rst=1 pmrb0=0x40 pmrb=0x1 sr=19 cfg=4 gcfg=0x0 acfg=0x8 icfg=0x30 ien=0x1 armed=1
[ACC] reads=42190 stale=42138 rderr=1 ax=-6 ay=-28 az=1125
[PWR] pm=0x1 drift=0 rderr=0
[DWT] ok=1 cyc=2868815474 cyc_per_ms=799977
[HB] up_ms=933567 frames=42237 inf=42237 hazard=121 canary_err=0 q=0 qovr=0
[I2C] init=0 gate=0 whoami=0x140e0 wr=0 wrseen=0x27 addr=0x5a ok=257831 err=1 tmo=0 recov=2 pclk1=200000000 sysclk=400000000
[NAK] nacks=1
[CLK] cpu=800000000 sysb=400000000 pclk1=200000000
[TOF] res=0 step=0 id=0xeacc blk=0xeacc10 ctl=0x0
[RNG] init=0 step=99 id=0xeacc boot=1 calls=93 xerr=0 dm=1 tb=15
[RNG] osc=41 imp=881 imprb=881 mstart=0x40 cfg=91 cfgfail=0x0 vhv=0 vpolls=0
[PRT] calls=169069 xerr=0 ler=1 lidx=0x0 perr=0 maxcnt=17 addr8=0x52
[RTY] wr=0 wmax=0 wref=0  rd=0 rmax=0 rref=0
[RNG] frames=42239 last=38 min=16 max=166 nrdy=0 dxfer=0 dstat=0 lst=0 nrdyerr=0 dclr=0
[DRV] init=0 id=7 mode=0x1 lib=0x2 seq=0x1 odc=0x8b sts=0xe0 armed=1
[TRG] pulses=95 suppressed=26 cyc=1600 rst=1 rstmode=0x40
[HLT] polls=844 faults=0x0 cfglost=0
[EFF] n=5 last=58416 min=58416 max=58535 late=0 stuck=0 rderr=0
[IMU] init=0 addr=0x68 who=0x68 rst=1 pmrb0=0x40 pmrb=0x1 sr=19 cfg=4 gcfg=0x0 acfg=0x8 icfg=0x30 ien=0x1 armed=1
[ACC] reads=42240 stale=42188 rderr=1 ax=-7 ay=-27 az=1122
[PWR] pm=0x1 drift=0 rderr=0
[DWT] ok=1 cyc=3750303266 cyc_per_ms=799898
[HB] up_ms=934669 frames=42287 inf=42287 hazard=121 canary_err=0 q=0 qovr=0
[I2C] init=0 gate=0 whoami=0x140e0 wr=0 wrseen=0x27 addr=0x5a ok=258133 err=1 tmo=0 recov=2 pclk1=200000000 sysclk=400000000
[NAK] nacks=1
[CLK] cpu=800000000 sysb=400000000 pclk1=200000000
[TOF] res=0 step=0 id=0xeacc blk=0xeacc10 ctl=0x0
[RNG] init=0 step=99 id=0xeacc boot=1 calls=93 xerr=0 dm=1 tb=15
[RNG] osc=41 imp=881 imprb=881 mstart=0x40 cfg=91 cfgfail=0x0 vhv=0 vpolls=0
[PRT] calls=169269 xerr=0 ler=1 lidx=0x0 perr=0 maxcnt=17 addr8=0x52
[RTY] wr=0 wmax=0 wref=0  rd=0 rmax=0 rref=0
[RNG] frames=42289 last=35 min=16 max=166 nrdy=0 dxfer=0 dstat=0 lst=0 nrdyerr=0 dclr=0
[DRV] init=0 id=7 mode=0x1 lib=0x2 seq=0x1 odc=0x8b sts=0xe0 armed=1
[TRG] pulses=95 suppressed=26 cyc=1600 rst=1 rstmode=0x40
[HLT] polls=845 faults=0x0 cfglost=0
[EFF] n=5 last=58416 min=58416 max=58535 late=0 stuck=0 rderr=0
[IMU] init=0 addr=0x68 who=0x68 rst=1 pmrb0=0x40 pmrb=0x1 sr=19 cfg=4 gcfg=0x0 acfg=0x8 icfg=0x30 ien=0x1 armed=1
[ACC] reads=42290 stale=42238 rderr=1 ax=-5 ay=-28 az=1126
[PWR] pm=0x1 drift=0 rderr=0
[DWT] ok=1 cyc=336935882 cyc_per_ms=799999
[HB] up_ms=935771 frames=42337 inf=42337 hazard=121 canary_err=0 q=0 qovr=0
[I2C] init=0 gate=0 whoami=0x140e0 wr=0 wrseen=0x27 addr=0x5a ok=258435 err=1 tmo=0 recov=2 pclk1=200000000 sysclk=400000000
[NAK] nacks=1
[CLK] cpu=800000000 sysb=400000000 pclk1=200000000
[TOF] res=0 step=0 id=0xeacc blk=0xeacc10 ctl=0x0
[RNG] init=0 step=99 id=0xeacc boot=1 calls=93 xerr=0 dm=1 tb=15
[RNG] osc=41 imp=881 imprb=881 mstart=0x40 cfg=91 cfgfail=0x0 vhv=0 vpolls=0
[PRT] calls=169469 xerr=0 ler=1 lidx=0x0 perr=0 maxcnt=17 addr8=0x52
[RTY] wr=0 wmax=0 wref=0  rd=0 rmax=0 rref=0
[RNG] frames=42339 last=37 min=16 max=166 nrdy=0 dxfer=0 dstat=0 lst=0 nrdyerr=0 dclr=0
[DRV] init=0 id=7 mode=0x1 lib=0x2 seq=0x1 odc=0x8b sts=0xe0 armed=1
[TRG] pulses=95 suppressed=26 cyc=1600 rst=1 rstmode=0x40
[HLT] polls=846 faults=0x0 cfglost=0
[EFF] n=5 last=58416 min=58416 max=58535 late=0 stuck=0 rderr=0
[IMU] init=0 addr=0x68 who=0x68 rst=1 pmrb0=0x40 pmrb=0x1 sr=19 cfg=4 gcfg=0x0 acfg=0x8 icfg=0x30 ien=0x1 armed=1
[ACC] reads=42340 stale=42288 rderr=1 ax=-6 ay=-29 az=1121
[PWR] pm=0x1 drift=0 rderr=0
[DWT] ok=1 cyc=1218535846 cyc_per_ms=799999
[HB] up_ms=936873 frames=42387 inf=42387 hazard=121 canary_err=0 q=0 qovr=0
[I2C] init=0 gate=0 whoami=0x140e0 wr=0 wrseen=0x27 addr=0x5a ok=258737 err=1 tmo=0 recov=2 pclk1=200000000 sysclk=400000000
[NAK] nacks=1
[CLK] cpu=800000000 sysb=400000000 pclk1=200000000
[TOF] res=0 step=0 id=0xeacc blk=0xeacc10 ctl=0x0
[RNG] init=0 step=99 id=0xeacc boot=1 calls=93 xerr=0 dm=1 tb=15
[RNG] osc=41 imp=881 imprb=881 mstart=0x40 cfg=91 cfgfail=0x0 vhv=0 vpolls=0
[PRT] calls=169669 xerr=0 ler=1 lidx=0x0 perr=0 maxcnt=17 addr8=0x52
[RTY] wr=0 wmax=0 wref=0  rd=0 rmax=0 rref=0
[RNG] frames=42389 last=38 min=16 max=166 nrdy=0 dxfer=0 dstat=0 lst=0 nrdyerr=0 dclr=0
[DRV] init=0 id=7 mode=0x1 lib=0x2 seq=0x1 odc=0x8b sts=0xe0 armed=1
[TRG] pulses=95 suppressed=26 cyc=1600 rst=1 rstmode=0x40
[HLT] polls=847 faults=0x0 cfglost=0
[EFF] n=5 last=58416 min=58416 max=58535 late=0 stuck=0 rderr=0
[IMU] init=0 addr=0x68 who=0x68 rst=1 pmrb0=0x40 pmrb=0x1 sr=19 cfg=4 gcfg=0x0 acfg=0x8 icfg=0x30 ien=0x1 armed=1
[ACC] reads=42390 stale=42338 rderr=1 ax=-6 ay=-30 az=1123
[PWR] pm=0x1 drift=0 rderr=0
[DWT] ok=1 cyc=2100135854 cyc_per_ms=800000
[HB] up_ms=937975 frames=42437 inf=42437 hazard=121 canary_err=0 q=0 qovr=0
[I2C] init=0 gate=0 whoami=0x140e0 wr=0 wrseen=0x27 addr=0x5a ok=259039 err=1 tmo=0 recov=2 pclk1=200000000 sysclk=400000000
[NAK] nacks=1
[CLK] cpu=800000000 sysb=400000000 pclk1=200000000
[TOF] res=0 step=0 id=0xeacc blk=0xeacc10 ctl=0x0
[RNG] init=0 step=99 id=0xeacc boot=1 calls=93 xerr=0 dm=1 tb=15
[RNG] osc=41 imp=881 imprb=881 mstart=0x40 cfg=91 cfgfail=0x0 vhv=0 vpolls=0
[PRT] calls=169869 xerr=0 ler=1 lidx=0x0 perr=0 maxcnt=17 addr8=0x52
[RTY] wr=0 wmax=0 wref=0  rd=0 rmax=0 rref=0
[RNG] frames=42439 last=31 min=16 max=166 nrdy=0 dxfer=0 dstat=0 lst=0 nrdyerr=0 dclr=0
[DRV] init=0 id=7 mode=0x1 lib=0x2 seq=0x1 odc=0x8b sts=0xe0 armed=1
[TRG] pulses=95 suppressed=26 cyc=1600 rst=1 rstmode=0x40
[HLT] polls=848 faults=0x0 cfglost=0
[EFF] n=5 last=58416 min=58416 max=58535 late=0 stuck=0 rderr=0
[IMU] init=0 addr=0x68 who=0x68 rst=1 pmrb0=0x40 pmrb=0x1 sr=19 cfg=4 gcfg=0x0 acfg=0x8 icfg=0x30 ien=0x1 armed=1
[ACC] reads=42440 stale=42388 rderr=1 ax=-7 ay=-30 az=1121
[PWR] pm=0x1 drift=0 rderr=0
[DWT] ok=1 cyc=2981735966 cyc_per_ms=800000
[HB] up_ms=939077 frames=42487 inf=42487 hazard=121 canary_err=0 q=0 qovr=0
[I2C] init=0 gate=0 whoami=0x140e0 wr=0 wrseen=0x27 addr=0x5a ok=259341 err=1 tmo=0 recov=2 pclk1=200000000 sysclk=400000000
[NAK] nacks=1
[CLK] cpu=800000000 sysb=400000000 pclk1=200000000
[TOF] res=0 step=0 id=0xeacc blk=0xeacc10 ctl=0x0
[RNG] init=0 step=99 id=0xeacc boot=1 calls=93 xerr=0 dm=1 tb=15
[RNG] osc=41 imp=881 imprb=881 mstart=0x40 cfg=91 cfgfail=0x0 vhv=0 vpolls=0
[PRT] calls=170065 xerr=0 ler=1 lidx=0x0 perr=0 maxcnt=17 addr8=0x52
[RTY] wr=0 wmax=0 wref=0  rd=0 rmax=0 rref=0
[RNG] frames=42489 last=30 min=16 max=166 nrdy=0 dxfer=0 dstat=0 lst=0 nrdyerr=0 dclr=0
[DRV] init=0 id=7 mode=0x1 lib=0x2 seq=0x1 odc=0x8b sts=0xe0 armed=1
[TRG] pulses=95 suppressed=26 cyc=1600 rst=1 rstmode=0x40
[HLT] polls=849 faults=0x0 cfglost=0
[EFF] n=5 last=58416 min=58416 max=58535 late=0 stuck=0 rderr=0
[IMU] init=0 addr=0x68 who=0x68 rst=1 pmrb0=0x40 pmrb=0x1 sr=19 cfg=4 gcfg=0x0 acfg=0x8 icfg=0x30 ien=0x1 armed=1
[ACC] reads=42490 stale=42438 rderr=1 ax=-4 ay=-29 az=1125
[PWR] pm=0x1 drift=0 rderr=0
[DWT] ok=1 cyc=3863335814 cyc_per_ms=799999
[HB] up_ms=940179 frames=42537 inf=42537 hazard=121 canary_err=0 q=0 qovr=0
[I2C] init=0 gate=0 whoami=0x140e0 wr=0 wrseen=0x27 addr=0x5a ok=259643 err=1 tmo=0 recov=2 pclk1=200000000 sysclk=400000000
[NAK] nacks=1
[CLK] cpu=800000000 sysb=400000000 pclk1=200000000
[TOF] res=0 step=0 id=0xeacc blk=0xeacc10 ctl=0x0
[RNG] init=0 step=99 id=0xeacc boot=1 calls=93 xerr=0 dm=1 tb=15
[RNG] osc=41 imp=881 imprb=881 mstart=0x40 cfg=91 cfgfail=0x0 vhv=0 vpolls=0
[PRT] calls=170265 xerr=0 ler=1 lidx=0x0 perr=0 maxcnt=17 addr8=0x52
[RTY] wr=0 wmax=0 wref=0  rd=0 rmax=0 rref=0
[RNG] frames=42539 last=34 min=16 max=166 nrdy=0 dxfer=0 dstat=0 lst=0 nrdyerr=0 dclr=0
[DRV] init=0 id=7 mode=0x1 lib=0x2 seq=0x1 odc=0x8b sts=0xe0 armed=1
[TRG] pulses=95 suppressed=26 cyc=1600 rst=1 rstmode=0x40
[HLT] polls=850 faults=0x0 cfglost=0
[EFF] n=5 last=58416 min=58416 max=58535 late=0 stuck=0 rderr=0
[IMU] init=0 addr=0x68 who=0x68 rst=1 pmrb0=0x40 pmrb=0x1 sr=19 cfg=4 gcfg=0x0 acfg=0x8 icfg=0x30 ien=0x1 armed=1
[ACC] reads=42539 stale=42487 rderr=1 ax=-5 ay=-30 az=1123
[PWR] pm=0x1 drift=0 rderr=0
[DWT] ok=1 cyc=449968730 cyc_per_ms=800000
[HB] up_ms=941281 frames=42586 inf=42586 hazard=121 canary_err=0 q=0 qovr=0
[I2C] init=0 gate=0 whoami=0x140e0 wr=0 wrseen=0x27 addr=0x5a ok=259945 err=1 tmo=0 recov=2 pclk1=200000000 sysclk=400000000
[NAK] nacks=1
[CLK] cpu=800000000 sysb=400000000 pclk1=200000000
[TOF] res=0 step=0 id=0xeacc blk=0xeacc10 ctl=0x0
[RNG] init=0 step=99 id=0xeacc boot=1 calls=93 xerr=0 dm=1 tb=15
[RNG] osc=41 imp=881 imprb=881 mstart=0x40 cfg=91 cfgfail=0x0 vhv=0 vpolls=0
[PRT] calls=170465 xerr=0 ler=1 lidx=0x0 perr=0 maxcnt=17 addr8=0x52
[RTY] wr=0 wmax=0 wref=0  rd=0 rmax=0 rref=0
[RNG] frames=42589 last=32 min=16 max=166 nrdy=0 dxfer=0 dstat=0 lst=0 nrdyerr=0 dclr=0
[DRV] init=0 id=7 mode=0x1 lib=0x2 seq=0x1 odc=0x8b sts=0xe0 armed=1
[TRG] pulses=95 suppressed=26 cyc=1600 rst=1 rstmode=0x40
[HLT] polls=851 faults=0x0 cfglost=0
[EFF] n=5 last=58416 min=58416 max=58535 late=0 stuck=0 rderr=0
[IMU] init=0 addr=0x68 who=0x68 rst=1 pmrb0=0x40 pmrb=0x1 sr=19 cfg=4 gcfg=0x0 acfg=0x8 icfg=0x30 ien=0x1 armed=1
[ACC] reads=42589 stale=42537 rderr=1 ax=-6 ay=-29 az=1123
[PWR] pm=0x1 drift=0 rderr=0
[DWT] ok=1 cyc=1331704438 cyc_per_ms=800123
[HB] up_ms=942383 frames=42636 inf=42636 hazard=121 canary_err=0 q=0 qovr=0
[I2C] init=0 gate=0 whoami=0x140e0 wr=0 wrseen=0x27 addr=0x5a ok=260247 err=1 tmo=0 recov=2 pclk1=200000000 sysclk=400000000
[NAK] nacks=1
[CLK] cpu=800000000 sysb=400000000 pclk1=200000000
[TOF] res=0 step=0 id=0xeacc blk=0xeacc10 ctl=0x0
[RNG] init=0 step=99 id=0xeacc boot=1 calls=93 xerr=0 dm=1 tb=15
[RNG] osc=41 imp=881 imprb=881 mstart=0x40 cfg=91 cfgfail=0x0 vhv=0 vpolls=0
[PRT] calls=170665 xerr=0 ler=1 lidx=0x0 perr=0 maxcnt=17 addr8=0x52
[RTY] wr=0 wmax=0 wref=0  rd=0 rmax=0 rref=0
[RNG] frames=42639 last=40 min=16 max=166 nrdy=0 dxfer=0 dstat=0 lst=0 nrdyerr=0 dclr=0
[DRV] init=0 id=7 mode=0x1 lib=0x2 seq=0x1 odc=0x8b sts=0xe0 armed=1
[TRG] pulses=95 suppressed=26 cyc=1600 rst=1 rstmode=0x40
[HLT] polls=852 faults=0x0 cfglost=0
[EFF] n=5 last=58416 min=58416 max=58535 late=0 stuck=0 rderr=0
[IMU] init=0 addr=0x68 who=0x68 rst=1 pmrb0=0x40 pmrb=0x1 sr=19 cfg=4 gcfg=0x0 acfg=0x8 icfg=0x30 ien=0x1 armed=1
[ACC] reads=42639 stale=42587 rderr=1 ax=-7 ay=-28 az=1120
[PWR] pm=0x1 drift=0 rderr=0
[DWT] ok=1 cyc=2213305150 cyc_per_ms=800000
[HB] up_ms=943485 frames=42686 inf=42686 hazard=121 canary_err=0 q=0 qovr=0
[I2C] init=0 gate=0 whoami=0x140e0 wr=0 wrseen=0x27 addr=0x5a ok=260545 err=1 tmo=0 recov=2 pclk1=200000000 sysclk=400000000
[NAK] nacks=1
[CLK] cpu=800000000 sysb=400000000 pclk1=200000000
[TOF] res=0 step=0 id=0xeacc blk=0xeacc10 ctl=0x0
[RNG] init=0 step=99 id=0xeacc boot=1 calls=93 xerr=0 dm=1 tb=15
[RNG] osc=41 imp=881 imprb=881 mstart=0x40 cfg=91 cfgfail=0x0 vhv=0 vpolls=0
[PRT] calls=170865 xerr=0 ler=1 lidx=0x0 perr=0 maxcnt=17 addr8=0x52
[RTY] wr=0 wmax=0 wref=0  rd=0 rmax=0 rref=0
[RNG] frames=42688 last=50 min=16 max=166 nrdy=0 dxfer=0 dstat=0 lst=0 nrdyerr=0 dclr=0
[DRV] init=0 id=7 mode=0x1 lib=0x2 seq=0x1 odc=0x8b sts=0xe0 armed=1
[TRG] pulses=95 suppressed=26 cyc=1600 rst=1 rstmode=0x40
[HLT] polls=853 faults=0x0 cfglost=0
[EFF] n=5 last=58416 min=58416 max=58535 late=0 stuck=0 rderr=0
[IMU] init=0 addr=0x68 who=0x68 rst=1 pmrb0=0x40 pmrb=0x1 sr=19 cfg=4 gcfg=0x0 acfg=0x8 icfg=0x30 ien=0x1 armed=1
[ACC] reads=42689 stale=42637 rderr=1 ax=-5 ay=-27 az=1122
[PWR] pm=0x1 drift=0 rderr=0
[DWT] ok=1 cyc=3094768566 cyc_per_ms=799876
[HB] up_ms=944587 frames=42736 inf=42736 hazard=121 canary_err=0 q=0 qovr=0
[I2C] init=0 gate=0 whoami=0x140e0 wr=0 wrseen=0x27 addr=0x5a ok=260845 err=1 tmo=0 recov=2 pclk1=200000000 sysclk=400000000
[NAK] nacks=1
[CLK] cpu=800000000 sysb=400000000 pclk1=200000000
[TOF] res=0 step=0 id=0xeacc blk=0xeacc10 ctl=0x0
[RNG] init=0 step=99 id=0xeacc boot=1 calls=93 xerr=0 dm=1 tb=15
[RNG] osc=41 imp=881 imprb=881 mstart=0x40 cfg=91 cfgfail=0x0 vhv=0 vpolls=0
[PRT] calls=171065 xerr=0 ler=1 lidx=0x0 perr=0 maxcnt=17 addr8=0x52
[RTY] wr=0 wmax=0 wref=0  rd=0 rmax=0 rref=0
[RNG] frames=42738 last=43 min=16 max=166 nrdy=0 dxfer=0 dstat=0 lst=0 nrdyerr=0 dclr=0
[DRV] init=0 id=7 mode=0x1 lib=0x2 seq=0x1 odc=0x8b sts=0xe0 armed=1
[TRG] pulses=95 suppressed=26 cyc=1600 rst=1 rstmode=0x40
[HLT] polls=854 faults=0x0 cfglost=0
[EFF] n=5 last=58416 min=58416 max=58535 late=0 stuck=0 rderr=0
[IMU] init=0 addr=0x68 who=0x68 rst=1 pmrb0=0x40 pmrb=0x1 sr=19 cfg=4 gcfg=0x0 acfg=0x8 icfg=0x30 ien=0x1 armed=1
[ACC] reads=42739 stale=42687 rderr=1 ax=-5 ay=-30 az=1123
[PWR] pm=0x1 drift=0 rderr=0
[DWT] ok=1 cyc=3976368786 cyc_per_ms=800000
[HB] up_ms=945689 frames=42786 inf=42786 hazard=122 canary_err=0 q=0 qovr=0
[I2C] init=0 gate=0 whoami=0x140e0 wr=0 wrseen=0x27 addr=0x5a ok=261147 err=1 tmo=0 recov=2 pclk1=200000000 sysclk=400000000
[NAK] nacks=1
[CLK] cpu=800000000 sysb=400000000 pclk1=200000000
[TOF] res=0 step=0 id=0xeacc blk=0xeacc10 ctl=0x0
[RNG] init=0 step=99 id=0xeacc boot=1 calls=93 xerr=0 dm=1 tb=15
[RNG] osc=41 imp=881 imprb=881 mstart=0x40 cfg=91 cfgfail=0x0 vhv=0 vpolls=0
[PRT] calls=171265 xerr=0 ler=1 lidx=0x0 perr=0 maxcnt=17 addr8=0x52
[RTY] wr=0 wmax=0 wref=0  rd=0 rmax=0 rref=0
[RNG] frames=42788 last=30 min=16 max=166 nrdy=0 dxfer=0 dstat=0 lst=0 nrdyerr=0 dclr=0
[DRV] init=0 id=7 mode=0x1 lib=0x2 seq=0x1 odc=0x8b sts=0xe0 armed=1
[TRG] pulses=96 suppressed=26 cyc=1600 rst=1 rstmode=0x40
[HLT] polls=855 faults=0x0 cfglost=0
[EFF] n=5 last=58416 min=58416 max=58535 late=0 stuck=0 rderr=0
[IMU] init=0 addr=0x68 who=0x68 rst=1 pmrb0=0x40 pmrb=0x1 sr=19 cfg=4 gcfg=0x0 acfg=0x8 icfg=0x30 ien=0x1 armed=1
[ACC] reads=42789 stale=42737 rderr=1 ax=-6 ay=-27 az=1126
[PWR] pm=0x1 drift=0 rderr=0
[DWT] ok=1 cyc=563001370 cyc_per_ms=799999
[HB] up_ms=946791 frames=42836 inf=42836 hazard=122 canary_err=0 q=0 qovr=0
[I2C] init=0 gate=0 whoami=0x140e0 wr=0 wrseen=0x27 addr=0x5a ok=261449 err=1 tmo=0 recov=2 pclk1=200000000 sysclk=400000000
[NAK] nacks=1
[CLK] cpu=800000000 sysb=400000000 pclk1=200000000
[TOF] res=0 step=0 id=0xeacc blk=0xeacc10 ctl=0x0
[RNG] init=0 step=99 id=0xeacc boot=1 calls=93 xerr=0 dm=1 tb=15
[RNG] osc=41 imp=881 imprb=881 mstart=0x40 cfg=91 cfgfail=0x0 vhv=0 vpolls=0
[PRT] calls=171465 xerr=0 ler=1 lidx=0x0 perr=0 maxcnt=17 addr8=0x52
[RTY] wr=0 wmax=0 wref=0  rd=0 rmax=0 rref=0
[RNG] frames=42838 last=38 min=16 max=166 nrdy=0 dxfer=0 dstat=0 lst=0 nrdyerr=0 dclr=0
[DRV] init=0 id=7 mode=0x1 lib=0x2 seq=0x1 odc=0x8b sts=0xe0 armed=1
[TRG] pulses=96 suppressed=26 cyc=1600 rst=1 rstmode=0x40
[HLT] polls=856 faults=0x0 cfglost=0
[EFF] n=5 last=58416 min=58416 max=58535 late=0 stuck=0 rderr=0
[IMU] init=0 addr=0x68 who=0x68 rst=1 pmrb0=0x40 pmrb=0x1 sr=19 cfg=4 gcfg=0x0 acfg=0x8 icfg=0x30 ien=0x1 armed=1
[ACC] reads=42839 stale=42787 rderr=1 ax=-6 ay=-28 az=1124
[PWR] pm=0x1 drift=0 rderr=0
[DWT] ok=1 cyc=1444601262 cyc_per_ms=799999
[HB] up_ms=947893 frames=42886 inf=42886 hazard=124 canary_err=0 q=0 qovr=0
[I2C] init=0 gate=0 whoami=0x140e0 wr=0 wrseen=0x27 addr=0x5a ok=261751 err=1 tmo=0 recov=2 pclk1=200000000 sysclk=400000000
[NAK] nacks=1
[CLK] cpu=800000000 sysb=400000000 pclk1=200000000
[TOF] res=0 step=0 id=0xeacc blk=0xeacc10 ctl=0x0
[RNG] init=0 step=99 id=0xeacc boot=1 calls=93 xerr=0 dm=1 tb=15
[RNG] osc=41 imp=881 imprb=881 mstart=0x40 cfg=91 cfgfail=0x0 vhv=0 vpolls=0
[PRT] calls=171665 xerr=0 ler=1 lidx=0x0 perr=0 maxcnt=17 addr8=0x52
[RTY] wr=0 wmax=0 wref=0  rd=0 rmax=0 rref=0
[RNG] frames=42888 last=40 min=16 max=166 nrdy=0 dxfer=0 dstat=0 lst=0 nrdyerr=0 dclr=0
[DRV] init=0 id=7 mode=0x1 lib=0x2 seq=0x1 odc=0x8b sts=0xe0 armed=1
[TRG] pulses=97 suppressed=27 cyc=1600 rst=1 rstmode=0x40
[HLT] polls=857 faults=0x0 cfglost=0
[EFF] n=5 last=58416 min=58416 max=58535 late=0 stuck=0 rderr=0
[IMU] init=0 addr=0x68 who=0x68 rst=1 pmrb0=0x40 pmrb=0x1 sr=19 cfg=4 gcfg=0x0 acfg=0x8 icfg=0x30 ien=0x1 armed=1
[ACC] reads=42889 stale=42837 rderr=1 ax=-7 ay=-29 az=1125
[PWR] pm=0x1 drift=0 rderr=0
[DWT] ok=1 cyc=2326201362 cyc_per_ms=800000
[HB] up_ms=948995 frames=42936 inf=42936 hazard=124 canary_err=0 q=0 qovr=0
[I2C] init=0 gate=0 whoami=0x140e0 wr=0 wrseen=0x27 addr=0x5a ok=262053 err=1 tmo=0 recov=2 pclk1=200000000 sysclk=400000000
[NAK] nacks=1
[CLK] cpu=800000000 sysb=400000000 pclk1=200000000
[TOF] res=0 step=0 id=0xeacc blk=0xeacc10 ctl=0x0
[RNG] init=0 step=99 id=0xeacc boot=1 calls=93 xerr=0 dm=1 tb=15
[RNG] osc=41 imp=881 imprb=881 mstart=0x40 cfg=91 cfgfail=0x0 vhv=0 vpolls=0
[PRT] calls=171864 xerr=0 ler=1 lidx=0x0 perr=0 maxcnt=17 addr8=0x52
[RTY] wr=0 wmax=0 wref=0  rd=0 rmax=0 rref=0
[RNG] frames=42938 last=40 min=16 max=166 nrdy=0 dxfer=0 dstat=0 lst=0 nrdyerr=0 dclr=0
[DRV] init=0 id=7 mode=0x1 lib=0x2 seq=0x1 odc=0x8b sts=0xe0 armed=1
[TRG] pulses=97 suppressed=27 cyc=1600 rst=1 rstmode=0x40
[HLT] polls=858 faults=0x0 cfglost=0
[EFF] n=5 last=58416 min=58416 max=58535 late=0 stuck=0 rderr=0
[IMU] init=0 addr=0x68 who=0x68 rst=1 pmrb0=0x40 pmrb=0x1 sr=19 cfg=4 gcfg=0x0 acfg=0x8 icfg=0x30 ien=0x1 armed=1
[ACC] reads=42939 stale=42887 rderr=1 ax=-4 ay=-30 az=1123
[PWR] pm=0x1 drift=0 rderr=0
[DWT] ok=1 cyc=3207801270 cyc_per_ms=799999
[HB] up_ms=950097 frames=42986 inf=42986 hazard=124 canary_err=0 q=0 qovr=0
[I2C] init=0 gate=0 whoami=0x140e0 wr=0 wrseen=0x27 addr=0x5a ok=262355 err=1 tmo=0 recov=2 pclk1=200000000 sysclk=400000000
[NAK] nacks=1
[CLK] cpu=800000000 sysb=400000000 pclk1=200000000
[TOF] res=0 step=0 id=0xeacc blk=0xeacc10 ctl=0x0
[RNG] init=0 step=99 id=0xeacc boot=1 calls=93 xerr=0 dm=1 tb=15
[RNG] osc=41 imp=881 imprb=881 mstart=0x40 cfg=91 cfgfail=0x0 vhv=0 vpolls=0
[PRT] calls=172061 xerr=0 ler=1 lidx=0x0 perr=0 maxcnt=17 addr8=0x52
[RTY] wr=0 wmax=0 wref=0  rd=0 rmax=0 rref=0
[RNG] frames=42988 last=38 min=16 max=166 nrdy=0 dxfer=0 dstat=0 lst=0 nrdyerr=0 dclr=0
[DRV] init=0 id=7 mode=0x1 lib=0x2 seq=0x1 odc=0x8b sts=0xe0 armed=1
[TRG] pulses=97 suppressed=27 cyc=1600 rst=1 rstmode=0x40
[HLT] polls=859 faults=0x0 cfglost=0
[EFF] n=5 last=58416 min=58416 max=58535 late=0 stuck=0 rderr=0
[IMU] init=0 addr=0x68 who=0x68 rst=1 pmrb0=0x40 pmrb=0x1 sr=19 cfg=4 gcfg=0x0 acfg=0x8 icfg=0x30 ien=0x1 armed=1
[ACC] reads=42988 stale=42937 rderr=1 ax=-7 ay=-29 az=1122
[PWR] pm=0x1 drift=0 rderr=0
[DWT] ok=1 cyc=4089401282 cyc_per_ms=800000
[HB] up_ms=951199 frames=43035 inf=43035 hazard=124 canary_err=0 q=0 qovr=0
[I2C] init=0 gate=0 whoami=0x140e0 wr=0 wrseen=0x27 addr=0x5a ok=262657 err=1 tmo=0 recov=2 pclk1=200000000 sysclk=400000000
[NAK] nacks=1
[CLK] cpu=800000000 sysb=400000000 pclk1=200000000
[TOF] res=0 step=0 id=0xeacc blk=0xeacc10 ctl=0x0
[RNG] init=0 step=99 id=0xeacc boot=1 calls=93 xerr=0 dm=1 tb=15
[RNG] osc=41 imp=881 imprb=881 mstart=0x40 cfg=91 cfgfail=0x0 vhv=0 vpolls=0
[PRT] calls=172261 xerr=0 ler=1 lidx=0x0 perr=0 maxcnt=17 addr8=0x52
[RTY] wr=0 wmax=0 wref=0  rd=0 rmax=0 rref=0
[RNG] frames=43038 last=25 min=16 max=166 nrdy=0 dxfer=0 dstat=0 lst=0 nrdyerr=0 dclr=0
[DRV] init=0 id=7 mode=0x1 lib=0x2 seq=0x1 odc=0x8b sts=0xe0 armed=1
[TRG] pulses=97 suppressed=27 cyc=1600 rst=1 rstmode=0x40
[HLT] polls=860 faults=0x0 cfglost=0
[EFF] n=5 last=58416 min=58416 max=58535 late=0 stuck=0 rderr=0
[IMU] init=0 addr=0x68 who=0x68 rst=1 pmrb0=0x40 pmrb=0x1 sr=19 cfg=4 gcfg=0x0 acfg=0x8 icfg=0x30 ien=0x1 armed=1
[ACC] reads=43038 stale=42986 rderr=1 ax=-6 ay=-31 az=1120
[PWR] pm=0x1 drift=0 rderr=0
[DWT] ok=1 cyc=676074450 cyc_per_ms=800036
[HB] up_ms=952301 frames=43085 inf=43085 hazard=124 canary_err=0 q=0 qovr=0
[I2C] init=0 gate=0 whoami=0x140e0 wr=0 wrseen=0x27 addr=0x5a ok=262959 err=1 tmo=0 recov=2 pclk1=200000000 sysclk=400000000
[NAK] nacks=1
[CLK] cpu=800000000 sysb=400000000 pclk1=200000000
[TOF] res=0 step=0 id=0xeacc blk=0xeacc10 ctl=0x0
[RNG] init=0 step=99 id=0xeacc boot=1 calls=93 xerr=0 dm=1 tb=15
[RNG] osc=41 imp=881 imprb=881 mstart=0x40 cfg=91 cfgfail=0x0 vhv=0 vpolls=0
[PRT] calls=172461 xerr=0 ler=1 lidx=0x0 perr=0 maxcnt=17 addr8=0x52
[RTY] wr=0 wmax=0 wref=0  rd=0 rmax=0 rref=0
[RNG] frames=43088 last=40 min=16 max=166 nrdy=0 dxfer=0 dstat=0 lst=0 nrdyerr=0 dclr=0
[DRV] init=0 id=7 mode=0x1 lib=0x2 seq=0x1 odc=0x8b sts=0xe0 armed=1
[TRG] pulses=97 suppressed=27 cyc=1600 rst=1 rstmode=0x40
[HLT] polls=861 faults=0x0 cfglost=0
[EFF] n=5 last=58416 min=58416 max=58535 late=0 stuck=0 rderr=0
[IMU] init=0 addr=0x68 who=0x68 rst=1 pmrb0=0x40 pmrb=0x1 sr=19 cfg=4 gcfg=0x0 acfg=0x8 icfg=0x30 ien=0x1 armed=1
[ACC] reads=43088 stale=43036 rderr=1 ax=-6 ay=-27 az=1124
[PWR] pm=0x1 drift=0 rderr=0
[DWT] ok=1 cyc=1557770694 cyc_per_ms=800087
[HB] up_ms=953403 frames=43135 inf=43135 hazard=124 canary_err=0 q=0 qovr=0
[I2C] init=0 gate=0 whoami=0x140e0 wr=0 wrseen=0x27 addr=0x5a ok=263261 err=1 tmo=0 recov=2 pclk1=200000000 sysclk=400000000
[NAK] nacks=1
[CLK] cpu=800000000 sysb=400000000 pclk1=200000000
[TOF] res=0 step=0 id=0xeacc blk=0xeacc10 ctl=0x0
[RNG] init=0 step=99 id=0xeacc boot=1 calls=93 xerr=0 dm=1 tb=15
[RNG] osc=41 imp=881 imprb=881 mstart=0x40 cfg=91 cfgfail=0x0 vhv=0 vpolls=0
[PRT] calls=172661 xerr=0 ler=1 lidx=0x0 perr=0 maxcnt=17 addr8=0x52
[RTY] wr=0 wmax=0 wref=0  rd=0 rmax=0 rref=0
[RNG] frames=43137 last=38 min=16 max=166 nrdy=0 dxfer=0 dstat=0 lst=0 nrdyerr=0 dclr=0
[DRV] init=0 id=7 mode=0x1 lib=0x2 seq=0x1 odc=0x8b sts=0xe0 armed=1
[TRG] pulses=97 suppressed=27 cyc=1600 rst=1 rstmode=0x40
[HLT] polls=862 faults=0x0 cfglost=0
[EFF] n=5 last=58416 min=58416 max=58535 late=0 stuck=0 rderr=0
[IMU] init=0 addr=0x68 who=0x68 rst=1 pmrb0=0x40 pmrb=0x1 sr=19 cfg=4 gcfg=0x0 acfg=0x8 icfg=0x30 ien=0x1 armed=1
[ACC] reads=43138 stale=43086 rderr=1 ax=-8 ay=-30 az=1123
[PWR] pm=0x1 drift=0 rderr=0
[DWT] ok=1 cyc=2439346294 cyc_per_ms=799977
[HB] up_ms=954505 frames=43185 inf=43185 hazard=124 canary_err=0 q=0 qovr=0
[I2C] init=0 gate=0 whoami=0x140e0 wr=0 wrseen=0x27 addr=0x5a ok=263557 err=1 tmo=0 recov=2 pclk1=200000000 sysclk=400000000
[NAK] nacks=1
[CLK] cpu=800000000 sysb=400000000 pclk1=200000000
[TOF] res=0 step=0 id=0xeacc blk=0xeacc10 ctl=0x0
[RNG] init=0 step=99 id=0xeacc boot=1 calls=93 xerr=0 dm=1 tb=15
[RNG] osc=41 imp=881 imprb=881 mstart=0x40 cfg=91 cfgfail=0x0 vhv=0 vpolls=0
[PRT] calls=172861 xerr=0 ler=1 lidx=0x0 perr=0 maxcnt=17 addr8=0x52
[RTY] wr=0 wmax=0 wref=0  rd=0 rmax=0 rref=0
[RNG] frames=43187 last=34 min=16 max=166 nrdy=0 dxfer=0 dstat=0 lst=0 nrdyerr=0 dclr=0
[DRV] init=0 id=7 mode=0x1 lib=0x2 seq=0x1 odc=0x8b sts=0xe0 armed=1
[TRG] pulses=97 suppressed=27 cyc=1600 rst=1 rstmode=0x40
[HLT] polls=863 faults=0x0 cfglost=0
[EFF] n=5 last=58416 min=58416 max=58535 late=0 stuck=0 rderr=0
[IMU] init=0 addr=0x68 who=0x68 rst=1 pmrb0=0x40 pmrb=0x1 sr=19 cfg=4 gcfg=0x0 acfg=0x8 icfg=0x30 ien=0x1 armed=1
[ACC] reads=43188 stale=43136 rderr=1 ax=-7 ay=-30 az=1122
[PWR] pm=0x1 drift=0 rderr=0
[DWT] ok=1 cyc=3320834054 cyc_per_ms=799898
[HB] up_ms=955607 frames=43235 inf=43235 hazard=124 canary_err=0 q=0 qovr=0
[I2C] init=0 gate=0 whoami=0x140e0 wr=0 wrseen=0x27 addr=0x5a ok=263859 err=1 tmo=0 recov=2 pclk1=200000000 sysclk=400000000
[NAK] nacks=1
[CLK] cpu=800000000 sysb=400000000 pclk1=200000000
[TOF] res=0 step=0 id=0xeacc blk=0xeacc10 ctl=0x0
[RNG] init=0 step=99 id=0xeacc boot=1 calls=93 xerr=0 dm=1 tb=15
[RNG] osc=41 imp=881 imprb=881 mstart=0x40 cfg=91 cfgfail=0x0 vhv=0 vpolls=0
[PRT] calls=173061 xerr=0 ler=1 lidx=0x0 perr=0 maxcnt=17 addr8=0x52
[RTY] wr=0 wmax=0 wref=0  rd=0 rmax=0 rref=0
[RNG] frames=43237 last=37 min=16 max=166 nrdy=0 dxfer=0 dstat=0 lst=0 nrdyerr=0 dclr=0
[DRV] init=0 id=7 mode=0x1 lib=0x2 seq=0x1 odc=0x8b sts=0xe0 armed=1
[TRG] pulses=97 suppressed=27 cyc=1600 rst=1 rstmode=0x40
[HLT] polls=864 faults=0x0 cfglost=0
[EFF] n=5 last=58416 min=58416 max=58535 late=0 stuck=0 rderr=0
[IMU] init=0 addr=0x68 who=0x68 rst=1 pmrb0=0x40 pmrb=0x1 sr=19 cfg=4 gcfg=0x0 acfg=0x8 icfg=0x30 ien=0x1 armed=1
[ACC] reads=43238 stale=43186 rderr=1 ax=-7 ay=-29 az=1123
[PWR] pm=0x1 drift=0 rderr=0
[DWT] ok=1 cyc=4202434030 cyc_per_ms=799999
[HB] up_ms=956709 frames=43285 inf=43285 hazard=124 canary_err=0 q=0 qovr=0
[I2C] init=0 gate=0 whoami=0x140e0 wr=0 wrseen=0x27 addr=0x5a ok=264161 err=1 tmo=0 recov=2 pclk1=200000000 sysclk=400000000
[NAK] nacks=1
[CLK] cpu=800000000 sysb=400000000 pclk1=200000000
[TOF] res=0 step=0 id=0xeacc blk=0xeacc10 ctl=0x0
[RNG] init=0 step=99 id=0xeacc boot=1 calls=93 xerr=0 dm=1 tb=15
[RNG] osc=41 imp=881 imprb=881 mstart=0x40 cfg=91 cfgfail=0x0 vhv=0 vpolls=0
[PRT] calls=173261 xerr=0 ler=1 lidx=0x0 perr=0 maxcnt=17 addr8=0x52
[RTY] wr=0 wmax=0 wref=0  rd=0 rmax=0 rref=0
[RNG] frames=43287 last=32 min=16 max=166 nrdy=0 dxfer=0 dstat=0 lst=0 nrdyerr=0 dclr=0
[DRV] init=0 id=7 mode=0x1 lib=0x2 seq=0x1 odc=0x8b sts=0xe0 armed=1
[TRG] pulses=97 suppressed=27 cyc=1600 rst=1 rstmode=0x40
[HLT] polls=865 faults=0x0 cfglost=0
[EFF] n=5 last=58416 min=58416 max=58535 late=0 stuck=0 rderr=0
[IMU] init=0 addr=0x68 who=0x68 rst=1 pmrb0=0x40 pmrb=0x1 sr=19 cfg=4 gcfg=0x0 acfg=0x8 icfg=0x30 ien=0x1 armed=1
[ACC] reads=43288 stale=43236 rderr=1 ax=-7 ay=-30 az=1123
[PWR] pm=0x1 drift=0 rderr=0
[DWT] ok=1 cyc=789066582 cyc_per_ms=799999
[HB] up_ms=957811 frames=43335 inf=43335 hazard=124 canary_err=0 q=0 qovr=0
[I2C] init=0 gate=0 whoami=0x140e0 wr=0 wrseen=0x27 addr=0x5a ok=264463 err=1 tmo=0 recov=2 pclk1=200000000 sysclk=400000000
[NAK] nacks=1
[CLK] cpu=800000000 sysb=400000000 pclk1=200000000
[TOF] res=0 step=0 id=0xeacc blk=0xeacc10 ctl=0x0
[RNG] init=0 step=99 id=0xeacc boot=1 calls=93 xerr=0 dm=1 tb=15
[RNG] osc=41 imp=881 imprb=881 mstart=0x40 cfg=91 cfgfail=0x0 vhv=0 vpolls=0
[PRT] calls=173461 xerr=0 ler=1 lidx=0x0 perr=0 maxcnt=17 addr8=0x52
[RTY] wr=0 wmax=0 wref=0  rd=0 rmax=0 rref=0
[RNG] frames=43337 last=48 min=16 max=166 nrdy=0 dxfer=0 dstat=0 lst=0 nrdyerr=0 dclr=0
[DRV] init=0 id=7 mode=0x1 lib=0x2 seq=0x1 odc=0x8b sts=0xe0 armed=1
[TRG] pulses=97 suppressed=27 cyc=1600 rst=1 rstmode=0x40
[HLT] polls=866 faults=0x0 cfglost=0
[EFF] n=5 last=58416 min=58416 max=58535 late=0 stuck=0 rderr=0
[IMU] init=0 addr=0x68 who=0x68 rst=1 pmrb0=0x40 pmrb=0x1 sr=19 cfg=4 gcfg=0x0 acfg=0x8 icfg=0x30 ien=0x1 armed=1
[ACC] reads=43338 stale=43286 rderr=1 ax=-7 ay=-30 az=1125
[PWR] pm=0x1 drift=0 rderr=0
[DWT] ok=1 cyc=1670666750 cyc_per_ms=800000
[HB] up_ms=958913 frames=43385 inf=43385 hazard=124 canary_err=0 q=0 qovr=0
[I2C] init=0 gate=0 whoami=0x140e0 wr=0 wrseen=0x27 addr=0x5a ok=264765 err=1 tmo=0 recov=2 pclk1=200000000 sysclk=400000000
[NAK] nacks=1
[CLK] cpu=800000000 sysb=400000000 pclk1=200000000
[TOF] res=0 step=0 id=0xeacc blk=0xeacc10 ctl=0x0
[RNG] init=0 step=99 id=0xeacc boot=1 calls=93 xerr=0 dm=1 tb=15
[RNG] osc=41 imp=881 imprb=881 mstart=0x40 cfg=91 cfgfail=0x0 vhv=0 vpolls=0
[PRT] calls=173661 xerr=0 ler=1 lidx=0x0 perr=0 maxcnt=17 addr8=0x52
[RTY] wr=0 wmax=0 wref=0  rd=0 rmax=0 rref=0
[RNG] frames=43387 last=36 min=16 max=166 nrdy=0 dxfer=0 dstat=0 lst=0 nrdyerr=0 dclr=0
[DRV] init=0 id=7 mode=0x1 lib=0x2 seq=0x1 odc=0x8b sts=0xe0 armed=1
[TRG] pulses=97 suppressed=27 cyc=1600 rst=1 rstmode=0x40
[HLT] polls=867 faults=0x0 cfglost=0
[EFF] n=5 last=58416 min=58416 max=58535 late=0 stuck=0 rderr=0
[IMU] init=0 addr=0x68 who=0x68 rst=1 pmrb0=0x40 pmrb=0x1 sr=19 cfg=4 gcfg=0x0 acfg=0x8 icfg=0x30 ien=0x1 armed=1
[ACC] reads=43388 stale=43336 rderr=1 ax=-9 ay=-28 az=1121
[PWR] pm=0x1 drift=0 rderr=0
[DWT] ok=1 cyc=2552266774 cyc_per_ms=800000
[HB] up_ms=960015 frames=43435 inf=43435 hazard=124 canary_err=0 q=0 qovr=0
[I2C] init=0 gate=0 whoami=0x140e0 wr=0 wrseen=0x27 addr=0x5a ok=265067 err=1 tmo=0 recov=2 pclk1=200000000 sysclk=400000000
[NAK] nacks=1
[CLK] cpu=800000000 sysb=400000000 pclk1=200000000
[TOF] res=0 step=0 id=0xeacc blk=0xeacc10 ctl=0x0
[RNG] init=0 step=99 id=0xeacc boot=1 calls=93 xerr=0 dm=1 tb=15
[RNG] osc=41 imp=881 imprb=881 mstart=0x40 cfg=91 cfgfail=0x0 vhv=0 vpolls=0
[PRT] calls=173857 xerr=0 ler=1 lidx=0x0 perr=0 maxcnt=17 addr8=0x52
[RTY] wr=0 wmax=0 wref=0  rd=0 rmax=0 rref=0
[RNG] frames=43437 last=38 min=16 max=166 nrdy=0 dxfer=0 dstat=0 lst=0 nrdyerr=0 dclr=0
[DRV] init=0 id=7 mode=0x1 lib=0x2 seq=0x1 odc=0x8b sts=0xe0 armed=1
[TRG] pulses=97 suppressed=27 cyc=1600 rst=1 rstmode=0x40
[HLT] polls=868 faults=0x0 cfglost=0
[EFF] n=5 last=58416 min=58416 max=58535 late=0 stuck=0 rderr=0
[IMU] init=0 addr=0x68 who=0x68 rst=1 pmrb0=0x40 pmrb=0x1 sr=19 cfg=4 gcfg=0x0 acfg=0x8 icfg=0x30 ien=0x1 armed=1
[ACC] reads=43438 stale=43386 rderr=1 ax=-5 ay=-27 az=1120
[PWR] pm=0x1 drift=0 rderr=0
[DWT] ok=1 cyc=3433866670 cyc_per_ms=799999
[HB] up_ms=961117 frames=43485 inf=43485 hazard=124 canary_err=0 q=0 qovr=0
[I2C] init=0 gate=0 whoami=0x140e0 wr=0 wrseen=0x27 addr=0x5a ok=265369 err=1 tmo=0 recov=2 pclk1=200000000 sysclk=400000000
[NAK] nacks=1
[CLK] cpu=800000000 sysb=400000000 pclk1=200000000
[TOF] res=0 step=0 id=0xeacc blk=0xeacc10 ctl=0x0
[RNG] init=0 step=99 id=0xeacc boot=1 calls=93 xerr=0 dm=1 tb=15
[RNG] osc=41 imp=881 imprb=881 mstart=0x40 cfg=91 cfgfail=0x0 vhv=0 vpolls=0
[PRT] calls=174057 xerr=0 ler=1 lidx=0x0 perr=0 maxcnt=17 addr8=0x52
[RTY] wr=0 wmax=0 wref=0  rd=0 rmax=0 rref=0
[RNG] frames=43487 last=33 min=16 max=166 nrdy=0 dxfer=0 dstat=0 lst=0 nrdyerr=0 dclr=0
[DRV] init=0 id=7 mode=0x1 lib=0x2 seq=0x1 odc=0x8b sts=0xe0 armed=1
[TRG] pulses=97 suppressed=27 cyc=1600 rst=1 rstmode=0x40
[HLT] polls=869 faults=0x0 cfglost=0
[EFF] n=5 last=58416 min=58416 max=58535 late=0 stuck=0 rderr=0
[IMU] init=0 addr=0x68 who=0x68 rst=1 pmrb0=0x40 pmrb=0x1 sr=19 cfg=4 gcfg=0x0 acfg=0x8 icfg=0x30 ien=0x1 armed=1
[ACC] reads=43487 stale=43435 rderr=1 ax=-5 ay=-27 az=1123
[PWR] pm=0x1 drift=0 rderr=0
[DWT] ok=1 cyc=20499490 cyc_per_ms=800000
[HB] up_ms=962219 frames=43534 inf=43534 hazard=124 canary_err=0 q=0 qovr=0
[I2C] init=0 gate=0 whoami=0x140e0 wr=0 wrseen=0x27 addr=0x5a ok=265671 err=1 tmo=0 recov=2 pclk1=200000000 sysclk=400000000
[NAK] nacks=1
[CLK] cpu=800000000 sysb=400000000 pclk1=200000000
[TOF] res=0 step=0 id=0xeacc blk=0xeacc10 ctl=0x0
[RNG] init=0 step=99 id=0xeacc boot=1 calls=93 xerr=0 dm=1 tb=15
[RNG] osc=41 imp=881 imprb=881 mstart=0x40 cfg=91 cfgfail=0x0 vhv=0 vpolls=0
[PRT] calls=174257 xerr=0 ler=1 lidx=0x0 perr=0 maxcnt=17 addr8=0x52
[RTY] wr=0 wmax=0 wref=0  rd=0 rmax=0 rref=0
[RNG] frames=43537 last=31 min=16 max=166 nrdy=0 dxfer=0 dstat=0 lst=0 nrdyerr=0 dclr=0
[DRV] init=0 id=7 mode=0x1 lib=0x2 seq=0x1 odc=0x8b sts=0xe0 armed=1
[TRG] pulses=97 suppressed=27 cyc=1600 rst=1 rstmode=0x40
[HLT] polls=870 faults=0x0 cfglost=0
[EFF] n=5 last=58416 min=58416 max=58535 late=0 stuck=0 rderr=0
[IMU] init=0 addr=0x68 who=0x68 rst=1 pmrb0=0x40 pmrb=0x1 sr=19 cfg=4 gcfg=0x0 acfg=0x8 icfg=0x30 ien=0x1 armed=1
[ACC] reads=43537 stale=43485 rderr=1 ax=-6 ay=-27 az=1123
[PWR] pm=0x1 drift=0 rderr=0
[DWT] ok=1 cyc=902235302 cyc_per_ms=800123
[HB] up_ms=963321 frames=43584 inf=43584 hazard=124 canary_err=0 q=0 qovr=0
[I2C] init=0 gate=0 whoami=0x140e0 wr=0 wrseen=0x27 addr=0x5a ok=265973 err=1 tmo=0 recov=2 pclk1=200000000 sysclk=400000000
[NAK] nacks=1
[CLK] cpu=800000000 sysb=400000000 pclk1=200000000
[TOF] res=0 step=0 id=0xeacc blk=0xeacc10 ctl=0x0
[RNG] init=0 step=99 id=0xeacc boot=1 calls=93 xerr=0 dm=1 tb=15
[RNG] osc=41 imp=881 imprb=881 mstart=0x40 cfg=91 cfgfail=0x0 vhv=0 vpolls=0
[PRT] calls=174457 xerr=0 ler=1 lidx=0x0 perr=0 maxcnt=17 addr8=0x52
[RTY] wr=0 wmax=0 wref=0  rd=0 rmax=0 rref=0
[RNG] frames=43587 last=37 min=16 max=166 nrdy=0 dxfer=0 dstat=0 lst=0 nrdyerr=0 dclr=0
[DRV] init=0 id=7 mode=0x1 lib=0x2 seq=0x1 odc=0x8b sts=0xe0 armed=1
[TRG] pulses=97 suppressed=27 cyc=1600 rst=1 rstmode=0x40
[HLT] polls=871 faults=0x0 cfglost=0
[EFF] n=5 last=58416 min=58416 max=58535 late=0 stuck=0 rderr=0
[IMU] init=0 addr=0x68 who=0x68 rst=1 pmrb0=0x40 pmrb=0x1 sr=19 cfg=4 gcfg=0x0 acfg=0x8 icfg=0x30 ien=0x1 armed=1
[ACC] reads=43587 stale=43535 rderr=1 ax=-6 ay=-29 az=1123
[PWR] pm=0x1 drift=0 rderr=0
[DWT] ok=1 cyc=1783835958 cyc_per_ms=800000
[HB] up_ms=964423 frames=43634 inf=43634 hazard=125 canary_err=0 q=0 qovr=0
[I2C] init=0 gate=0 whoami=0x140e0 wr=0 wrseen=0x27 addr=0x5a ok=266271 err=1 tmo=0 recov=2 pclk1=200000000 sysclk=400000000
[NAK] nacks=1
[CLK] cpu=800000000 sysb=400000000 pclk1=200000000
[TOF] res=0 step=0 id=0xeacc blk=0xeacc10 ctl=0x0
[RNG] init=0 step=99 id=0xeacc boot=1 calls=93 xerr=0 dm=1 tb=15
[RNG] osc=41 imp=881 imprb=881 mstart=0x40 cfg=91 cfgfail=0x0 vhv=0 vpolls=0
[PRT] calls=174657 xerr=0 ler=1 lidx=0x0 perr=0 maxcnt=17 addr8=0x52
[RTY] wr=0 wmax=0 wref=0  rd=0 rmax=0 rref=0
[RNG] frames=43636 last=28 min=16 max=166 nrdy=0 dxfer=0 dstat=0 lst=0 nrdyerr=0 dclr=0
[DRV] init=0 id=7 mode=0x1 lib=0x2 seq=0x1 odc=0x8b sts=0xe0 armed=1
[TRG] pulses=98 suppressed=27 cyc=1600 rst=1 rstmode=0x40
[HLT] polls=872 faults=0x0 cfglost=0
[EFF] n=5 last=58416 min=58416 max=58535 late=0 stuck=0 rderr=0
[IMU] init=0 addr=0x68 who=0x68 rst=1 pmrb0=0x40 pmrb=0x1 sr=19 cfg=4 gcfg=0x0 acfg=0x8 icfg=0x30 ien=0x1 armed=1
[ACC] reads=43637 stale=43585 rderr=1 ax=-5 ay=-30 az=1122
[PWR] pm=0x1 drift=0 rderr=0
[DWT] ok=1 cyc=2665299338 cyc_per_ms=799876
[HB] up_ms=965525 frames=43684 inf=43684 hazard=125 canary_err=0 q=0 qovr=0
[I2C] init=0 gate=0 whoami=0x140e0 wr=0 wrseen=0x27 addr=0x5a ok=266571 err=1 tmo=0 recov=2 pclk1=200000000 sysclk=400000000
[NAK] nacks=1
[CLK] cpu=800000000 sysb=400000000 pclk1=200000000
[TOF] res=0 step=0 id=0xeacc blk=0xeacc10 ctl=0x0
[RNG] init=0 step=99 id=0xeacc boot=1 calls=93 xerr=0 dm=1 tb=15
[RNG] osc=41 imp=881 imprb=881 mstart=0x40 cfg=91 cfgfail=0x0 vhv=0 vpolls=0
[PRT] calls=174857 xerr=0 ler=1 lidx=0x0 perr=0 maxcnt=17 addr8=0x52
[RTY] wr=0 wmax=0 wref=0  rd=0 rmax=0 rref=0
[RNG] frames=43686 last=23 min=16 max=166 nrdy=0 dxfer=0 dstat=0 lst=0 nrdyerr=0 dclr=0
[DRV] init=0 id=7 mode=0x1 lib=0x2 seq=0x1 odc=0x8b sts=0xe0 armed=1
[TRG] pulses=98 suppressed=27 cyc=1600 rst=1 rstmode=0x40
[HLT] polls=873 faults=0x0 cfglost=0
[EFF] n=5 last=58416 min=58416 max=58535 late=0 stuck=0 rderr=0
[IMU] init=0 addr=0x68 who=0x68 rst=1 pmrb0=0x40 pmrb=0x1 sr=19 cfg=4 gcfg=0x0 acfg=0x8 icfg=0x30 ien=0x1 armed=1
[ACC] reads=43687 stale=43635 rderr=1 ax=-6 ay=-29 az=1121
[PWR] pm=0x1 drift=0 rderr=0
[DWT] ok=1 cyc=3546899546 cyc_per_ms=800000
[HB] up_ms=966627 frames=43734 inf=43734 hazard=125 canary_err=0 q=0 qovr=0
[I2C] init=0 gate=0 whoami=0x140e0 wr=0 wrseen=0x27 addr=0x5a ok=266873 err=1 tmo=0 recov=2 pclk1=200000000 sysclk=400000000
[NAK] nacks=1
[CLK] cpu=800000000 sysb=400000000 pclk1=200000000
[TOF] res=0 step=0 id=0xeacc blk=0xeacc10 ctl=0x0
[RNG] init=0 step=99 id=0xeacc boot=1 calls=93 xerr=0 dm=1 tb=15
[RNG] osc=41 imp=881 imprb=881 mstart=0x40 cfg=91 cfgfail=0x0 vhv=0 vpolls=0
[PRT] calls=175057 xerr=0 ler=1 lidx=0x0 perr=0 maxcnt=17 addr8=0x52
[RTY] wr=0 wmax=0 wref=0  rd=0 rmax=0 rref=0
[RNG] frames=43736 last=35 min=16 max=166 nrdy=0 dxfer=0 dstat=0 lst=0 nrdyerr=0 dclr=0
[DRV] init=0 id=7 mode=0x1 lib=0x2 seq=0x1 odc=0x8b sts=0xe0 armed=1
[TRG] pulses=98 suppressed=27 cyc=1600 rst=1 rstmode=0x40
[HLT] polls=874 faults=0x0 cfglost=0
[EFF] n=5 last=58416 min=58416 max=58535 late=0 stuck=0 rderr=0
[IMU] init=0 addr=0x68 who=0x68 rst=1 pmrb0=0x40 pmrb=0x1 sr=19 cfg=4 gcfg=0x0 acfg=0x8 icfg=0x30 ien=0x1 armed=1
[ACC] reads=43737 stale=43685 rderr=1 ax=-7 ay=-28 az=1122
[PWR] pm=0x1 drift=0 rderr=0
[DWT] ok=1 cyc=133532118 cyc_per_ms=799999
[HB] up_ms=967729 frames=43784 inf=43784 hazard=126 canary_err=0 q=0 qovr=0
[I2C] init=0 gate=0 whoami=0x140e0 wr=0 wrseen=0x27 addr=0x5a ok=267175 err=1 tmo=0 recov=2 pclk1=200000000 sysclk=400000000
[NAK] nacks=1
[CLK] cpu=800000000 sysb=400000000 pclk1=200000000
[TOF] res=0 step=0 id=0xeacc blk=0xeacc10 ctl=0x0
[RNG] init=0 step=99 id=0xeacc boot=1 calls=93 xerr=0 dm=1 tb=15
[RNG] osc=41 imp=881 imprb=881 mstart=0x40 cfg=91 cfgfail=0x0 vhv=0 vpolls=0
[PRT] calls=175257 xerr=0 ler=1 lidx=0x0 perr=0 maxcnt=17 addr8=0x52
[RTY] wr=0 wmax=0 wref=0  rd=0 rmax=0 rref=0
[RNG] frames=43786 last=36 min=16 max=166 nrdy=0 dxfer=0 dstat=0 lst=0 nrdyerr=0 dclr=0
[DRV] init=0 id=7 mode=0x1 lib=0x2 seq=0x1 odc=0x8b sts=0xe0 armed=1
[TRG] pulses=99 suppressed=27 cyc=1600 rst=1 rstmode=0x40
[HLT] polls=875 faults=0x0 cfglost=0
[EFF] n=5 last=58416 min=58416 max=58535 late=0 stuck=0 rderr=0
[IMU] init=0 addr=0x68 who=0x68 rst=1 pmrb0=0x40 pmrb=0x1 sr=19 cfg=4 gcfg=0x0 acfg=0x8 icfg=0x30 ien=0x1 armed=1
[ACC] reads=43787 stale=43735 rderr=1 ax=-6 ay=-27 az=1126
[PWR] pm=0x1 drift=0 rderr=0
[DWT] ok=1 cyc=1015132046 cyc_per_ms=799999
[HB] up_ms=968831 frames=43834 inf=43834 hazard=127 canary_err=0 q=0 qovr=0
[I2C] init=0 gate=0 whoami=0x140e0 wr=0 wrseen=0x27 addr=0x5a ok=267477 err=1 tmo=0 recov=2 pclk1=200000000 sysclk=400000000
[NAK] nacks=1
[CLK] cpu=800000000 sysb=400000000 pclk1=200000000
[TOF] res=0 step=0 id=0xeacc blk=0xeacc10 ctl=0x0
[RNG] init=0 step=99 id=0xeacc boot=1 calls=93 xerr=0 dm=1 tb=15
[RNG] osc=41 imp=881 imprb=881 mstart=0x40 cfg=91 cfgfail=0x0 vhv=0 vpolls=0
[PRT] calls=175457 xerr=0 ler=1 lidx=0x0 perr=0 maxcnt=17 addr8=0x52
[RTY] wr=0 wmax=0 wref=0  rd=0 rmax=0 rref=0
[RNG] frames=43836 last=33 min=12 max=166 nrdy=0 dxfer=0 dstat=0 lst=0 nrdyerr=0 dclr=0
[DRV] init=0 id=7 mode=0x1 lib=0x2 seq=0x1 odc=0x8b sts=0xe0 armed=1
[TRG] pulses=100 suppressed=27 cyc=1600 rst=1 rstmode=0x40
[HLT] polls=876 faults=0x0 cfglost=0
[EFF] n=5 last=58416 min=58416 max=58535 late=0 stuck=0 rderr=0
[IMU] init=0 addr=0x68 who=0x68 rst=1 pmrb0=0x40 pmrb=0x1 sr=19 cfg=4 gcfg=0x0 acfg=0x8 icfg=0x30 ien=0x1 armed=1
[ACC] reads=43837 stale=43785 rderr=1 ax=-6 ay=-30 az=1120
[PWR] pm=0x1 drift=0 rderr=0
[DWT] ok=1 cyc=1896802122 cyc_per_ms=800063
[HB] up_ms=969933 frames=43884 inf=43884 hazard=127 canary_err=0 q=0 qovr=0
[I2C] init=0 gate=0 whoami=0x140e0 wr=0 wrseen=0x27 addr=0x5a ok=267779 err=1 tmo=0 recov=2 pclk1=200000000 sysclk=400000000
[NAK] nacks=1
[CLK] cpu=800000000 sysb=400000000 pclk1=200000000
[TOF] res=0 step=0 id=0xeacc blk=0xeacc10 ctl=0x0
[RNG] init=0 step=99 id=0xeacc boot=1 calls=93 xerr=0 dm=1 tb=15
[RNG] osc=41 imp=881 imprb=881 mstart=0x40 cfg=91 cfgfail=0x0 vhv=0 vpolls=0
[PRT] calls=175656 xerr=0 ler=1 lidx=0x0 perr=0 maxcnt=17 addr8=0x52
[RTY] wr=0 wmax=0 wref=0  rd=0 rmax=0 rref=0
[RNG] frames=43886 last=42 min=12 max=166 nrdy=0 dxfer=0 dstat=0 lst=0 nrdyerr=0 dclr=0
[DRV] init=0 id=7 mode=0x1 lib=0x2 seq=0x1 odc=0x8b sts=0xe0 armed=1
[TRG] pulses=100 suppressed=27 cyc=1600 rst=1 rstmode=0x40
[HLT] polls=877 faults=0x0 cfglost=0
[EFF] n=5 last=58416 min=58416 max=58535 late=0 stuck=0 rderr=0
[IMU] init=0 addr=0x68 who=0x68 rst=1 pmrb0=0x40 pmrb=0x1 sr=19 cfg=4 gcfg=0x0 acfg=0x8 icfg=0x30 ien=0x1 armed=1
[ACC] reads=43887 stale=43835 rderr=1 ax=-5 ay=-28 az=1122
[PWR] pm=0x1 drift=0 rderr=0
[DWT] ok=1 cyc=2778402006 cyc_per_ms=799999
[HB] up_ms=971035 frames=43934 inf=43934 hazard=127 canary_err=0 q=0 qovr=0
[I2C] init=0 gate=0 whoami=0x140e0 wr=0 wrseen=0x27 addr=0x5a ok=268081 err=1 tmo=0 recov=2 pclk1=200000000 sysclk=400000000
[NAK] nacks=1
[CLK] cpu=800000000 sysb=400000000 pclk1=200000000
[TOF] res=0 step=0 id=0xeacc blk=0xeacc10 ctl=0x0
[RNG] init=0 step=99 id=0xeacc boot=1 calls=93 xerr=0 dm=1 tb=15
[RNG] osc=41 imp=881 imprb=881 mstart=0x40 cfg=91 cfgfail=0x0 vhv=0 vpolls=0
[PRT] calls=175853 xerr=0 ler=1 lidx=0x0 perr=0 maxcnt=17 addr8=0x52
[RTY] wr=0 wmax=0 wref=0  rd=0 rmax=0 rref=0
[RNG] frames=43936 last=44 min=12 max=166 nrdy=0 dxfer=0 dstat=0 lst=0 nrdyerr=0 dclr=0
[DRV] init=0 id=7 mode=0x1 lib=0x2 seq=0x1 odc=0x8b sts=0xe0 armed=1
[TRG] pulses=100 suppressed=27 cyc=1600 rst=1 rstmode=0x40
[HLT] polls=878 faults=0x0 cfglost=0
[EFF] n=5 last=58416 min=58416 max=58535 late=0 stuck=0 rderr=0
[IMU] init=0 addr=0x68 who=0x68 rst=1 pmrb0=0x40 pmrb=0x1 sr=19 cfg=4 gcfg=0x0 acfg=0x8 icfg=0x30 ien=0x1 armed=1
[ACC] reads=43936 stale=43885 rderr=1 ax=-5 ay=-29 az=1126
[PWR] pm=0x1 drift=0 rderr=0
[DWT] ok=1 cyc=3660002098 cyc_per_ms=800000
[HB] up_ms=972137 frames=43983 inf=43983 hazard=127 canary_err=0 q=0 qovr=0
[I2C] init=0 gate=0 whoami=0x140e0 wr=0 wrseen=0x27 addr=0x5a ok=268383 err=1 tmo=0 recov=2 pclk1=200000000 sysclk=400000000
[NAK] nacks=1
[CLK] cpu=800000000 sysb=400000000 pclk1=200000000
[TOF] res=0 step=0 id=0xeacc blk=0xeacc10 ctl=0x0
[RNG] init=0 step=99 id=0xeacc boot=1 calls=93 xerr=0 dm=1 tb=15
[RNG] osc=41 imp=881 imprb=881 mstart=0x40 cfg=91 cfgfail=0x0 vhv=0 vpolls=0
[PRT] calls=176053 xerr=0 ler=1 lidx=0x0 perr=0 maxcnt=17 addr8=0x52
[RTY] wr=0 wmax=0 wref=0  rd=0 rmax=0 rref=0
[RNG] frames=43986 last=41 min=12 max=166 nrdy=0 dxfer=0 dstat=0 lst=0 nrdyerr=0 dclr=0
[DRV] init=0 id=7 mode=0x1 lib=0x2 seq=0x1 odc=0x8b sts=0xe0 armed=1
[TRG] pulses=100 suppressed=27 cyc=1600 rst=1 rstmode=0x40
[HLT] polls=879 faults=0x0 cfglost=0
[EFF] n=5 last=58416 min=58416 max=58535 late=0 stuck=0 rderr=0
[IMU] init=0 addr=0x68 who=0x68 rst=1 pmrb0=0x40 pmrb=0x1 sr=19 cfg=4 gcfg=0x0 acfg=0x8 icfg=0x30 ien=0x1 armed=1
[ACC] reads=43986 stale=43934 rderr=1 ax=-5 ay=-29 az=1122
[PWR] pm=0x1 drift=0 rderr=0
[DWT] ok=1 cyc=246675598 cyc_per_ms=800037
[HB] up_ms=973239 frames=44033 inf=44033 hazard=127 canary_err=0 q=0 qovr=0
[I2C] init=0 gate=0 whoami=0x140e0 wr=0 wrseen=0x27 addr=0x5a ok=268685 err=1 tmo=0 recov=2 pclk1=200000000 sysclk=400000000
[NAK] nacks=1
[CLK] cpu=800000000 sysb=400000000 pclk1=200000000
[TOF] res=0 step=0 id=0xeacc blk=0xeacc10 ctl=0x0
[RNG] init=0 step=99 id=0xeacc boot=1 calls=93 xerr=0 dm=1 tb=15
[RNG] osc=41 imp=881 imprb=881 mstart=0x40 cfg=91 cfgfail=0x0 vhv=0 vpolls=0
[PRT] calls=176253 xerr=0 ler=1 lidx=0x0 perr=0 maxcnt=17 addr8=0x52
[RTY] wr=0 wmax=0 wref=0  rd=0 rmax=0 rref=0
[RNG] frames=44036 last=33 min=12 max=166 nrdy=0 dxfer=0 dstat=0 lst=0 nrdyerr=0 dclr=0
[DRV] init=0 id=7 mode=0x1 lib=0x2 seq=0x1 odc=0x8b sts=0xe0 armed=1
[TRG] pulses=100 suppressed=27 cyc=1600 rst=1 rstmode=0x40
[HLT] polls=880 faults=0x0 cfglost=0
[EFF] n=5 last=58416 min=58416 max=58535 late=0 stuck=0 rderr=0
[IMU] init=0 addr=0x68 who=0x68 rst=1 pmrb0=0x40 pmrb=0x1 sr=19 cfg=4 gcfg=0x0 acfg=0x8 icfg=0x30 ien=0x1 armed=1
[ACC] reads=44036 stale=43984 rderr=1 ax=-6 ay=-30 az=1124
[PWR] pm=0x1 drift=0 rderr=0
[DWT] ok=1 cyc=1128372256 cyc_per_ms=800087
[HB] up_ms=974341 frames=44083 inf=44083 hazard=129 canary_err=0 q=0 qovr=0
[I2C] init=0 gate=0 whoami=0x140e0 wr=0 wrseen=0x27 addr=0x5a ok=268987 err=1 tmo=0 recov=2 pclk1=200000000 sysclk=400000000
[NAK] nacks=1
[CLK] cpu=800000000 sysb=400000000 pclk1=200000000
[TOF] res=0 step=0 id=0xeacc blk=0xeacc10 ctl=0x0
[RNG] init=0 step=99 id=0xeacc boot=1 calls=93 xerr=0 dm=1 tb=15
[RNG] osc=41 imp=881 imprb=881 mstart=0x40 cfg=91 cfgfail=0x0 vhv=0 vpolls=0
[PRT] calls=176453 xerr=0 ler=1 lidx=0x0 perr=0 maxcnt=17 addr8=0x52
[RTY] wr=0 wmax=0 wref=0  rd=0 rmax=0 rref=0
[RNG] frames=44085 last=40 min=12 max=166 nrdy=0 dxfer=0 dstat=0 lst=0 nrdyerr=0 dclr=0
[DRV] init=0 id=7 mode=0x1 lib=0x2 seq=0x1 odc=0x8b sts=0xe0 armed=1
[TRG] pulses=101 suppressed=28 cyc=1600 rst=1 rstmode=0x40
[HLT] polls=881 faults=0x0 cfglost=0
[EFF] n=5 last=58416 min=58416 max=58535 late=0 stuck=0 rderr=0
[IMU] init=0 addr=0x68 who=0x68 rst=1 pmrb0=0x40 pmrb=0x1 sr=19 cfg=4 gcfg=0x0 acfg=0x8 icfg=0x30 ien=0x1 armed=1
[ACC] reads=44086 stale=44034 rderr=1 ax=-7 ay=-30 az=1126
[PWR] pm=0x1 drift=0 rderr=0
[DWT] ok=1 cyc=2009947848 cyc_per_ms=799977
[HB] up_ms=975443 frames=44133 inf=44133 hazard=130 canary_err=0 q=0 qovr=0
[I2C] init=0 gate=0 whoami=0x140e0 wr=0 wrseen=0x27 addr=0x5a ok=269283 err=1 tmo=0 recov=2 pclk1=200000000 sysclk=400000000
[NAK] nacks=1
[CLK] cpu=800000000 sysb=400000000 pclk1=200000000
[TOF] res=0 step=0 id=0xeacc blk=0xeacc10 ctl=0x0
[RNG] init=0 step=99 id=0xeacc boot=1 calls=93 xerr=0 dm=1 tb=15
[RNG] osc=41 imp=881 imprb=881 mstart=0x40 cfg=91 cfgfail=0x0 vhv=0 vpolls=0
[PRT] calls=176653 xerr=0 ler=1 lidx=0x0 perr=0 maxcnt=17 addr8=0x52
[RTY] wr=0 wmax=0 wref=0  rd=0 rmax=0 rref=0
[RNG] frames=44135 last=34 min=12 max=166 nrdy=0 dxfer=0 dstat=0 lst=0 nrdyerr=0 dclr=0
[DRV] init=0 id=7 mode=0x1 lib=0x2 seq=0x1 odc=0x8b sts=0xe0 armed=1
[TRG] pulses=102 suppressed=28 cyc=1600 rst=1 rstmode=0x40
[HLT] polls=882 faults=0x0 cfglost=0
[EFF] n=5 last=58416 min=58416 max=58535 late=0 stuck=0 rderr=0
[IMU] init=0 addr=0x68 who=0x68 rst=1 pmrb0=0x40 pmrb=0x1 sr=19 cfg=4 gcfg=0x0 acfg=0x8 icfg=0x30 ien=0x1 armed=1
[ACC] reads=44136 stale=44084 rderr=1 ax=-6 ay=-29 az=1123
[PWR] pm=0x1 drift=0 rderr=0
[DWT] ok=1 cyc=2891434842 cyc_per_ms=799897
[HB] up_ms=976545 frames=44183 inf=44183 hazard=130 canary_err=0 q=0 qovr=0
[I2C] init=0 gate=0 whoami=0x140e0 wr=0 wrseen=0x27 addr=0x5a ok=269585 err=1 tmo=0 recov=2 pclk1=200000000 sysclk=400000000
[NAK] nacks=1
[CLK] cpu=800000000 sysb=400000000 pclk1=200000000
[TOF] res=0 step=0 id=0xeacc blk=0xeacc10 ctl=0x0
[RNG] init=0 step=99 id=0xeacc boot=1 calls=93 xerr=0 dm=1 tb=15
[RNG] osc=41 imp=881 imprb=881 mstart=0x40 cfg=91 cfgfail=0x0 vhv=0 vpolls=0
[PRT] calls=176853 xerr=0 ler=1 lidx=0x0 perr=0 maxcnt=17 addr8=0x52
[RTY] wr=0 wmax=0 wref=0  rd=0 rmax=0 rref=0
[RNG] frames=44185 last=38 min=12 max=166 nrdy=0 dxfer=0 dstat=0 lst=0 nrdyerr=0 dclr=0
[DRV] init=0 id=7 mode=0x1 lib=0x2 seq=0x1 odc=0x8b sts=0xe0 armed=1
[TRG] pulses=102 suppressed=28 cyc=1600 rst=1 rstmode=0x40
[HLT] polls=883 faults=0x0 cfglost=0
[EFF] n=5 last=58416 min=58416 max=58535 late=0 stuck=0 rderr=0
[IMU] init=0 addr=0x68 who=0x68 rst=1 pmrb0=0x40 pmrb=0x1 sr=19 cfg=4 gcfg=0x0 acfg=0x8 icfg=0x30 ien=0x1 armed=1
[ACC] reads=44186 stale=44134 rderr=1 ax=-4 ay=-28 az=1121
[PWR] pm=0x1 drift=0 rderr=0
[DWT] ok=1 cyc=3773034878 cyc_per_ms=800000
[HB] up_ms=977647 frames=44233 inf=44233 hazard=130 canary_err=0 q=0 qovr=0
[I2C] init=0 gate=0 whoami=0x140e0 wr=0 wrseen=0x27 addr=0x5a ok=269887 err=1 tmo=0 recov=2 pclk1=200000000 sysclk=400000000
[NAK] nacks=1
[CLK] cpu=800000000 sysb=400000000 pclk1=200000000
[TOF] res=0 step=0 id=0xeacc blk=0xeacc10 ctl=0x0
[RNG] init=0 step=99 id=0xeacc boot=1 calls=93 xerr=0 dm=1 tb=15
[RNG] osc=41 imp=881 imprb=881 mstart=0x40 cfg=91 cfgfail=0x0 vhv=0 vpolls=0
[PRT] calls=177053 xerr=0 ler=1 lidx=0x0 perr=0 maxcnt=17 addr8=0x52
[RTY] wr=0 wmax=0 wref=0  rd=0 rmax=0 rref=0
[RNG] frames=44235 last=29 min=12 max=166 nrdy=0 dxfer=0 dstat=0 lst=0 nrdyerr=0 dclr=0
[DRV] init=0 id=7 mode=0x1 lib=0x2 seq=0x1 odc=0x8b sts=0xe0 armed=1
[TRG] pulses=102 suppressed=28 cyc=1600 rst=1 rstmode=0x40
[HLT] polls=884 faults=0x0 cfglost=0
[EFF] n=5 last=58416 min=58416 max=58535 late=0 stuck=0 rderr=0
[IMU] init=0 addr=0x68 who=0x68 rst=1 pmrb0=0x40 pmrb=0x1 sr=19 cfg=4 gcfg=0x0 acfg=0x8 icfg=0x30 ien=0x1 armed=1
[ACC] reads=44236 stale=44184 rderr=1 ax=-4 ay=-30 az=1124
[PWR] pm=0x1 drift=0 rderr=0
[DWT] ok=1 cyc=359667430 cyc_per_ms=799999
[HB] up_ms=978749 frames=44283 inf=44283 hazard=130 canary_err=0 q=0 qovr=0
[I2C] init=0 gate=0 whoami=0x140e0 wr=0 wrseen=0x27 addr=0x5a ok=270189 err=1 tmo=0 recov=2 pclk1=200000000 sysclk=400000000
[NAK] nacks=1
[CLK] cpu=800000000 sysb=400000000 pclk1=200000000
[TOF] res=0 step=0 id=0xeacc blk=0xeacc10 ctl=0x0
[RNG] init=0 step=99 id=0xeacc boot=1 calls=93 xerr=0 dm=1 tb=15
[RNG] osc=41 imp=881 imprb=881 mstart=0x40 cfg=91 cfgfail=0x0 vhv=0 vpolls=0
[PRT] calls=177253 xerr=0 ler=1 lidx=0x0 perr=0 maxcnt=17 addr8=0x52
[RTY] wr=0 wmax=0 wref=0  rd=0 rmax=0 rref=0
[RNG] frames=44285 last=35 min=12 max=166 nrdy=0 dxfer=0 dstat=0 lst=0 nrdyerr=0 dclr=0
[DRV] init=0 id=7 mode=0x1 lib=0x2 seq=0x1 odc=0x8b sts=0xe0 armed=1
[TRG] pulses=102 suppressed=28 cyc=1600 rst=1 rstmode=0x40
[HLT] polls=885 faults=0x0 cfglost=0
[EFF] n=5 last=58416 min=58416 max=58535 late=0 stuck=0 rderr=0
[IMU] init=0 addr=0x68 who=0x68 rst=1 pmrb0=0x40 pmrb=0x1 sr=19 cfg=4 gcfg=0x0 acfg=0x8 icfg=0x30 ien=0x1 armed=1
[ACC] reads=44286 stale=44233 rderr=1 ax=-6 ay=-29 az=1125
[PWR] pm=0x1 drift=0 rderr=0
[DWT] ok=1 cyc=1241267474 cyc_per_ms=800000
[HB] up_ms=979851 frames=44333 inf=44333 hazard=130 canary_err=0 q=0 qovr=0
[I2C] init=0 gate=0 whoami=0x140e0 wr=0 wrseen=0x27 addr=0x5a ok=270491 err=1 tmo=0 recov=2 pclk1=200000000 sysclk=400000000
[NAK] nacks=1
[CLK] cpu=800000000 sysb=400000000 pclk1=200000000
[TOF] res=0 step=0 id=0xeacc blk=0xeacc10 ctl=0x0
[RNG] init=0 step=99 id=0xeacc boot=1 calls=93 xerr=0 dm=1 tb=15
[RNG] osc=41 imp=881 imprb=881 mstart=0x40 cfg=91 cfgfail=0x0 vhv=0 vpolls=0
[PRT] calls=177453 xerr=0 ler=1 lidx=0x0 perr=0 maxcnt=17 addr8=0x52
[RTY] wr=0 wmax=0 wref=0  rd=0 rmax=0 rref=0
[RNG] frames=44335 last=46 min=12 max=166 nrdy=0 dxfer=0 dstat=0 lst=0 nrdyerr=0 dclr=0
[DRV] init=0 id=7 mode=0x1 lib=0x2 seq=0x1 odc=0x8b sts=0xe0 armed=1
[TRG] pulses=102 suppressed=28 cyc=1600 rst=1 rstmode=0x40
[HLT] polls=886 faults=0x0 cfglost=0
[EFF] n=5 last=58416 min=58416 max=58535 late=0 stuck=0 rderr=0
[IMU] init=0 addr=0x68 who=0x68 rst=1 pmrb0=0x40 pmrb=0x1 sr=19 cfg=4 gcfg=0x0 acfg=0x8 icfg=0x30 ien=0x1 armed=1
[ACC] reads=44336 stale=44283 rderr=1 ax=-7 ay=-29 az=1123
[PWR] pm=0x1 drift=0 rderr=0
[DWT] ok=1 cyc=2122867418 cyc_per_ms=799999
[HB] up_ms=980953 frames=44383 inf=44383 hazard=130 canary_err=0 q=0 qovr=0
[I2C] init=0 gate=0 whoami=0x140e0 wr=0 wrseen=0x27 addr=0x5a ok=270793 err=1 tmo=0 recov=2 pclk1=200000000 sysclk=400000000
[NAK] nacks=1
[CLK] cpu=800000000 sysb=400000000 pclk1=200000000
[TOF] res=0 step=0 id=0xeacc blk=0xeacc10 ctl=0x0
[RNG] init=0 step=99 id=0xeacc boot=1 calls=93 xerr=0 dm=1 tb=15
[RNG] osc=41 imp=881 imprb=881 mstart=0x40 cfg=91 cfgfail=0x0 vhv=0 vpolls=0
[PRT] calls=177649 xerr=0 ler=1 lidx=0x0 perr=0 maxcnt=17 addr8=0x52
[RTY] wr=0 wmax=0 wref=0  rd=0 rmax=0 rref=0
[RNG] frames=44385 last=40 min=12 max=166 nrdy=0 dxfer=0 dstat=0 lst=0 nrdyerr=0 dclr=0
[DRV] init=0 id=7 mode=0x1 lib=0x2 seq=0x1 odc=0x8b sts=0xe0 armed=1
[TRG] pulses=102 suppressed=28 cyc=1600 rst=1 rstmode=0x40
[HLT] polls=887 faults=0x0 cfglost=0
[EFF] n=5 last=58416 min=58416 max=58535 late=0 stuck=0 rderr=0
[IMU] init=0 addr=0x68 who=0x68 rst=1 pmrb0=0x40 pmrb=0x1 sr=19 cfg=4 gcfg=0x0 acfg=0x8 icfg=0x30 ien=0x1 armed=1
[ACC] reads=44386 stale=44333 rderr=1 ax=-7 ay=-30 az=1122
[PWR] pm=0x1 drift=0 rderr=0
[DWT] ok=1 cyc=3004467498 cyc_per_ms=800000
[HB] up_ms=982055 frames=44433 inf=44433 hazard=131 canary_err=0 q=0 qovr=0
[I2C] init=0 gate=0 whoami=0x140e0 wr=0 wrseen=0x27 addr=0x5a ok=271095 err=1 tmo=0 recov=2 pclk1=200000000 sysclk=400000000
[NAK] nacks=1
[CLK] cpu=800000000 sysb=400000000 pclk1=200000000
[TOF] res=0 step=0 id=0xeacc blk=0xeacc10 ctl=0x0
[RNG] init=0 step=99 id=0xeacc boot=1 calls=93 xerr=0 dm=1 tb=15
[RNG] osc=41 imp=881 imprb=881 mstart=0x40 cfg=91 cfgfail=0x0 vhv=0 vpolls=0
[PRT] calls=177849 xerr=0 ler=1 lidx=0x0 perr=0 maxcnt=17 addr8=0x52
[RTY] wr=0 wmax=0 wref=0  rd=0 rmax=0 rref=0
[RNG] frames=44435 last=39 min=12 max=166 nrdy=0 dxfer=0 dstat=0 lst=0 nrdyerr=0 dclr=0
[DRV] init=0 id=7 mode=0x1 lib=0x2 seq=0x1 odc=0x8b sts=0xe0 armed=1
[TRG] pulses=103 suppressed=28 cyc=1600 rst=1 rstmode=0x40
[HLT] polls=888 faults=0x0 cfglost=0
[EFF] n=5 last=58416 min=58416 max=58535 late=0 stuck=0 rderr=0
[IMU] init=0 addr=0x68 who=0x68 rst=1 pmrb0=0x40 pmrb=0x1 sr=19 cfg=4 gcfg=0x0 acfg=0x8 icfg=0x30 ien=0x1 armed=1
[ACC] reads=44435 stale=44382 rderr=1 ax=-6 ay=-29 az=1121
[PWR] pm=0x1 drift=0 rderr=0
[DWT] ok=1 cyc=3886067598 cyc_per_ms=800000
[HB] up_ms=983157 frames=44482 inf=44482 hazard=131 canary_err=0 q=0 qovr=0
[I2C] init=0 gate=0 whoami=0x140e0 wr=0 wrseen=0x27 addr=0x5a ok=271397 err=1 tmo=0 recov=2 pclk1=200000000 sysclk=400000000
[NAK] nacks=1
[CLK] cpu=800000000 sysb=400000000 pclk1=200000000
[TOF] res=0 step=0 id=0xeacc blk=0xeacc10 ctl=0x0
[RNG] init=0 step=99 id=0xeacc boot=1 calls=93 xerr=0 dm=1 tb=15
[RNG] osc=41 imp=881 imprb=881 mstart=0x40 cfg=91 cfgfail=0x0 vhv=0 vpolls=0
[PRT] calls=178049 xerr=0 ler=1 lidx=0x0 perr=0 maxcnt=17 addr8=0x52
[RTY] wr=0 wmax=0 wref=0  rd=0 rmax=0 rref=0
[RNG] frames=44485 last=40 min=12 max=166 nrdy=0 dxfer=0 dstat=0 lst=0 nrdyerr=0 dclr=0
[DRV] init=0 id=7 mode=0x1 lib=0x2 seq=0x1 odc=0x8b sts=0xe0 armed=1
[TRG] pulses=103 suppressed=28 cyc=1600 rst=1 rstmode=0x40
[HLT] polls=889 faults=0x0 cfglost=0
[EFF] n=5 last=58416 min=58416 max=58535 late=0 stuck=0 rderr=0
[IMU] init=0 addr=0x68 who=0x68 rst=1 pmrb0=0x40 pmrb=0x1 sr=19 cfg=4 gcfg=0x0 acfg=0x8 icfg=0x30 ien=0x1 armed=1
[ACC] reads=44485 stale=44432 rderr=1 ax=-5 ay=-28 az=1123
[PWR] pm=0x1 drift=0 rderr=0
[DWT] ok=1 cyc=472836976 cyc_per_ms=800124
[HB] up_ms=984259 frames=44532 inf=44532 hazard=131 canary_err=0 q=0 qovr=0
[I2C] init=0 gate=0 whoami=0x140e0 wr=0 wrseen=0x27 addr=0x5a ok=271699 err=1 tmo=0 recov=2 pclk1=200000000 sysclk=400000000
[NAK] nacks=1
[CLK] cpu=800000000 sysb=400000000 pclk1=200000000
[TOF] res=0 step=0 id=0xeacc blk=0xeacc10 ctl=0x0
[RNG] init=0 step=99 id=0xeacc boot=1 calls=93 xerr=0 dm=1 tb=15
[RNG] osc=41 imp=881 imprb=881 mstart=0x40 cfg=91 cfgfail=0x0 vhv=0 vpolls=0
[PRT] calls=178249 xerr=0 ler=1 lidx=0x0 perr=0 maxcnt=17 addr8=0x52
[RTY] wr=0 wmax=0 wref=0  rd=0 rmax=0 rref=0
[RNG] frames=44535 last=30 min=12 max=166 nrdy=0 dxfer=0 dstat=0 lst=0 nrdyerr=0 dclr=0
[DRV] init=0 id=7 mode=0x1 lib=0x2 seq=0x1 odc=0x8b sts=0xe0 armed=1
[TRG] pulses=103 suppressed=28 cyc=1600 rst=1 rstmode=0x40
[HLT] polls=890 faults=0x0 cfglost=0
[EFF] n=5 last=58416 min=58416 max=58535 late=0 stuck=0 rderr=0
[IMU] init=0 addr=0x68 who=0x68 rst=1 pmrb0=0x40 pmrb=0x1 sr=19 cfg=4 gcfg=0x0 acfg=0x8 icfg=0x30 ien=0x1 armed=1
[ACC] reads=44535 stale=44482 rderr=1 ax=-5 ay=-28 az=1124
[PWR] pm=0x1 drift=0 rderr=0
[DWT] ok=1 cyc=1354437584 cyc_per_ms=800000
[HB] up_ms=985361 frames=44582 inf=44582 hazard=131 canary_err=0 q=0 qovr=0
[I2C] init=0 gate=0 whoami=0x140e0 wr=0 wrseen=0x27 addr=0x5a ok=271997 err=1 tmo=0 recov=2 pclk1=200000000 sysclk=400000000
[NAK] nacks=1
[CLK] cpu=800000000 sysb=400000000 pclk1=200000000
[TOF] res=0 step=0 id=0xeacc blk=0xeacc10 ctl=0x0
[RNG] init=0 step=99 id=0xeacc boot=1 calls=93 xerr=0 dm=1 tb=15
[RNG] osc=41 imp=881 imprb=881 mstart=0x40 cfg=91 cfgfail=0x0 vhv=0 vpolls=0
[PRT] calls=178449 xerr=0 ler=1 lidx=0x0 perr=0 maxcnt=17 addr8=0x52
[RTY] wr=0 wmax=0 wref=0  rd=0 rmax=0 rref=0
[RNG] frames=44584 last=40 min=12 max=166 nrdy=0 dxfer=0 dstat=0 lst=0 nrdyerr=0 dclr=0
[DRV] init=0 id=7 mode=0x1 lib=0x2 seq=0x1 odc=0x8b sts=0xe0 armed=1
[TRG] pulses=103 suppressed=28 cyc=1600 rst=1 rstmode=0x40
[HLT] polls=891 faults=0x0 cfglost=0
[EFF] n=5 last=58416 min=58416 max=58535 late=0 stuck=0 rderr=0
[IMU] init=0 addr=0x68 who=0x68 rst=1 pmrb0=0x40 pmrb=0x1 sr=19 cfg=4 gcfg=0x0 acfg=0x8 icfg=0x30 ien=0x1 armed=1
[ACC] reads=44585 stale=44532 rderr=1 ax=-6 ay=-27 az=1122
[PWR] pm=0x1 drift=0 rderr=0
[DWT] ok=1 cyc=2235900198 cyc_per_ms=799875
[HB] up_ms=986463 frames=44632 inf=44632 hazard=133 canary_err=0 q=0 qovr=0
[I2C] init=0 gate=0 whoami=0x140e0 wr=0 wrseen=0x27 addr=0x5a ok=272297 err=1 tmo=0 recov=2 pclk1=200000000 sysclk=400000000
[NAK] nacks=1
[CLK] cpu=800000000 sysb=400000000 pclk1=200000000
[TOF] res=0 step=0 id=0xeacc blk=0xeacc10 ctl=0x0
[RNG] init=0 step=99 id=0xeacc boot=1 calls=93 xerr=0 dm=1 tb=15
[RNG] osc=41 imp=881 imprb=881 mstart=0x40 cfg=91 cfgfail=0x0 vhv=0 vpolls=0
[PRT] calls=178649 xerr=0 ler=1 lidx=0x0 perr=0 maxcnt=17 addr8=0x52
[RTY] wr=0 wmax=0 wref=0  rd=0 rmax=0 rref=0
[RNG] frames=44634 last=36 min=12 max=166 nrdy=0 dxfer=0 dstat=0 lst=0 nrdyerr=0 dclr=0
[DRV] init=0 id=7 mode=0x1 lib=0x2 seq=0x1 odc=0x8b sts=0xe0 armed=1
[TRG] pulses=104 suppressed=29 cyc=1600 rst=1 rstmode=0x40
[HLT] polls=892 faults=0x0 cfglost=0
[EFF] n=5 last=58416 min=58416 max=58535 late=0 stuck=0 rderr=0
[IMU] init=0 addr=0x68 who=0x68 rst=1 pmrb0=0x40 pmrb=0x1 sr=19 cfg=4 gcfg=0x0 acfg=0x8 icfg=0x30 ien=0x1 armed=1
[ACC] reads=44635 stale=44582 rderr=1 ax=-7 ay=-28 az=1124
[PWR] pm=0x1 drift=0 rderr=0
[DWT] ok=1 cyc=3117500262 cyc_per_ms=800000
[HB] up_ms=987565 frames=44682 inf=44682 hazard=133 canary_err=0 q=0 qovr=0
[I2C] init=0 gate=0 whoami=0x140e0 wr=0 wrseen=0x27 addr=0x5a ok=272599 err=1 tmo=0 recov=2 pclk1=200000000 sysclk=400000000
[NAK] nacks=1
[CLK] cpu=800000000 sysb=400000000 pclk1=200000000
[TOF] res=0 step=0 id=0xeacc blk=0xeacc10 ctl=0x0
[RNG] init=0 step=99 id=0xeacc boot=1 calls=93 xerr=0 dm=1 tb=15
[RNG] osc=41 imp=881 imprb=881 mstart=0x40 cfg=91 cfgfail=0x0 vhv=0 vpolls=0
[PRT] calls=178849 xerr=0 ler=1 lidx=0x0 perr=0 maxcnt=17 addr8=0x52
[RTY] wr=0 wmax=0 wref=0  rd=0 rmax=0 rref=0
[RNG] frames=44684 last=34 min=12 max=166 nrdy=0 dxfer=0 dstat=0 lst=0 nrdyerr=0 dclr=0
[DRV] init=0 id=7 mode=0x1 lib=0x2 seq=0x1 odc=0x8b sts=0xe0 armed=1
[TRG] pulses=104 suppressed=29 cyc=1600 rst=1 rstmode=0x40
[HLT] polls=893 faults=0x0 cfglost=0
[EFF] n=5 last=58416 min=58416 max=58535 late=0 stuck=0 rderr=0
[IMU] init=0 addr=0x68 who=0x68 rst=1 pmrb0=0x40 pmrb=0x1 sr=19 cfg=4 gcfg=0x0 acfg=0x8 icfg=0x30 ien=0x1 armed=1
[ACC] reads=44685 stale=44632 rderr=1 ax=-5 ay=-29 az=1124
[PWR] pm=0x1 drift=0 rderr=0
[DWT] ok=1 cyc=3999100170 cyc_per_ms=799999
[HB] up_ms=988667 frames=44732 inf=44732 hazard=133 canary_err=0 q=0 qovr=0
[I2C] init=0 gate=0 whoami=0x140e0 wr=0 wrseen=0x27 addr=0x5a ok=272901 err=1 tmo=0 recov=2 pclk1=200000000 sysclk=400000000
[NAK] nacks=1
[CLK] cpu=800000000 sysb=400000000 pclk1=200000000
[TOF] res=0 step=0 id=0xeacc blk=0xeacc10 ctl=0x0
[RNG] init=0 step=99 id=0xeacc boot=1 calls=93 xerr=0 dm=1 tb=15
[RNG] osc=41 imp=881 imprb=881 mstart=0x40 cfg=91 cfgfail=0x0 vhv=0 vpolls=0
[PRT] calls=179049 xerr=0 ler=1 lidx=0x0 perr=0 maxcnt=17 addr8=0x52
[RTY] wr=0 wmax=0 wref=0  rd=0 rmax=0 rref=0
[RNG] frames=44734 last=35 min=12 max=166 nrdy=0 dxfer=0 dstat=0 lst=0 nrdyerr=0 dclr=0
[DRV] init=0 id=7 mode=0x1 lib=0x2 seq=0x1 odc=0x8b sts=0xe0 armed=1
[TRG] pulses=104 suppressed=29 cyc=1600 rst=1 rstmode=0x40
[HLT] polls=894 faults=0x0 cfglost=0
[EFF] n=5 last=58416 min=58416 max=58535 late=0 stuck=0 rderr=0
[IMU] init=0 addr=0x68 who=0x68 rst=1 pmrb0=0x40 pmrb=0x1 sr=19 cfg=4 gcfg=0x0 acfg=0x8 icfg=0x30 ien=0x1 armed=1
[ACC] reads=44735 stale=44681 rderr=1 ax=-7 ay=-30 az=1120
[PWR] pm=0x1 drift=0 rderr=0
[DWT] ok=1 cyc=585732962 cyc_per_ms=800000
[HB] up_ms=989769 frames=44782 inf=44782 hazard=133 canary_err=0 q=0 qovr=0
[I2C] init=0 gate=0 whoami=0x140e0 wr=0 wrseen=0x27 addr=0x5a ok=273203 err=1 tmo=0 recov=2 pclk1=200000000 sysclk=400000000
[NAK] nacks=1
[CLK] cpu=800000000 sysb=400000000 pclk1=200000000
[TOF] res=0 step=0 id=0xeacc blk=0xeacc10 ctl=0x0
[RNG] init=0 step=99 id=0xeacc boot=1 calls=93 xerr=0 dm=1 tb=15
[RNG] osc=41 imp=881 imprb=881 mstart=0x40 cfg=91 cfgfail=0x0 vhv=0 vpolls=0
[PRT] calls=179249 xerr=0 ler=1 lidx=0x0 perr=0 maxcnt=17 addr8=0x52
[RTY] wr=0 wmax=0 wref=0  rd=0 rmax=0 rref=0
[RNG] frames=44784 last=36 min=12 max=166 nrdy=0 dxfer=0 dstat=0 lst=0 nrdyerr=0 dclr=0
[DRV] init=0 id=7 mode=0x1 lib=0x2 seq=0x1 odc=0x8b sts=0xe0 armed=1
[TRG] pulses=104 suppressed=29 cyc=1600 rst=1 rstmode=0x40
[HLT] polls=895 faults=0x0 cfglost=0
[EFF] n=5 last=58416 min=58416 max=58535 late=0 stuck=0 rderr=0
[IMU] init=0 addr=0x68 who=0x68 rst=1 pmrb0=0x40 pmrb=0x1 sr=19 cfg=4 gcfg=0x0 acfg=0x8 icfg=0x30 ien=0x1 armed=1
[ACC] reads=44785 stale=44731 rderr=1 ax=-6 ay=-28 az=1125
[PWR] pm=0x1 drift=0 rderr=0
[DWT] ok=1 cyc=1467332802 cyc_per_ms=799999
[HB] up_ms=990871 frames=44832 inf=44832 hazard=134 canary_err=0 q=0 qovr=0
[I2C] init=0 gate=0 whoami=0x140e0 wr=0 wrseen=0x27 addr=0x5a ok=273505 err=1 tmo=0 recov=2 pclk1=200000000 sysclk=400000000
[NAK] nacks=1
[CLK] cpu=800000000 sysb=400000000 pclk1=200000000
[TOF] res=0 step=0 id=0xeacc blk=0xeacc10 ctl=0x0
[RNG] init=0 step=99 id=0xeacc boot=1 calls=93 xerr=0 dm=1 tb=15
[RNG] osc=41 imp=881 imprb=881 mstart=0x40 cfg=91 cfgfail=0x0 vhv=0 vpolls=0
[PRT] calls=179445 xerr=0 ler=1 lidx=0x0 perr=0 maxcnt=17 addr8=0x52
[RTY] wr=0 wmax=0 wref=0  rd=0 rmax=0 rref=0
[RNG] frames=44834 last=34 min=12 max=166 nrdy=0 dxfer=0 dstat=0 lst=0 nrdyerr=0 dclr=0
[DRV] init=0 id=7 mode=0x1 lib=0x2 seq=0x1 odc=0x8b sts=0xe0 armed=1
[TRG] pulses=105 suppressed=29 cyc=1600 rst=1 rstmode=0x40
[HLT] polls=896 faults=0x0 cfglost=0
[EFF] n=5 last=58416 min=58416 max=58535 late=0 stuck=0 rderr=0
[IMU] init=0 addr=0x68 who=0x68 rst=1 pmrb0=0x40 pmrb=0x1 sr=19 cfg=4 gcfg=0x0 acfg=0x8 icfg=0x30 ien=0x1 armed=1
[ACC] reads=44835 stale=44781 rderr=1 ax=-7 ay=-27 az=1122
[PWR] pm=0x1 drift=0 rderr=0
[DWT] ok=1 cyc=2348932810 cyc_per_ms=800000
[HB] up_ms=991973 frames=44882 inf=44882 hazard=134 canary_err=0 q=0 qovr=0
[I2C] init=0 gate=0 whoami=0x140e0 wr=0 wrseen=0x27 addr=0x5a ok=273807 err=1 tmo=0 recov=2 pclk1=200000000 sysclk=400000000
[NAK] nacks=1
[CLK] cpu=800000000 sysb=400000000 pclk1=200000000
[TOF] res=0 step=0 id=0xeacc blk=0xeacc10 ctl=0x0
[RNG] init=0 step=99 id=0xeacc boot=1 calls=93 xerr=0 dm=1 tb=15
[RNG] osc=41 imp=881 imprb=881 mstart=0x40 cfg=91 cfgfail=0x0 vhv=0 vpolls=0
[PRT] calls=179645 xerr=0 ler=1 lidx=0x0 perr=0 maxcnt=17 addr8=0x52
[RTY] wr=0 wmax=0 wref=0  rd=0 rmax=0 rref=0
[RNG] frames=44884 last=44 min=12 max=166 nrdy=0 dxfer=0 dstat=0 lst=0 nrdyerr=0 dclr=0
[DRV] init=0 id=7 mode=0x1 lib=0x2 seq=0x1 odc=0x8b sts=0xe0 armed=1
[TRG] pulses=105 suppressed=29 cyc=1600 rst=1 rstmode=0x40
[HLT] polls=897 faults=0x0 cfglost=0
[EFF] n=5 last=58416 min=58416 max=58535 late=0 stuck=0 rderr=0
[IMU] init=0 addr=0x68 who=0x68 rst=1 pmrb0=0x40 pmrb=0x1 sr=19 cfg=4 gcfg=0x0 acfg=0x8 icfg=0x30 ien=0x1 armed=1
[ACC] reads=44884 stale=44830 rderr=1 ax=-7 ay=-30 az=1124
[PWR] pm=0x1 drift=0 rderr=0
[DWT] ok=1 cyc=3230533074 cyc_per_ms=800000
[HB] up_ms=993075 frames=44931 inf=44931 hazard=134 canary_err=0 q=0 qovr=0
[I2C] init=0 gate=0 whoami=0x140e0 wr=0 wrseen=0x27 addr=0x5a ok=274109 err=1 tmo=0 recov=2 pclk1=200000000 sysclk=400000000
[NAK] nacks=1
[CLK] cpu=800000000 sysb=400000000 pclk1=200000000
[TOF] res=0 step=0 id=0xeacc blk=0xeacc10 ctl=0x0
[RNG] init=0 step=99 id=0xeacc boot=1 calls=93 xerr=0 dm=1 tb=15
[RNG] osc=41 imp=881 imprb=881 mstart=0x40 cfg=91 cfgfail=0x0 vhv=0 vpolls=0
[PRT] calls=179845 xerr=0 ler=1 lidx=0x0 perr=0 maxcnt=17 addr8=0x52
[RTY] wr=0 wmax=0 wref=0  rd=0 rmax=0 rref=0
[RNG] frames=44934 last=31 min=12 max=166 nrdy=0 dxfer=0 dstat=0 lst=0 nrdyerr=0 dclr=0
[DRV] init=0 id=7 mode=0x1 lib=0x2 seq=0x1 odc=0x8b sts=0xe0 armed=1
[TRG] pulses=105 suppressed=29 cyc=1600 rst=1 rstmode=0x40
[HLT] polls=898 faults=0x0 cfglost=0
[EFF] n=5 last=58416 min=58416 max=58535 late=0 stuck=0 rderr=0
[IMU] init=0 addr=0x68 who=0x68 rst=1 pmrb0=0x40 pmrb=0x1 sr=19 cfg=4 gcfg=0x0 acfg=0x8 icfg=0x30 ien=0x1 armed=1
[ACC] reads=44934 stale=44880 rderr=1 ax=-4 ay=-30 az=1126
[PWR] pm=0x1 drift=0 rderr=0
[DWT] ok=1 cyc=4112269612 cyc_per_ms=800123
[HB] up_ms=994177 frames=44981 inf=44981 hazard=134 canary_err=0 q=0 qovr=0
[I2C] init=0 gate=0 whoami=0x140e0 wr=0 wrseen=0x27 addr=0x5a ok=274411 err=1 tmo=0 recov=2 pclk1=200000000 sysclk=400000000
[NAK] nacks=1
[CLK] cpu=800000000 sysb=400000000 pclk1=200000000
[TOF] res=0 step=0 id=0xeacc blk=0xeacc10 ctl=0x0
[RNG] init=0 step=99 id=0xeacc boot=1 calls=93 xerr=0 dm=1 tb=15
[RNG] osc=41 imp=881 imprb=881 mstart=0x40 cfg=91 cfgfail=0x0 vhv=0 vpolls=0
[PRT] calls=180045 xerr=0 ler=1 lidx=0x0 perr=0 maxcnt=17 addr8=0x52
[RTY] wr=0 wmax=0 wref=0  rd=0 rmax=0 rref=0
[RNG] frames=44984 last=29 min=12 max=166 nrdy=0 dxfer=0 dstat=0 lst=0 nrdyerr=0 dclr=0
[DRV] init=0 id=7 mode=0x1 lib=0x2 seq=0x1 odc=0x8b sts=0xe0 armed=1
[TRG] pulses=105 suppressed=29 cyc=1600 rst=1 rstmode=0x40
[HLT] polls=899 faults=0x0 cfglost=0
[EFF] n=5 last=58416 min=58416 max=58535 late=0 stuck=0 rderr=0
[IMU] init=0 addr=0x68 who=0x68 rst=1 pmrb0=0x40 pmrb=0x1 sr=19 cfg=4 gcfg=0x0 acfg=0x8 icfg=0x30 ien=0x1 armed=1
[ACC] reads=44984 stale=44930 rderr=1 ax=-7 ay=-29 az=1125
[PWR] pm=0x1 drift=0 rderr=0
[DWT] ok=1 cyc=698902972 cyc_per_ms=800000
[HB] up_ms=995279 frames=45031 inf=45031 hazard=134 canary_err=0 q=0 qovr=0
[I2C] init=0 gate=0 whoami=0x140e0 wr=0 wrseen=0x27 addr=0x5a ok=274709 err=1 tmo=0 recov=2 pclk1=200000000 sysclk=400000000
[NAK] nacks=1
[CLK] cpu=800000000 sysb=400000000 pclk1=200000000
[TOF] res=0 step=0 id=0xeacc blk=0xeacc10 ctl=0x0
[RNG] init=0 step=99 id=0xeacc boot=1 calls=93 xerr=0 dm=1 tb=15
[RNG] osc=41 imp=881 imprb=881 mstart=0x40 cfg=91 cfgfail=0x0 vhv=0 vpolls=0
[PRT] calls=180245 xerr=0 ler=1 lidx=0x0 perr=0 maxcnt=17 addr8=0x52
[RTY] wr=0 wmax=0 wref=0  rd=0 rmax=0 rref=0
[RNG] frames=45033 last=34 min=12 max=166 nrdy=0 dxfer=0 dstat=0 lst=0 nrdyerr=0 dclr=0
[DRV] init=0 id=7 mode=0x1 lib=0x2 seq=0x1 odc=0x8b sts=0xe0 armed=1
[TRG] pulses=105 suppressed=29 cyc=1600 rst=1 rstmode=0x40
[HLT] polls=900 faults=0x0 cfglost=0
[EFF] n=5 last=58416 min=58416 max=58535 late=0 stuck=0 rderr=0
[IMU] init=0 addr=0x68 who=0x68 rst=1 pmrb0=0x40 pmrb=0x1 sr=19 cfg=4 gcfg=0x0 acfg=0x8 icfg=0x30 ien=0x1 armed=1
[ACC] reads=45034 stale=44980 rderr=1 ax=-7 ay=-28 az=1127
[PWR] pm=0x1 drift=0 rderr=0
[DWT] ok=1 cyc=1580365598 cyc_per_ms=799875
[HB] up_ms=996381 frames=45081 inf=45081 hazard=134 canary_err=0 q=0 qovr=0
[I2C] init=0 gate=0 whoami=0x140e0 wr=0 wrseen=0x27 addr=0x5a ok=275009 err=1 tmo=0 recov=2 pclk1=200000000 sysclk=400000000
[NAK] nacks=1
[CLK] cpu=800000000 sysb=400000000 pclk1=200000000
[TOF] res=0 step=0 id=0xeacc blk=0xeacc10 ctl=0x0
[RNG] init=0 step=99 id=0xeacc boot=1 calls=93 xerr=0 dm=1 tb=15
[RNG] osc=41 imp=881 imprb=881 mstart=0x40 cfg=91 cfgfail=0x0 vhv=0 vpolls=0
[PRT] calls=180445 xerr=0 ler=1 lidx=0x0 perr=0 maxcnt=17 addr8=0x52
[RTY] wr=0 wmax=0 wref=0  rd=0 rmax=0 rref=0
[RNG] frames=45083 last=33 min=12 max=166 nrdy=0 dxfer=0 dstat=0 lst=0 nrdyerr=0 dclr=0
[DRV] init=0 id=7 mode=0x1 lib=0x2 seq=0x1 odc=0x8b sts=0xe0 armed=1
[TRG] pulses=105 suppressed=29 cyc=1600 rst=1 rstmode=0x40
[HLT] polls=901 faults=0x0 cfglost=0
[EFF] n=5 last=58416 min=58416 max=58535 late=0 stuck=0 rderr=0
[IMU] init=0 addr=0x68 who=0x68 rst=1 pmrb0=0x40 pmrb=0x1 sr=19 cfg=4 gcfg=0x0 acfg=0x8 icfg=0x30 ien=0x1 armed=1
[ACC] reads=45084 stale=45030 rderr=1 ax=-6 ay=-28 az=1126
[PWR] pm=0x1 drift=0 rderr=0
[DWT] ok=1 cyc=2461965658 cyc_per_ms=800000
[HB] up_ms=997483 frames=45131 inf=45131 hazard=134 canary_err=0 q=0 qovr=0
[I2C] init=0 gate=0 whoami=0x140e0 wr=0 wrseen=0x27 addr=0x5a ok=275311 err=1 tmo=0 recov=2 pclk1=200000000 sysclk=400000000
[NAK] nacks=1
[CLK] cpu=800000000 sysb=400000000 pclk1=200000000
[TOF] res=0 step=0 id=0xeacc blk=0xeacc10 ctl=0x0
[RNG] init=0 step=99 id=0xeacc boot=1 calls=93 xerr=0 dm=1 tb=15
[RNG] osc=41 imp=881 imprb=881 mstart=0x40 cfg=91 cfgfail=0x0 vhv=0 vpolls=0
[PRT] calls=180645 xerr=0 ler=1 lidx=0x0 perr=0 maxcnt=17 addr8=0x52
[RTY] wr=0 wmax=0 wref=0  rd=0 rmax=0 rref=0
[RNG] frames=45133 last=39 min=12 max=166 nrdy=0 dxfer=0 dstat=0 lst=0 nrdyerr=0 dclr=0
[DRV] init=0 id=7 mode=0x1 lib=0x2 seq=0x1 odc=0x8b sts=0xe0 armed=1
[TRG] pulses=105 suppressed=29 cyc=1600 rst=1 rstmode=0x40
[HLT] polls=902 faults=0x0 cfglost=0
[EFF] n=5 last=58416 min=58416 max=58535 late=0 stuck=0 rderr=0
[IMU] init=0 addr=0x68 who=0x68 rst=1 pmrb0=0x40 pmrb=0x1 sr=19 cfg=4 gcfg=0x0 acfg=0x8 icfg=0x30 ien=0x1 armed=1
[ACC] reads=45134 stale=45080 rderr=1 ax=-6 ay=-28 az=1125
[PWR] pm=0x1 drift=0 rderr=0
[DWT] ok=1 cyc=3343565550 cyc_per_ms=799999
[HB] up_ms=998585 frames=45181 inf=45181 hazard=134 canary_err=0 q=0 qovr=0
[I2C] init=0 gate=0 whoami=0x140e0 wr=0 wrseen=0x27 addr=0x5a ok=275613 err=1 tmo=0 recov=2 pclk1=200000000 sysclk=400000000
[NAK] nacks=1
[CLK] cpu=800000000 sysb=400000000 pclk1=200000000
[TOF] res=0 step=0 id=0xeacc blk=0xeacc10 ctl=0x0
[RNG] init=0 step=99 id=0xeacc boot=1 calls=93 xerr=0 dm=1 tb=15
[RNG] osc=41 imp=881 imprb=881 mstart=0x40 cfg=91 cfgfail=0x0 vhv=0 vpolls=0
[PRT] calls=180845 xerr=0 ler=1 lidx=0x0 perr=0 maxcnt=17 addr8=0x52
[RTY] wr=0 wmax=0 wref=0  rd=0 rmax=0 rref=0
[RNG] frames=45183 last=36 min=12 max=166 nrdy=0 dxfer=0 dstat=0 lst=0 nrdyerr=0 dclr=0
[DRV] init=0 id=7 mode=0x1 lib=0x2 seq=0x1 odc=0x8b sts=0xe0 armed=1
[TRG] pulses=105 suppressed=29 cyc=1600 rst=1 rstmode=0x40
[HLT] polls=903 faults=0x0 cfglost=0
[EFF] n=5 last=58416 min=58416 max=58535 late=0 stuck=0 rderr=0
[IMU] init=0 addr=0x68 who=0x68 rst=1 pmrb0=0x40 pmrb=0x1 sr=19 cfg=4 gcfg=0x0 acfg=0x8 icfg=0x30 ien=0x1 armed=1
[ACC] reads=45184 stale=45130 rderr=1 ax=-7 ay=-27 az=1123
[PWR] pm=0x1 drift=0 rderr=0
[DWT] ok=1 cyc=4225165674 cyc_per_ms=800000
[HB] up_ms=999687 frames=45231 inf=45231 hazard=134 canary_err=0 q=0 qovr=0
[I2C] init=0 gate=0 whoami=0x140e0 wr=0 wrseen=0x27 addr=0x5a ok=275915 err=1 tmo=0 recov=2 pclk1=200000000 sysclk=400000000
[NAK] nacks=1
[CLK] cpu=800000000 sysb=400000000 pclk1=200000000
[TOF] res=0 step=0 id=0xeacc blk=0xeacc10 ctl=0x0
[RNG] init=0 step=99 id=0xeacc boot=1 calls=93 xerr=0 dm=1 tb=15
[RNG] osc=41 imp=881 imprb=881 mstart=0x40 cfg=91 cfgfail=0x0 vhv=0 vpolls=0
[PRT] calls=181045 xerr=0 ler=1 lidx=0x0 perr=0 maxcnt=17 addr8=0x52
[RTY] wr=0 wmax=0 wref=0  rd=0 rmax=0 rref=0
[RNG] frames=45233 last=39 min=12 max=166 nrdy=0 dxfer=0 dstat=0 lst=0 nrdyerr=0 dclr=0
[DRV] init=0 id=7 mode=0x1 lib=0x2 seq=0x1 odc=0x8b sts=0xe0 armed=1
[TRG] pulses=105 suppressed=29 cyc=1600 rst=1 rstmode=0x40
[HLT] polls=904 faults=0x0 cfglost=0
[EFF] n=5 last=58416 min=58416 max=58535 late=0 stuck=0 rderr=0
[IMU] init=0 addr=0x68 who=0x68 rst=1 pmrb0=0x40 pmrb=0x1 sr=19 cfg=4 gcfg=0x0 acfg=0x8 icfg=0x30 ien=0x1 armed=1
[ACC] reads=45234 stale=45180 rderr=1 ax=-7 ay=-27 az=1119
[PWR] pm=0x1 drift=0 rderr=0
[DWT] ok=1 cyc=811798306 cyc_per_ms=799999
[HB] up_ms=1000789 frames=45281 inf=45281 hazard=134 canary_err=0 q=0 qovr=0
[I2C] init=0 gate=0 whoami=0x140e0 wr=0 wrseen=0x27 addr=0x5a ok=276217 err=1 tmo=0 recov=2 pclk1=200000000 sysclk=400000000
[NAK] nacks=1
[CLK] cpu=800000000 sysb=400000000 pclk1=200000000
[TOF] res=0 step=0 id=0xeacc blk=0xeacc10 ctl=0x0
[RNG] init=0 step=99 id=0xeacc boot=1 calls=93 xerr=0 dm=1 tb=15
[RNG] osc=41 imp=881 imprb=881 mstart=0x40 cfg=91 cfgfail=0x0 vhv=0 vpolls=0
[PRT] calls=181242 xerr=0 ler=1 lidx=0x0 perr=0 maxcnt=17 addr8=0x52
[RTY] wr=0 wmax=0 wref=0  rd=0 rmax=0 rref=0
[RNG] frames=45283 last=34 min=12 max=166 nrdy=0 dxfer=0 dstat=0 lst=0 nrdyerr=0 dclr=0
[DRV] init=0 id=7 mode=0x1 lib=0x2 seq=0x1 odc=0x8b sts=0xe0 armed=1
[TRG] pulses=105 suppressed=29 cyc=1600 rst=1 rstmode=0x40
[HLT] polls=905 faults=0x0 cfglost=0
[EFF] n=5 last=58416 min=58416 max=58535 late=0 stuck=0 rderr=0
[IMU] init=0 addr=0x68 who=0x68 rst=1 pmrb0=0x40 pmrb=0x1 sr=19 cfg=4 gcfg=0x0 acfg=0x8 icfg=0x30 ien=0x1 armed=1
[ACC] reads=45284 stale=45230 rderr=1 ax=-6 ay=-28 az=1124
[PWR] pm=0x1 drift=0 rderr=0
[DWT] ok=1 cyc=1693468238 cyc_per_ms=800063
[HB] up_ms=1001891 frames=45331 inf=45331 hazard=134 canary_err=0 q=0 qovr=0
[I2C] init=0 gate=0 whoami=0x140e0 wr=0 wrseen=0x27 addr=0x5a ok=276519 err=1 tmo=0 recov=2 pclk1=200000000 sysclk=400000000
[NAK] nacks=1
[CLK] cpu=800000000 sysb=400000000 pclk1=200000000
[TOF] res=0 step=0 id=0xeacc blk=0xeacc10 ctl=0x0
[RNG] init=0 step=99 id=0xeacc boot=1 calls=93 xerr=0 dm=1 tb=15
[RNG] osc=41 imp=881 imprb=881 mstart=0x40 cfg=91 cfgfail=0x0 vhv=0 vpolls=0
[PRT] calls=181441 xerr=0 ler=1 lidx=0x0 perr=0 maxcnt=17 addr8=0x52
[RTY] wr=0 wmax=0 wref=0  rd=0 rmax=0 rref=0
[RNG] frames=45333 last=37 min=12 max=166 nrdy=0 dxfer=0 dstat=0 lst=0 nrdyerr=0 dclr=0
[DRV] init=0 id=7 mode=0x1 lib=0x2 seq=0x1 odc=0x8b sts=0xe0 armed=1
[TRG] pulses=105 suppressed=29 cyc=1600 rst=1 rstmode=0x40
[HLT] polls=906 faults=0x0 cfglost=0
[EFF] n=5 last=58416 min=58416 max=58535 late=0 stuck=0 rderr=0
[IMU] init=0 addr=0x68 who=0x68 rst=1 pmrb0=0x40 pmrb=0x1 sr=19 cfg=4 gcfg=0x0 acfg=0x8 icfg=0x30 ien=0x1 armed=1
[ACC] reads=45333 stale=45279 rderr=1 ax=-5 ay=-30 az=1124
[PWR] pm=0x1 drift=0 rderr=0
[DWT] ok=1 cyc=2575068302 cyc_per_ms=800000
[HB] up_ms=1002993 frames=45380 inf=45380 hazard=135 canary_err=0 q=0 qovr=0
[I2C] init=0 gate=0 whoami=0x140e0 wr=0 wrseen=0x27 addr=0x5a ok=276821 err=1 tmo=0 recov=2 pclk1=200000000 sysclk=400000000
[NAK] nacks=1
[CLK] cpu=800000000 sysb=400000000 pclk1=200000000
[TOF] res=0 step=0 id=0xeacc blk=0xeacc10 ctl=0x0
[RNG] init=0 step=99 id=0xeacc boot=1 calls=93 xerr=0 dm=1 tb=15
[RNG] osc=41 imp=881 imprb=881 mstart=0x40 cfg=91 cfgfail=0x0 vhv=0 vpolls=0
[PRT] calls=181641 xerr=0 ler=1 lidx=0x0 perr=0 maxcnt=17 addr8=0x52
[RTY] wr=0 wmax=0 wref=0  rd=0 rmax=0 rref=0
[RNG] frames=45383 last=31 min=12 max=166 nrdy=0 dxfer=0 dstat=0 lst=0 nrdyerr=0 dclr=0
[DRV] init=0 id=7 mode=0x1 lib=0x2 seq=0x1 odc=0x8b sts=0xe0 armed=1
[TRG] pulses=106 suppressed=29 cyc=1600 rst=1 rstmode=0x40
[HLT] polls=907 faults=0x0 cfglost=0
[EFF] n=5 last=58416 min=58416 max=58535 late=0 stuck=0 rderr=0
[IMU] init=0 addr=0x68 who=0x68 rst=1 pmrb0=0x40 pmrb=0x1 sr=19 cfg=4 gcfg=0x0 acfg=0x8 icfg=0x30 ien=0x1 armed=1
[ACC] reads=45383 stale=45329 rderr=1 ax=-6 ay=-27 az=1123
[PWR] pm=0x1 drift=0 rderr=0
[DWT] ok=1 cyc=3456804984 cyc_per_ms=800124
[HB] up_ms=1004096 frames=45430 inf=45430 hazard=135 canary_err=0 q=0 qovr=0
[I2C] init=0 gate=0 whoami=0x140e0 wr=0 wrseen=0x27 addr=0x5a ok=277123 err=1 tmo=0 recov=2 pclk1=200000000 sysclk=400000000
[NAK] nacks=1
[CLK] cpu=800000000 sysb=400000000 pclk1=200000000
[TOF] res=0 step=0 id=0xeacc blk=0xeacc10 ctl=0x0
[RNG] init=0 step=99 id=0xeacc boot=1 calls=93 xerr=0 dm=1 tb=15
[RNG] osc=41 imp=881 imprb=881 mstart=0x40 cfg=91 cfgfail=0x0 vhv=0 vpolls=0
[PRT] calls=181841 xerr=0 ler=1 lidx=0x0 perr=0 maxcnt=17 addr8=0x52
[RTY] wr=0 wmax=0 wref=0  rd=0 rmax=0 rref=0
[RNG] frames=45433 last=35 min=12 max=166 nrdy=0 dxfer=0 dstat=0 lst=0 nrdyerr=0 dclr=0
[DRV] init=0 id=7 mode=0x1 lib=0x2 seq=0x1 odc=0x8b sts=0xe0 armed=1
[TRG] pulses=106 suppressed=29 cyc=1600 rst=1 rstmode=0x40
[HLT] polls=908 faults=0x0 cfglost=0
[EFF] n=5 last=58416 min=58416 max=58535 late=0 stuck=0 rderr=0
[IMU] init=0 addr=0x68 who=0x68 rst=1 pmrb0=0x40 pmrb=0x1 sr=19 cfg=4 gcfg=0x0 acfg=0x8 icfg=0x30 ien=0x1 armed=1
[ACC] reads=45433 stale=45379 rderr=1 ax=-7 ay=-29 az=1124
[PWR] pm=0x1 drift=0 rderr=0
[DWT] ok=1 cyc=44238504 cyc_per_ms=800000
[HB] up_ms=1005198 frames=45480 inf=45480 hazard=135 canary_err=0 q=0 qovr=0
[I2C] init=0 gate=0 whoami=0x140e0 wr=0 wrseen=0x27 addr=0x5a ok=277424 err=1 tmo=0 recov=2 pclk1=200000000 sysclk=400000000
[NAK] nacks=1
[CLK] cpu=800000000 sysb=400000000 pclk1=200000000
[TOF] res=0 step=0 id=0xeacc blk=0xeacc10 ctl=0x0
[RNG] init=0 step=99 id=0xeacc boot=1 calls=93 xerr=0 dm=1 tb=15
[RNG] osc=41 imp=881 imprb=881 mstart=0x40 cfg=91 cfgfail=0x0 vhv=0 vpolls=0
[PRT] calls=182041 xerr=0 ler=1 lidx=0x0 perr=0 maxcnt=17 addr8=0x52
[RTY] wr=0 wmax=0 wref=0  rd=0 rmax=0 rref=0
[RNG] frames=45482 last=37 min=12 max=166 nrdy=0 dxfer=0 dstat=0 lst=0 nrdyerr=0 dclr=0
[DRV] init=0 id=7 mode=0x1 lib=0x2 seq=0x1 odc=0x8b sts=0xe0 armed=1
[TRG] pulses=106 suppressed=29 cyc=1600 rst=1 rstmode=0x40
[HLT] polls=909 faults=0x0 cfglost=0
[EFF] n=5 last=58416 min=58416 max=58535 late=0 stuck=0 rderr=0
[IMU] init=0 addr=0x68 who=0x68 rst=1 pmrb0=0x40 pmrb=0x1 sr=19 cfg=4 gcfg=0x0 acfg=0x8 icfg=0x30 ien=0x1 armed=1
[ACC] reads=45483 stale=45429 rderr=1 ax=-6 ay=-29 az=1123
[PWR] pm=0x1 drift=0 rderr=0
[DWT] ok=1 cyc=925750040 cyc_per_ms=799919
[HB] up_ms=1006300 frames=45530 inf=45530 hazard=135 canary_err=0 q=0 qovr=0
[I2C] init=0 gate=0 whoami=0x140e0 wr=0 wrseen=0x27 addr=0x5a ok=277721 err=1 tmo=0 recov=2 pclk1=200000000 sysclk=400000000
[NAK] nacks=1
[CLK] cpu=800000000 sysb=400000000 pclk1=200000000
[TOF] res=0 step=0 id=0xeacc blk=0xeacc10 ctl=0x0
[RNG] init=0 step=99 id=0xeacc boot=1 calls=93 xerr=0 dm=1 tb=15
[RNG] osc=41 imp=881 imprb=881 mstart=0x40 cfg=91 cfgfail=0x0 vhv=0 vpolls=0
[PRT] calls=182241 xerr=0 ler=1 lidx=0x0 perr=0 maxcnt=17 addr8=0x52
[RTY] wr=0 wmax=0 wref=0  rd=0 rmax=0 rref=0
[RNG] frames=45532 last=29 min=12 max=166 nrdy=0 dxfer=0 dstat=0 lst=0 nrdyerr=0 dclr=0
[DRV] init=0 id=7 mode=0x1 lib=0x2 seq=0x1 odc=0x8b sts=0xe0 armed=1
[TRG] pulses=106 suppressed=29 cyc=1600 rst=1 rstmode=0x40
[HLT] polls=910 faults=0x0 cfglost=0
[EFF] n=5 last=58416 min=58416 max=58535 late=0 stuck=0 rderr=0
[IMU] init=0 addr=0x68 who=0x68 rst=1 pmrb0=0x40 pmrb=0x1 sr=19 cfg=4 gcfg=0x0 acfg=0x8 icfg=0x30 ien=0x1 armed=1
[ACC] reads=45533 stale=45479 rderr=1 ax=-7 ay=-29 az=1125
[PWR] pm=0x1 drift=0 rderr=0
[DWT] ok=1 cyc=1807301114 cyc_per_ms=799955
[HB] up_ms=1007403 frames=45580 inf=45580 hazard=135 canary_err=0 q=0 qovr=0
[I2C] init=0 gate=0 whoami=0x140e0 wr=0 wrseen=0x27 addr=0x5a ok=278023 err=1 tmo=0 recov=2 pclk1=200000000 sysclk=400000000
[NAK] nacks=1
[CLK] cpu=800000000 sysb=400000000 pclk1=200000000
[TOF] res=0 step=0 id=0xeacc blk=0xeacc10 ctl=0x0
[RNG] init=0 step=99 id=0xeacc boot=1 calls=93 xerr=0 dm=1 tb=15
[RNG] osc=41 imp=881 imprb=881 mstart=0x40 cfg=91 cfgfail=0x0 vhv=0 vpolls=0
[PRT] calls=182441 xerr=0 ler=1 lidx=0x0 perr=0 maxcnt=17 addr8=0x52
[RTY] wr=0 wmax=0 wref=0  rd=0 rmax=0 rref=0
[RNG] frames=45582 last=33 min=12 max=166 nrdy=0 dxfer=0 dstat=0 lst=0 nrdyerr=0 dclr=0
[DRV] init=0 id=7 mode=0x1 lib=0x2 seq=0x1 odc=0x8b sts=0xe0 armed=1
[TRG] pulses=106 suppressed=29 cyc=1600 rst=1 rstmode=0x40
[HLT] polls=911 faults=0x0 cfglost=0
[EFF] n=5 last=58416 min=58416 max=58535 late=0 stuck=0 rderr=0
