1788535978.043185 [HB] up_ms=985974 frames=44595 inf=44595 hazard=5699 canary_err=0 q=0 qovr=0
1788535978.054692 [I2C] init=0 gate=0 whoami=0x140e0 wr=0 wrseen=0x27 addr=0x5a ok=272014 err=22 tmo=0 recov=48 pclk1=200000000 sysclk=400000000
1788535978.056213 [NAK] nacks=18
1788535978.060678 [CLK] cpu=800000000 sysb=400000000 pclk1=200000000
1788535978.065210 [TOF] res=0 step=0 id=0xeacc blk=0xeacc10 ctl=0x0
1788535978.071058 [RNG] init=0 step=99 id=0xeacc boot=1 calls=93 xerr=0 dm=1 tb=15
1788535978.078049 [RNG] osc=41 imp=881 imprb=881 mstart=0x40 cfg=91 cfgfail=0x0 vhv=0 vpolls=0
1788535978.084305 [PRT] calls=178499 xerr=0 ler=1 lidx=0x0 perr=0 maxcnt=17 addr8=0x52
1788535978.088304 [RTY] wr=0 wmax=0 wref=0  rd=0 rmax=0 rref=0
1788535978.096180 [RNG] frames=44597 last=47 min=28 max=170 nrdy=0 dxfer=0 dstat=0 lst=0 nrdyerr=0 dclr=0
1788535978.102558 [DRV] init=0 id=7 mode=0x1 lib=0x2 seq=0x1 odc=0x8b sts=0xe0 armed=1
1788535978.108051 [TRG] pulses=419 suppressed=5280 cyc=1600 rst=1 rstmode=0x40
1788535978.111423 [HLT] polls=891 faults=0x0 cfglost=0
1788535978.117174 [EFF] n=5 last=58533 min=58470 max=58534 late=0 stuck=0 rderr=0
1788535978.127437 [IMU] init=0 addr=0x68 who=0x68 rst=1 pmrb0=0x40 pmrb=0x1 sr=19 cfg=4 gcfg=0x0 acfg=0x8 icfg=0x30 ien=0x1 armed=1
1788535978.132926 [ACC] reads=44577 stale=44533 rderr=22 ax=72 ay=-123 az=1120
1788535978.135550 [PWR] pm=0x1 drift=0 rderr=0
1788535978.139544 [DWT] ok=1 cyc=2726832450 cyc_per_ms=800000
1788535979.154006 [HB] up_ms=987077 frames=44645 inf=44645 hazard=5740 canary_err=0 q=0 qovr=0
1788535979.165133 [I2C] init=0 gate=0 whoami=0x140e0 wr=0 wrseen=0x27 addr=0x5a ok=272316 err=22 tmo=0 recov=48 pclk1=200000000 sysclk=400000000
1788535979.166728 [NAK] nacks=18
1788535979.171368 [CLK] cpu=800000000 sysb=400000000 pclk1=200000000
1788535979.176930 [TOF] res=0 step=0 id=0xeacc blk=0xeacc10 ctl=0x0
1788535979.181624 [RNG] init=0 step=99 id=0xeacc boot=1 calls=93 xerr=0 dm=1 tb=15
1788535979.188592 [RNG] osc=41 imp=881 imprb=881 mstart=0x40 cfg=91 cfgfail=0x0 vhv=0 vpolls=0
1788535979.194837 [PRT] calls=178697 xerr=0 ler=1 lidx=0x0 perr=0 maxcnt=17 addr8=0x52
1788535979.198965 [RTY] wr=0 wmax=0 wref=0  rd=0 rmax=0 rref=0
1788535979.206843 [RNG] frames=44647 last=42 min=28 max=170 nrdy=0 dxfer=0 dstat=0 lst=0 nrdyerr=0 dclr=0
1788535979.213116 [DRV] init=0 id=7 mode=0x1 lib=0x2 seq=0x1 odc=0x8b sts=0xe0 armed=1
1788535979.218622 [TRG] pulses=422 suppressed=5318 cyc=1600 rst=1 rstmode=0x40
1788535979.221992 [HLT] polls=892 faults=0x0 cfglost=0
1788535979.227754 [EFF] n=5 last=58533 min=58470 max=58534 late=0 stuck=0 rderr=0
1788535979.238144 [IMU] init=0 addr=0x68 who=0x68 rst=1 pmrb0=0x40 pmrb=0x1 sr=19 cfg=4 gcfg=0x0 acfg=0x8 icfg=0x30 ien=0x1 armed=1
1788535979.243497 [ACC] reads=44627 stale=44583 rderr=22 ax=76 ay=-120 az=1114
1788535979.246245 [PWR] pm=0x1 drift=0 rderr=0
1788535979.250126 [DWT] ok=1 cyc=3609232578 cyc_per_ms=800000
1788535980.264700 [HB] up_ms=988180 frames=44695 inf=44695 hazard=5740 canary_err=0 q=0 qovr=0
1788535980.275922 [I2C] init=0 gate=0 whoami=0x140e0 wr=0 wrseen=0x27 addr=0x5a ok=272618 err=22 tmo=0 recov=48 pclk1=200000000 sysclk=400000000
1788535980.277437 [NAK] nacks=18
1788535980.282188 [CLK] cpu=800000000 sysb=400000000 pclk1=200000000
1788535980.286699 [TOF] res=0 step=0 id=0xeacc blk=0xeacc10 ctl=0x0
1788535980.292420 [RNG] init=0 step=99 id=0xeacc boot=1 calls=93 xerr=0 dm=1 tb=15
1788535980.299336 [RNG] osc=41 imp=881 imprb=881 mstart=0x40 cfg=91 cfgfail=0x0 vhv=0 vpolls=0
1788535980.305672 [PRT] calls=178897 xerr=0 ler=1 lidx=0x0 perr=0 maxcnt=17 addr8=0x52
1788535980.309820 [RTY] wr=0 wmax=0 wref=0  rd=0 rmax=0 rref=0
1788535980.317717 [RNG] frames=44697 last=41 min=28 max=170 nrdy=0 dxfer=0 dstat=0 lst=0 nrdyerr=0 dclr=0
1788535980.323969 [DRV] init=0 id=7 mode=0x1 lib=0x2 seq=0x1 odc=0x8b sts=0xe0 armed=1
1788535980.329526 [TRG] pulses=422 suppressed=5318 cyc=1600 rst=1 rstmode=0x40
1788535980.332793 [HLT] polls=893 faults=0x0 cfglost=0
1788535980.338570 [EFF] n=5 last=58533 min=58470 max=58534 late=0 stuck=0 rderr=0
1788535980.348937 [IMU] init=0 addr=0x68 who=0x68 rst=1 pmrb0=0x40 pmrb=0x1 sr=19 cfg=4 gcfg=0x0 acfg=0x8 icfg=0x30 ien=0x1 armed=1
1788535980.354459 [ACC] reads=44677 stale=44633 rderr=22 ax=77 ay=-119 az=1115
1788535980.357075 [PWR] pm=0x1 drift=0 rderr=0
1788535980.360919 [DWT] ok=1 cyc=196664702 cyc_per_ms=799999
1788535981.374396 [HB] up_ms=989283 frames=44745 inf=44745 hazard=5740 canary_err=0 q=0 qovr=0
1788535981.386378 [I2C] init=0 gate=0 whoami=0x140e0 wr=0 wrseen=0x27 addr=0x5a ok=272920 err=22 tmo=0 recov=48 pclk1=200000000 sysclk=400000000
1788535981.387212 [NAK] nacks=18
1788535981.391817 [CLK] cpu=800000000 sysb=400000000 pclk1=200000000
1788535981.396329 [TOF] res=0 step=0 id=0xeacc blk=0xeacc10 ctl=0x0
1788535981.402162 [RNG] init=0 step=99 id=0xeacc boot=1 calls=93 xerr=0 dm=1 tb=15
1788535981.408982 [RNG] osc=41 imp=881 imprb=881 mstart=0x40 cfg=91 cfgfail=0x0 vhv=0 vpolls=0
1788535981.415342 [PRT] calls=179097 xerr=0 ler=1 lidx=0x0 perr=0 maxcnt=17 addr8=0x52
1788535981.419345 [RTY] wr=0 wmax=0 wref=0  rd=0 rmax=0 rref=0
1788535981.427217 [RNG] frames=44747 last=47 min=28 max=170 nrdy=0 dxfer=0 dstat=0 lst=0 nrdyerr=0 dclr=0
1788535981.433395 [DRV] init=0 id=7 mode=0x1 lib=0x2 seq=0x1 odc=0x8b sts=0xe0 armed=1
1788535981.438993 [TRG] pulses=422 suppressed=5318 cyc=1600 rst=1 rstmode=0x40
1788535981.442340 [HLT] polls=894 faults=0x0 cfglost=0
1788535981.448073 [EFF] n=5 last=58533 min=58470 max=58534 late=0 stuck=0 rderr=0
1788535981.458343 [IMU] init=0 addr=0x68 who=0x68 rst=1 pmrb0=0x40 pmrb=0x1 sr=19 cfg=4 gcfg=0x0 acfg=0x8 icfg=0x30 ien=0x1 armed=1
1788535981.463773 [ACC] reads=44727 stale=44683 rderr=22 ax=75 ay=-121 az=1118
1788535981.466505 [PWR] pm=0x1 drift=0 rderr=0
1788535981.470477 [DWT] ok=1 cyc=1079065170 cyc_per_ms=800000
1788535982.481873 [HB] up_ms=990386 frames=44795 inf=44795 hazard=5740 canary_err=0 q=0 qovr=0
1788535982.493044 [I2C] init=0 gate=0 whoami=0x140e0 wr=0 wrseen=0x27 addr=0x5a ok=273222 err=22 tmo=0 recov=48 pclk1=200000000 sysclk=400000000
1788535982.494477 [NAK] nacks=18
1788535982.499175 [CLK] cpu=800000000 sysb=400000000 pclk1=200000000
1788535982.503652 [TOF] res=0 step=0 id=0xeacc blk=0xeacc10 ctl=0x0
1788535982.510380 [RNG] init=0 step=99 id=0xeacc boot=1 calls=93 xerr=0 dm=1 tb=15
1788535982.516363 [RNG] osc=41 imp=881 imprb=881 mstart=0x40 cfg=91 cfgfail=0x0 vhv=0 vpolls=0
1788535982.522702 [PRT] calls=179297 xerr=0 ler=1 lidx=0x0 perr=0 maxcnt=17 addr8=0x52
1788535982.526697 [RTY] wr=0 wmax=0 wref=0  rd=0 rmax=0 rref=0
1788535982.534541 [RNG] frames=44797 last=45 min=28 max=170 nrdy=0 dxfer=0 dstat=0 lst=0 nrdyerr=0 dclr=0
1788535982.540770 [DRV] init=0 id=7 mode=0x1 lib=0x2 seq=0x1 odc=0x8b sts=0xe0 armed=1
1788535982.546360 [TRG] pulses=422 suppressed=5318 cyc=1600 rst=1 rstmode=0x40
1788535982.549717 [HLT] polls=895 faults=0x0 cfglost=0
1788535982.555444 [EFF] n=5 last=58533 min=58470 max=58534 late=0 stuck=0 rderr=0
1788535982.565630 [IMU] init=0 addr=0x68 who=0x68 rst=1 pmrb0=0x40 pmrb=0x1 sr=19 cfg=4 gcfg=0x0 acfg=0x8 icfg=0x30 ien=0x1 armed=1
1788535982.571155 [ACC] reads=44776 stale=44733 rderr=22 ax=76 ay=-121 az=1115
1788535982.573746 [PWR] pm=0x1 drift=0 rderr=0
1788535982.577978 [DWT] ok=1 cyc=1961494426 cyc_per_ms=800026
1788535983.589144 [HB] up_ms=991489 frames=44844 inf=44844 hazard=5740 canary_err=0 q=0 qovr=0
1788535983.600234 [I2C] init=0 gate=0 whoami=0x140e0 wr=0 wrseen=0x27 addr=0x5a ok=273524 err=22 tmo=0 recov=48 pclk1=200000000 sysclk=400000000
1788535983.601584 [NAK] nacks=18
1788535983.606342 [CLK] cpu=800000000 sysb=400000000 pclk1=200000000
1788535983.610927 [TOF] res=0 step=0 id=0xeacc blk=0xeacc10 ctl=0x0
1788535983.616690 [RNG] init=0 step=99 id=0xeacc boot=1 calls=93 xerr=0 dm=1 tb=15
1788535983.623540 [RNG] osc=41 imp=881 imprb=881 mstart=0x40 cfg=91 cfgfail=0x0 vhv=0 vpolls=0
1788535983.629877 [PRT] calls=179497 xerr=0 ler=1 lidx=0x0 perr=0 maxcnt=17 addr8=0x52
1788535983.633979 [RTY] wr=0 wmax=0 wref=0  rd=0 rmax=0 rref=0
1788535983.641850 [RNG] frames=44847 last=47 min=28 max=170 nrdy=0 dxfer=0 dstat=0 lst=0 nrdyerr=0 dclr=0
1788535983.647927 [DRV] init=0 id=7 mode=0x1 lib=0x2 seq=0x1 odc=0x8b sts=0xe0 armed=1
1788535983.653553 [TRG] pulses=422 suppressed=5318 cyc=1600 rst=1 rstmode=0x40
1788535983.658219 [HLT] polls=896 faults=0x0 cfglost=0
1788535983.662603 [EFF] n=5 last=58533 min=58470 max=58534 late=0 stuck=0 rderr=0
1788535983.672706 [IMU] init=0 addr=0x68 who=0x68 rst=1 pmrb0=0x40 pmrb=0x1 sr=19 cfg=4 gcfg=0x0 acfg=0x8 icfg=0x30 ien=0x1 armed=1
1788535983.678423 [ACC] reads=44826 stale=44781 rderr=22 ax=76 ay=-121 az=1115
1788535983.681030 [PWR] pm=0x1 drift=0 rderr=0
1788535983.685041 [DWT] ok=1 cyc=2843998334 cyc_per_ms=800094
1788535984.696688 [HB] up_ms=992592 frames=44894 inf=44894 hazard=5740 canary_err=0 q=0 qovr=0
1788535984.708062 [I2C] init=0 gate=0 whoami=0x140e0 wr=0 wrseen=0x27 addr=0x5a ok=273826 err=22 tmo=0 recov=48 pclk1=200000000 sysclk=400000000
1788535984.709403 [NAK] nacks=18
1788535984.714031 [CLK] cpu=800000000 sysb=400000000 pclk1=200000000
1788535984.718618 [TOF] res=0 step=0 id=0xeacc blk=0xeacc10 ctl=0x0
1788535984.724468 [RNG] init=0 step=99 id=0xeacc boot=1 calls=93 xerr=0 dm=1 tb=15
1788535984.731323 [RNG] osc=41 imp=881 imprb=881 mstart=0x40 cfg=91 cfgfail=0x0 vhv=0 vpolls=0
1788535984.737553 [PRT] calls=179697 xerr=0 ler=1 lidx=0x0 perr=0 maxcnt=17 addr8=0x52
1788535984.741763 [RTY] wr=0 wmax=0 wref=0  rd=0 rmax=0 rref=0
1788535984.749610 [RNG] frames=44897 last=51 min=28 max=170 nrdy=0 dxfer=0 dstat=0 lst=0 nrdyerr=0 dclr=0
1788535984.755725 [DRV] init=0 id=7 mode=0x1 lib=0x2 seq=0x1 odc=0x8b sts=0xe0 armed=1
1788535984.761202 [TRG] pulses=422 suppressed=5318 cyc=1600 rst=1 rstmode=0x40
1788535984.764704 [HLT] polls=897 faults=0x0 cfglost=0
1788535984.770411 [EFF] n=5 last=58533 min=58470 max=58534 late=0 stuck=0 rderr=0
1788535984.780491 [IMU] init=0 addr=0x68 who=0x68 rst=1 pmrb0=0x40 pmrb=0x1 sr=19 cfg=4 gcfg=0x0 acfg=0x8 icfg=0x30 ien=0x1 armed=1
1788535984.786117 [ACC] reads=44876 stale=44831 rderr=22 ax=75 ay=-120 az=1113
1788535984.788850 [PWR] pm=0x1 drift=0 rderr=0
1788535984.792812 [DWT] ok=1 cyc=3726398774 cyc_per_ms=800000
1788535985.804335 [HB] up_ms=993695 frames=44944 inf=44944 hazard=5764 canary_err=0 q=0 qovr=0
1788535985.815540 [I2C] init=0 gate=0 whoami=0x140e0 wr=0 wrseen=0x27 addr=0x5a ok=274128 err=22 tmo=0 recov=48 pclk1=200000000 sysclk=400000000
1788535985.817023 [NAK] nacks=18
1788535985.821507 [CLK] cpu=800000000 sysb=400000000 pclk1=200000000
1788535985.826133 [TOF] res=0 step=0 id=0xeacc blk=0xeacc10 ctl=0x0
1788535985.831974 [RNG] init=0 step=99 id=0xeacc boot=1 calls=93 xerr=0 dm=1 tb=15
1788535985.838946 [RNG] osc=41 imp=881 imprb=881 mstart=0x40 cfg=91 cfgfail=0x0 vhv=0 vpolls=0
1788535985.845055 [PRT] calls=179897 xerr=0 ler=1 lidx=0x0 perr=0 maxcnt=17 addr8=0x52
1788535985.849286 [RTY] wr=0 wmax=0 wref=0  rd=0 rmax=0 rref=0
1788535985.857146 [RNG] frames=44946 last=41 min=28 max=170 nrdy=0 dxfer=0 dstat=0 lst=0 nrdyerr=0 dclr=0
1788535985.863243 [DRV] init=0 id=7 mode=0x1 lib=0x2 seq=0x1 odc=0x8b sts=0xe0 armed=1
1788535985.868726 [TRG] pulses=424 suppressed=5343 cyc=1600 rst=1 rstmode=0x40
1788535985.872235 [HLT] polls=898 faults=0x0 cfglost=0
1788535985.877950 [EFF] n=5 last=58533 min=58470 max=58534 late=0 stuck=0 rderr=0
1788535985.888033 [IMU] init=0 addr=0x68 who=0x68 rst=1 pmrb0=0x40 pmrb=0x1 sr=19 cfg=4 gcfg=0x0 acfg=0x8 icfg=0x30 ien=0x1 armed=1
1788535985.893528 [ACC] reads=44926 stale=44881 rderr=22 ax=75 ay=-121 az=1113
1788535985.896389 [PWR] pm=0x1 drift=0 rderr=0
1788535985.900259 [DWT] ok=1 cyc=313838666 cyc_per_ms=800006
1788535986.911692 [HB] up_ms=994798 frames=44994 inf=44994 hazard=5781 canary_err=0 q=0 qovr=0
1788535986.923120 [I2C] init=0 gate=0 whoami=0x140e0 wr=0 wrseen=0x27 addr=0x5a ok=274426 err=22 tmo=0 recov=48 pclk1=200000000 sysclk=400000000
1788535986.924506 [NAK] nacks=18
1788535986.929127 [CLK] cpu=800000000 sysb=400000000 pclk1=200000000
1788535986.933608 [TOF] res=0 step=0 id=0xeacc blk=0xeacc10 ctl=0x0
1788535986.939579 [RNG] init=0 step=99 id=0xeacc boot=1 calls=93 xerr=0 dm=1 tb=15
1788535986.946427 [RNG] osc=41 imp=881 imprb=881 mstart=0x40 cfg=91 cfgfail=0x0 vhv=0 vpolls=0
1788535986.952553 [PRT] calls=180097 xerr=0 ler=1 lidx=0x0 perr=0 maxcnt=17 addr8=0x52
1788535986.956656 [RTY] wr=0 wmax=0 wref=0  rd=0 rmax=0 rref=0
1788535986.964651 [RNG] frames=44996 last=36 min=28 max=170 nrdy=0 dxfer=0 dstat=0 lst=0 nrdyerr=0 dclr=0
1788535986.970718 [DRV] init=0 id=7 mode=0x1 lib=0x2 seq=0x1 odc=0x8b sts=0xe0 armed=1
1788535986.976202 [TRG] pulses=425 suppressed=5356 cyc=1600 rst=1 rstmode=0x40
1788535986.979567 [HLT] polls=899 faults=0x0 cfglost=0
1788535986.985445 [EFF] n=5 last=58533 min=58470 max=58534 late=0 stuck=0 rderr=0
1788535986.995533 [IMU] init=0 addr=0x68 who=0x68 rst=1 pmrb0=0x40 pmrb=0x1 sr=19 cfg=4 gcfg=0x0 acfg=0x8 icfg=0x30 ien=0x1 armed=1
1788535987.001037 [ACC] reads=44976 stale=44931 rderr=22 ax=75 ay=-121 az=1114
1788535987.003740 [PWR] pm=0x1 drift=0 rderr=0
1788535987.007729 [DWT] ok=1 cyc=1196137808 cyc_per_ms=799908
1788535988.018876 [HB] up_ms=995901 frames=45044 inf=45044 hazard=5781 canary_err=0 q=0 qovr=0
1788535988.030343 [I2C] init=0 gate=0 whoami=0x140e0 wr=0 wrseen=0x27 addr=0x5a ok=274726 err=22 tmo=0 recov=48 pclk1=200000000 sysclk=400000000
1788535988.031703 [NAK] nacks=18
1788535988.036321 [CLK] cpu=800000000 sysb=400000000 pclk1=200000000
1788535988.040803 [TOF] res=0 step=0 id=0xeacc blk=0xeacc10 ctl=0x0
1788535988.046788 [RNG] init=0 step=99 id=0xeacc boot=1 calls=93 xerr=0 dm=1 tb=15
1788535988.053648 [RNG] osc=41 imp=881 imprb=881 mstart=0x40 cfg=91 cfgfail=0x0 vhv=0 vpolls=0
1788535988.059756 [PRT] calls=180297 xerr=0 ler=1 lidx=0x0 perr=0 maxcnt=17 addr8=0x52
1788535988.063872 [RTY] wr=0 wmax=0 wref=0  rd=0 rmax=0 rref=0
1788535988.071841 [RNG] frames=45046 last=46 min=28 max=170 nrdy=0 dxfer=0 dstat=0 lst=0 nrdyerr=0 dclr=0
1788535988.077953 [DRV] init=0 id=7 mode=0x1 lib=0x2 seq=0x1 odc=0x8b sts=0xe0 armed=1
1788535988.083433 [TRG] pulses=425 suppressed=5356 cyc=1600 rst=1 rstmode=0x40
1788535988.086799 [HLT] polls=900 faults=0x0 cfglost=0
1788535988.092670 [EFF] n=5 last=58533 min=58470 max=58534 late=0 stuck=0 rderr=0
1788535988.102881 [IMU] init=0 addr=0x68 who=0x68 rst=1 pmrb0=0x40 pmrb=0x1 sr=19 cfg=4 gcfg=0x0 acfg=0x8 icfg=0x30 ien=0x1 armed=1
1788535988.108248 [ACC] reads=45026 stale=44981 rderr=22 ax=75 ay=-119 az=1115
1788535988.111000 [PWR] pm=0x1 drift=0 rderr=0
1788535988.115133 [DWT] ok=1 cyc=2078497662 cyc_per_ms=799963
1788535989.127031 [HB] up_ms=997004 frames=45094 inf=45094 hazard=5781 canary_err=0 q=0 qovr=0
1788535989.138507 [I2C] init=0 gate=0 whoami=0x140e0 wr=0 wrseen=0x27 addr=0x5a ok=275028 err=22 tmo=0 recov=48 pclk1=200000000 sysclk=400000000
1788535989.139878 [NAK] nacks=18
1788535989.144480 [CLK] cpu=800000000 sysb=400000000 pclk1=200000000
1788535989.148968 [TOF] res=0 step=0 id=0xeacc blk=0xeacc10 ctl=0x0
1788535989.154946 [RNG] init=0 step=99 id=0xeacc boot=1 calls=93 xerr=0 dm=1 tb=15
1788535989.161812 [RNG] osc=41 imp=881 imprb=881 mstart=0x40 cfg=91 cfgfail=0x0 vhv=0 vpolls=0
1788535989.168043 [PRT] calls=180497 xerr=0 ler=1 lidx=0x0 perr=0 maxcnt=17 addr8=0x52
1788535989.172028 [RTY] wr=0 wmax=0 wref=0  rd=0 rmax=0 rref=0
1788535989.180155 [RNG] frames=45096 last=44 min=28 max=170 nrdy=0 dxfer=0 dstat=0 lst=0 nrdyerr=0 dclr=0
1788535989.186258 [DRV] init=0 id=7 mode=0x1 lib=0x2 seq=0x1 odc=0x8b sts=0xe0 armed=1
1788535989.191734 [TRG] pulses=425 suppressed=5356 cyc=1600 rst=1 rstmode=0x40
1788535989.195083 [HLT] polls=901 faults=0x0 cfglost=0
1788535989.200946 [EFF] n=5 last=58533 min=58470 max=58534 late=0 stuck=0 rderr=0
1788535989.211203 [IMU] init=0 addr=0x68 who=0x68 rst=1 pmrb0=0x40 pmrb=0x1 sr=19 cfg=4 gcfg=0x0 acfg=0x8 icfg=0x30 ien=0x1 armed=1
1788535989.216533 [ACC] reads=45076 stale=45031 rderr=22 ax=78 ay=-121 az=1114
1788535989.219271 [PWR] pm=0x1 drift=0 rderr=0
1788535989.223274 [DWT] ok=1 cyc=2960897838 cyc_per_ms=800000
1788535990.234860 [HB] up_ms=998107 frames=45144 inf=45144 hazard=5781 canary_err=0 q=0 qovr=0
1788535990.246321 [I2C] init=0 gate=0 whoami=0x140e0 wr=0 wrseen=0x27 addr=0x5a ok=275330 err=22 tmo=0 recov=48 pclk1=200000000 sysclk=400000000
1788535990.247688 [NAK] nacks=18
1788535990.252299 [CLK] cpu=800000000 sysb=400000000 pclk1=200000000
1788535990.256791 [TOF] res=0 step=0 id=0xeacc blk=0xeacc10 ctl=0x0
1788535990.262655 [RNG] init=0 step=99 id=0xeacc boot=1 calls=93 xerr=0 dm=1 tb=15
1788535990.269631 [RNG] osc=41 imp=881 imprb=881 mstart=0x40 cfg=91 cfgfail=0x0 vhv=0 vpolls=0
1788535990.275861 [PRT] calls=180697 xerr=0 ler=1 lidx=0x0 perr=0 maxcnt=17 addr8=0x52
1788535990.279863 [RTY] wr=0 wmax=0 wref=0  rd=0 rmax=0 rref=0
1788535990.287844 [RNG] frames=45146 last=43 min=28 max=170 nrdy=0 dxfer=0 dstat=0 lst=0 nrdyerr=0 dclr=0
1788535990.294088 [DRV] init=0 id=7 mode=0x1 lib=0x2 seq=0x1 odc=0x8b sts=0xe0 armed=1
1788535990.299565 [TRG] pulses=425 suppressed=5356 cyc=1600 rst=1 rstmode=0x40
1788535990.302802 [HLT] polls=902 faults=0x0 cfglost=0
1788535990.308667 [EFF] n=5 last=58533 min=58470 max=58534 late=0 stuck=0 rderr=0
1788535990.318886 [IMU] init=0 addr=0x68 who=0x68 rst=1 pmrb0=0x40 pmrb=0x1 sr=19 cfg=4 gcfg=0x0 acfg=0x8 icfg=0x30 ien=0x1 armed=1
1788535990.324384 [ACC] reads=45126 stale=45081 rderr=22 ax=77 ay=-122 az=1114
1788535990.327000 [PWR] pm=0x1 drift=0 rderr=0
1788535990.330991 [DWT] ok=1 cyc=3843297734 cyc_per_ms=799999
1788535991.343370 [HB] up_ms=999210 frames=45194 inf=45194 hazard=5781 canary_err=0 q=0 qovr=0
1788535991.354816 [I2C] init=0 gate=0 whoami=0x140e0 wr=0 wrseen=0x27 addr=0x5a ok=275632 err=22 tmo=0 recov=48 pclk1=200000000 sysclk=400000000
1788535991.356190 [NAK] nacks=18
1788535991.360813 [CLK] cpu=800000000 sysb=400000000 pclk1=200000000
1788535991.365304 [TOF] res=0 step=0 id=0xeacc blk=0xeacc10 ctl=0x0
1788535991.371026 [RNG] init=0 step=99 id=0xeacc boot=1 calls=93 xerr=0 dm=1 tb=15
1788535991.378151 [RNG] osc=41 imp=881 imprb=881 mstart=0x40 cfg=91 cfgfail=0x0 vhv=0 vpolls=0
1788535991.384256 [PRT] calls=180897 xerr=0 ler=1 lidx=0x0 perr=0 maxcnt=17 addr8=0x52
1788535991.388359 [RTY] wr=0 wmax=0 wref=0  rd=0 rmax=0 rref=0
1788535991.396343 [RNG] frames=45196 last=43 min=28 max=170 nrdy=0 dxfer=0 dstat=0 lst=0 nrdyerr=0 dclr=0
1788535991.402461 [DRV] init=0 id=7 mode=0x1 lib=0x2 seq=0x1 odc=0x8b sts=0xe0 armed=1
1788535991.407938 [TRG] pulses=425 suppressed=5356 cyc=1600 rst=1 rstmode=0x40
1788535991.411313 [HLT] polls=903 faults=0x0 cfglost=0
1788535991.417037 [EFF] n=5 last=58533 min=58470 max=58534 late=0 stuck=0 rderr=0
1788535991.427389 [IMU] init=0 addr=0x68 who=0x68 rst=1 pmrb0=0x40 pmrb=0x1 sr=19 cfg=4 gcfg=0x0 acfg=0x8 icfg=0x30 ien=0x1 armed=1
1788535991.432759 [ACC] reads=45176 stale=45131 rderr=22 ax=77 ay=-121 az=1112
1788535991.435506 [PWR] pm=0x1 drift=0 rderr=0
1788535991.439372 [DWT] ok=1 cyc=430730530 cyc_per_ms=800000
1788535992.451158 [HB] up_ms=1000313 frames=45244 inf=45244 hazard=5785 canary_err=0 q=0 qovr=0
1788535992.462605 [I2C] init=0 gate=0 whoami=0x140e0 wr=0 wrseen=0x27 addr=0x5a ok=275934 err=22 tmo=0 recov=48 pclk1=200000000 sysclk=400000000
1788535992.463958 [NAK] nacks=18
1788535992.468584 [CLK] cpu=800000000 sysb=400000000 pclk1=200000000
1788535992.473068 [TOF] res=0 step=0 id=0xeacc blk=0xeacc10 ctl=0x0
1788535992.478923 [RNG] init=0 step=99 id=0xeacc boot=1 calls=93 xerr=0 dm=1 tb=15
1788535992.485919 [RNG] osc=41 imp=881 imprb=881 mstart=0x40 cfg=91 cfgfail=0x0 vhv=0 vpolls=0
1788535992.492161 [PRT] calls=181097 xerr=0 ler=1 lidx=0x0 perr=0 maxcnt=17 addr8=0x52
1788535992.496164 [RTY] wr=0 wmax=0 wref=0  rd=0 rmax=0 rref=0
1788535992.503996 [RNG] frames=45246 last=41 min=28 max=170 nrdy=0 dxfer=0 dstat=0 lst=0 nrdyerr=0 dclr=0
1788535992.510406 [DRV] init=0 id=7 mode=0x1 lib=0x2 seq=0x1 odc=0x8b sts=0xe0 armed=1
1788535992.515838 [TRG] pulses=426 suppressed=5362 cyc=1600 rst=1 rstmode=0x40
1788535992.519205 [HLT] polls=904 faults=0x0 cfglost=0
1788535992.524808 [EFF] n=5 last=58533 min=58470 max=58534 late=0 stuck=0 rderr=0
1788535992.535194 [IMU] init=0 addr=0x68 who=0x68 rst=1 pmrb0=0x40 pmrb=0x1 sr=19 cfg=4 gcfg=0x0 acfg=0x8 icfg=0x30 ien=0x1 armed=1
1788535992.540647 [ACC] reads=45226 stale=45181 rderr=22 ax=76 ay=-122 az=1116
1788535992.543272 [PWR] pm=0x1 drift=0 rderr=0
1788535992.547279 [DWT] ok=1 cyc=1313203986 cyc_per_ms=800066
1788535993.559047 [HB] up_ms=1001416 frames=45294 inf=45294 hazard=5822 canary_err=0 q=0 qovr=0
1788535993.570505 [I2C] init=0 gate=0 whoami=0x140e0 wr=0 wrseen=0x27 addr=0x5a ok=276236 err=22 tmo=0 recov=48 pclk1=200000000 sysclk=400000000
1788535993.571879 [NAK] nacks=18
1788535993.576470 [CLK] cpu=800000000 sysb=400000000 pclk1=200000000
1788535993.580971 [TOF] res=0 step=0 id=0xeacc blk=0xeacc10 ctl=0x0
1788535993.586849 [RNG] init=0 step=99 id=0xeacc boot=1 calls=93 xerr=0 dm=1 tb=15
1788535993.593820 [RNG] osc=41 imp=881 imprb=881 mstart=0x40 cfg=91 cfgfail=0x0 vhv=0 vpolls=0
1788535993.600058 [PRT] calls=181297 xerr=0 ler=1 lidx=0x0 perr=0 maxcnt=17 addr8=0x52
1788535993.604072 [RTY] wr=0 wmax=0 wref=0  rd=0 rmax=0 rref=0
1788535993.611935 [RNG] frames=45296 last=43 min=28 max=170 nrdy=0 dxfer=0 dstat=0 lst=0 nrdyerr=0 dclr=0
1788535993.618288 [DRV] init=0 id=7 mode=0x1 lib=0x2 seq=0x1 odc=0x8b sts=0xe0 armed=1
1788535993.623779 [TRG] pulses=428 suppressed=5394 cyc=1600 rst=1 rstmode=0x40
1788535993.627013 [HLT] polls=905 faults=0x0 cfglost=0
1788535993.632751 [EFF] n=5 last=58533 min=58470 max=58534 late=0 stuck=0 rderr=0
1788535993.643115 [IMU] init=0 addr=0x68 who=0x68 rst=1 pmrb0=0x40 pmrb=0x1 sr=19 cfg=4 gcfg=0x0 acfg=0x8 icfg=0x30 ien=0x1 armed=1
1788535993.648590 [ACC] reads=45276 stale=45231 rderr=22 ax=74 ay=-121 az=1113
1788535993.651223 [PWR] pm=0x1 drift=0 rderr=0
1788535993.655203 [DWT] ok=1 cyc=2195600370 cyc_per_ms=799996
1788535994.667118 [HB] up_ms=1002519 frames=45344 inf=45344 hazard=5822 canary_err=0 q=0 qovr=0
1788535994.678579 [I2C] init=0 gate=0 whoami=0x140e0 wr=0 wrseen=0x27 addr=0x5a ok=276538 err=22 tmo=0 recov=48 pclk1=200000000 sysclk=400000000
1788535994.679936 [NAK] nacks=18
1788535994.684551 [CLK] cpu=800000000 sysb=400000000 pclk1=200000000
1788535994.689050 [TOF] res=0 step=0 id=0xeacc blk=0xeacc10 ctl=0x0
1788535994.694908 [RNG] init=0 step=99 id=0xeacc boot=1 calls=93 xerr=0 dm=1 tb=15
1788535994.701889 [RNG] osc=41 imp=881 imprb=881 mstart=0x40 cfg=91 cfgfail=0x0 vhv=0 vpolls=0
1788535994.708002 [PRT] calls=181497 xerr=0 ler=1 lidx=0x0 perr=0 maxcnt=17 addr8=0x52
1788535994.712145 [RTY] wr=0 wmax=0 wref=0  rd=0 rmax=0 rref=0
1788535994.719974 [RNG] frames=45346 last=39 min=28 max=170 nrdy=0 dxfer=0 dstat=0 lst=0 nrdyerr=0 dclr=0
1788535994.726355 [DRV] init=0 id=7 mode=0x1 lib=0x2 seq=0x1 odc=0x8b sts=0xe0 armed=1
1788535994.731707 [TRG] pulses=428 suppressed=5394 cyc=1600 rst=1 rstmode=0x40
1788535994.735078 [HLT] polls=906 faults=0x0 cfglost=0
1788535994.740807 [EFF] n=5 last=58533 min=58470 max=58534 late=0 stuck=0 rderr=0
1788535994.751185 [IMU] init=0 addr=0x68 who=0x68 rst=1 pmrb0=0x40 pmrb=0x1 sr=19 cfg=4 gcfg=0x0 acfg=0x8 icfg=0x30 ien=0x1 armed=1
1788535994.756651 [ACC] reads=45326 stale=45281 rderr=22 ax=74 ay=-122 az=1116
1788535994.759267 [PWR] pm=0x1 drift=0 rderr=0
1788535994.763268 [DWT] ok=1 cyc=3078000270 cyc_per_ms=799999
1788535995.775416 [HB] up_ms=1003622 frames=45394 inf=45394 hazard=5822 canary_err=0 q=0 qovr=0
1788535995.786872 [I2C] init=0 gate=0 whoami=0x140e0 wr=0 wrseen=0x27 addr=0x5a ok=276840 err=22 tmo=0 recov=48 pclk1=200000000 sysclk=400000000
1788535995.788248 [NAK] nacks=18
1788535995.792862 [CLK] cpu=800000000 sysb=400000000 pclk1=200000000
1788535995.797350 [TOF] res=0 step=0 id=0xeacc blk=0xeacc10 ctl=0x0
1788535995.803088 [RNG] init=0 step=99 id=0xeacc boot=1 calls=93 xerr=0 dm=1 tb=15
1788535995.810193 [RNG] osc=41 imp=881 imprb=881 mstart=0x40 cfg=91 cfgfail=0x0 vhv=0 vpolls=0
1788535995.816322 [PRT] calls=181697 xerr=0 ler=1 lidx=0x0 perr=0 maxcnt=17 addr8=0x52
1788535995.820447 [RTY] wr=0 wmax=0 wref=0  rd=0 rmax=0 rref=0
1788535995.828290 [RNG] frames=45396 last=44 min=28 max=170 nrdy=0 dxfer=0 dstat=0 lst=0 nrdyerr=0 dclr=0
1788535995.834530 [DRV] init=0 id=7 mode=0x1 lib=0x2 seq=0x1 odc=0x8b sts=0xe0 armed=1
1788535995.840027 [TRG] pulses=428 suppressed=5394 cyc=1600 rst=1 rstmode=0x40
1788535995.843388 [HLT] polls=907 faults=0x0 cfglost=0
1788535995.849161 [EFF] n=5 last=58533 min=58470 max=58534 late=0 stuck=0 rderr=0
1788535995.859482 [IMU] init=0 addr=0x68 who=0x68 rst=1 pmrb0=0x40 pmrb=0x1 sr=19 cfg=4 gcfg=0x0 acfg=0x8 icfg=0x30 ien=0x1 armed=1
1788535995.864848 [ACC] reads=45376 stale=45331 rderr=22 ax=76 ay=-122 az=1113
1788535995.867471 [PWR] pm=0x1 drift=0 rderr=0
1788535995.871459 [DWT] ok=1 cyc=3960400506 cyc_per_ms=800000
1788535996.883585 [HB] up_ms=1004725 frames=45444 inf=45444 hazard=5822 canary_err=0 q=0 qovr=0
1788535996.895053 [I2C] init=0 gate=0 whoami=0x140e0 wr=0 wrseen=0x27 addr=0x5a ok=277142 err=22 tmo=0 recov=48 pclk1=200000000 sysclk=400000000
1788535996.896420 [NAK] nacks=18
1788535996.901029 [CLK] cpu=800000000 sysb=400000000 pclk1=200000000
1788535996.905545 [TOF] res=0 step=0 id=0xeacc blk=0xeacc10 ctl=0x0
1788535996.911385 [RNG] init=0 step=99 id=0xeacc boot=1 calls=93 xerr=0 dm=1 tb=15
1788535996.918374 [RNG] osc=41 imp=881 imprb=881 mstart=0x40 cfg=91 cfgfail=0x0 vhv=0 vpolls=0
1788535996.924499 [PRT] calls=181896 xerr=0 ler=1 lidx=0x0 perr=0 maxcnt=17 addr8=0x52
1788535996.928604 [RTY] wr=0 wmax=0 wref=0  rd=0 rmax=0 rref=0
1788535996.936475 [RNG] frames=45446 last=49 min=28 max=170 nrdy=0 dxfer=0 dstat=0 lst=0 nrdyerr=0 dclr=0
1788535996.942842 [DRV] init=0 id=7 mode=0x1 lib=0x2 seq=0x1 odc=0x8b sts=0xe0 armed=1
1788535996.948201 [TRG] pulses=428 suppressed=5394 cyc=1600 rst=1 rstmode=0x40
1788535996.951560 [HLT] polls=908 faults=0x0 cfglost=0
1788535996.957305 [EFF] n=5 last=58533 min=58470 max=58534 late=0 stuck=0 rderr=0
1788535996.967657 [IMU] init=0 addr=0x68 who=0x68 rst=1 pmrb0=0x40 pmrb=0x1 sr=19 cfg=4 gcfg=0x0 acfg=0x8 icfg=0x30 ien=0x1 armed=1
1788535996.973026 [ACC] reads=45426 stale=45381 rderr=22 ax=76 ay=-122 az=1116
1788535996.975767 [PWR] pm=0x1 drift=0 rderr=0
1788535996.979630 [DWT] ok=1 cyc=547833198 cyc_per_ms=799999
1788535997.992345 [HB] up_ms=1005828 frames=45494 inf=45494 hazard=5822 canary_err=0 q=0 qovr=0
1788535998.003575 [I2C] init=0 gate=0 whoami=0x140e0 wr=0 wrseen=0x27 addr=0x5a ok=277444 err=22 tmo=0 recov=48 pclk1=200000000 sysclk=400000000
1788535998.005186 [NAK] nacks=18
1788535998.009813 [CLK] cpu=800000000 sysb=400000000 pclk1=200000000
1788535998.014306 [TOF] res=0 step=0 id=0xeacc blk=0xeacc10 ctl=0x0
1788535998.020198 [RNG] init=0 step=99 id=0xeacc boot=1 calls=93 xerr=0 dm=1 tb=15
1788535998.027033 [RNG] osc=41 imp=881 imprb=881 mstart=0x40 cfg=91 cfgfail=0x0 vhv=0 vpolls=0
1788535998.033404 [PRT] calls=182093 xerr=0 ler=1 lidx=0x0 perr=0 maxcnt=17 addr8=0x52
1788535998.037397 [RTY] wr=0 wmax=0 wref=0  rd=0 rmax=0 rref=0
1788535998.045270 [RNG] frames=45496 last=43 min=28 max=170 nrdy=0 dxfer=0 dstat=0 lst=0 nrdyerr=0 dclr=0
1788535998.051613 [DRV] init=0 id=7 mode=0x1 lib=0x2 seq=0x1 odc=0x8b sts=0xe0 armed=1
1788535998.057140 [TRG] pulses=428 suppressed=5394 cyc=1600 rst=1 rstmode=0x40
1788535998.060481 [HLT] polls=909 faults=0x0 cfglost=0
1788535998.066214 [EFF] n=5 last=58533 min=58470 max=58534 late=0 stuck=0 rderr=0
1788535998.076442 [IMU] init=0 addr=0x68 who=0x68 rst=1 pmrb0=0x40 pmrb=0x1 sr=19 cfg=4 gcfg=0x0 acfg=0x8 icfg=0x30 ien=0x1 armed=1
1788535998.081943 [ACC] reads=45476 stale=45431 rderr=22 ax=74 ay=-120 az=1113
1788535998.084574 [PWR] pm=0x1 drift=0 rderr=0
1788535998.088564 [DWT] ok=1 cyc=1430233230 cyc_per_ms=800000
1788535999.101627 [HB] up_ms=1006931 frames=45544 inf=45544 hazard=5822 canary_err=0 q=0 qovr=0
1788535999.112856 [I2C] init=0 gate=0 whoami=0x140e0 wr=0 wrseen=0x27 addr=0x5a ok=277746 err=22 tmo=0 recov=48 pclk1=200000000 sysclk=400000000
1788535999.114340 [NAK] nacks=18
1788535999.118966 [CLK] cpu=800000000 sysb=400000000 pclk1=200000000
1788535999.123452 [TOF] res=0 step=0 id=0xeacc blk=0xeacc10 ctl=0x0
1788535999.129325 [RNG] init=0 step=99 id=0xeacc boot=1 calls=93 xerr=0 dm=1 tb=15
1788535999.136210 [RNG] osc=41 imp=881 imprb=881 mstart=0x40 cfg=91 cfgfail=0x0 vhv=0 vpolls=0
1788535999.142550 [PRT] calls=182293 xerr=0 ler=1 lidx=0x0 perr=0 maxcnt=17 addr8=0x52
1788535999.146548 [RTY] wr=0 wmax=0 wref=0  rd=0 rmax=0 rref=0
1788535999.154394 [RNG] frames=45546 last=39 min=28 max=170 nrdy=0 dxfer=0 dstat=0 lst=0 nrdyerr=0 dclr=0
1788535999.160636 [DRV] init=0 id=7 mode=0x1 lib=0x2 seq=0x1 odc=0x8b sts=0xe0 armed=1
1788535999.166265 [TRG] pulses=428 suppressed=5394 cyc=1600 rst=1 rstmode=0x40
1788535999.169622 [HLT] polls=910 faults=0x0 cfglost=0
1788535999.175361 [EFF] n=5 last=58533 min=58470 max=58534 late=0 stuck=0 rderr=0
1788535999.185593 [IMU] init=0 addr=0x68 who=0x68 rst=1 pmrb0=0x40 pmrb=0x1 sr=19 cfg=4 gcfg=0x0 acfg=0x8 icfg=0x30 ien=0x1 armed=1
1788535999.191191 [ACC] reads=45526 stale=45481 rderr=22 ax=77 ay=-121 az=1113
1788535999.193841 [PWR] pm=0x1 drift=0 rderr=0
1788535999.197705 [DWT] ok=1 cyc=2312632902 cyc_per_ms=799999
1788536000.210609 [HB] up_ms=1008034 frames=45594 inf=45594 hazard=5856 canary_err=0 q=0 qovr=0
1788536000.221817 [I2C] init=0 gate=0 whoami=0x140e0 wr=0 wrseen=0x27 addr=0x5a ok=278048 err=22 tmo=0 recov=48 pclk1=200000000 sysclk=400000000
1788536000.223222 [NAK] nacks=18
1788536000.227934 [CLK] cpu=800000000 sysb=400000000 pclk1=200000000
1788536000.232436 [TOF] res=0 step=0 id=0xeacc blk=0xeacc10 ctl=0x0
1788536000.238305 [RNG] init=0 step=99 id=0xeacc boot=1 calls=93 xerr=0 dm=1 tb=15
1788536000.245191 [RNG] osc=41 imp=881 imprb=881 mstart=0x40 cfg=91 cfgfail=0x0 vhv=0 vpolls=0
1788536000.251524 [PRT] calls=182493 xerr=0 ler=1 lidx=0x0 perr=0 maxcnt=17 addr8=0x52
1788536000.255646 [RTY] wr=0 wmax=0 wref=0  rd=0 rmax=0 rref=0
1788536000.263390 [RNG] frames=45596 last=43 min=28 max=170 nrdy=0 dxfer=0 dstat=0 lst=0 nrdyerr=0 dclr=0
1788536000.269620 [DRV] init=0 id=7 mode=0x1 lib=0x2 seq=0x1 odc=0x8b sts=0xe0 armed=1
1788536000.275242 [TRG] pulses=431 suppressed=5427 cyc=1600 rst=1 rstmode=0x40
1788536000.278608 [HLT] polls=911 faults=0x0 cfglost=0
1788536000.284349 [EFF] n=5 last=58533 min=58470 max=58534 late=0 stuck=0 rderr=0
1788536000.294596 [IMU] init=0 addr=0x68 who=0x68 rst=1 pmrb0=0x40 pmrb=0x1 sr=19 cfg=4 gcfg=0x0 acfg=0x8 icfg=0x30 ien=0x1 armed=1
1788536000.300074 [ACC] reads=45576 stale=45531 rderr=22 ax=74 ay=-121 az=1115
1788536000.302708 [PWR] pm=0x1 drift=0 rderr=0
1788536000.306690 [DWT] ok=1 cyc=3195036638 cyc_per_ms=800003
1788536001.319792 [HB] up_ms=1009137 frames=45644 inf=45644 hazard=5863 canary_err=0 q=0 qovr=0
1788536001.331163 [I2C] init=0 gate=0 whoami=0x140e0 wr=0 wrseen=0x27 addr=0x5a ok=278350 err=22 tmo=0 recov=48 pclk1=200000000 sysclk=400000000
1788536001.332516 [NAK] nacks=18
1788536001.337254 [CLK] cpu=800000000 sysb=400000000 pclk1=200000000
1788536001.341751 [TOF] res=0 step=0 id=0xeacc blk=0xeacc10 ctl=0x0
1788536001.347628 [RNG] init=0 step=99 id=0xeacc boot=1 calls=93 xerr=0 dm=1 tb=15
1788536001.354481 [RNG] osc=41 imp=881 imprb=881 mstart=0x40 cfg=91 cfgfail=0x0 vhv=0 vpolls=0
1788536001.360849 [PRT] calls=182693 xerr=0 ler=1 lidx=0x0 perr=0 maxcnt=17 addr8=0x52
1788536001.364843 [RTY] wr=0 wmax=0 wref=0  rd=0 rmax=0 rref=0
1788536001.372706 [RNG] frames=45646 last=43 min=28 max=170 nrdy=0 dxfer=0 dstat=0 lst=0 nrdyerr=0 dclr=0
1788536001.378952 [DRV] init=0 id=7 mode=0x1 lib=0x2 seq=0x1 odc=0x8b sts=0xe0 armed=1
1788536001.384565 [TRG] pulses=431 suppressed=5432 cyc=1600 rst=1 rstmode=0x40
1788536001.387934 [HLT] polls=912 faults=0x0 cfglost=0
1788536001.393670 [EFF] n=5 last=58533 min=58470 max=58534 late=0 stuck=0 rderr=0
1788536001.403788 [IMU] init=0 addr=0x68 who=0x68 rst=1 pmrb0=0x40 pmrb=0x1 sr=19 cfg=4 gcfg=0x0 acfg=0x8 icfg=0x30 ien=0x1 armed=1
1788536001.409396 [ACC] reads=45625 stale=45581 rderr=22 ax=76 ay=-125 az=1120
1788536001.412020 [PWR] pm=0x1 drift=0 rderr=0
1788536001.416019 [DWT] ok=1 cyc=4077461494 cyc_per_ms=800022
1788536002.429691 [HB] up_ms=1010240 frames=45693 inf=45693 hazard=5863 canary_err=0 q=0 qovr=0
1788536002.440991 [I2C] init=0 gate=0 whoami=0x140e0 wr=0 wrseen=0x27 addr=0x5a ok=278652 err=22 tmo=0 recov=48 pclk1=200000000 sysclk=400000000
1788536002.442312 [NAK] nacks=18
1788536002.447037 [CLK] cpu=800000000 sysb=400000000 pclk1=200000000
1788536002.451658 [TOF] res=0 step=0 id=0xeacc blk=0xeacc10 ctl=0x0
1788536002.457396 [RNG] init=0 step=99 id=0xeacc boot=1 calls=93 xerr=0 dm=1 tb=15
1788536002.464255 [RNG] osc=41 imp=881 imprb=881 mstart=0x40 cfg=91 cfgfail=0x0 vhv=0 vpolls=0
1788536002.470618 [PRT] calls=182893 xerr=0 ler=1 lidx=0x0 perr=0 maxcnt=17 addr8=0x52
1788536002.474745 [RTY] wr=0 wmax=0 wref=0  rd=0 rmax=0 rref=0
1788536002.482604 [RNG] frames=45696 last=45 min=28 max=170 nrdy=0 dxfer=0 dstat=0 lst=0 nrdyerr=0 dclr=0
1788536002.488723 [DRV] init=0 id=7 mode=0x1 lib=0x2 seq=0x1 odc=0x8b sts=0xe0 armed=1
1788536002.494352 [TRG] pulses=431 suppressed=5432 cyc=1600 rst=1 rstmode=0x40
1788536002.497710 [HLT] polls=913 faults=0x0 cfglost=0
1788536002.503453 [EFF] n=5 last=58533 min=58470 max=58534 late=0 stuck=0 rderr=0
1788536002.513684 [IMU] init=0 addr=0x68 who=0x68 rst=1 pmrb0=0x40 pmrb=0x1 sr=19 cfg=4 gcfg=0x0 acfg=0x8 icfg=0x30 ien=0x1 armed=1
1788536002.519292 [ACC] reads=45675 stale=45630 rderr=22 ax=76 ay=-123 az=1116
1788536002.521934 [PWR] pm=0x1 drift=0 rderr=0
1788536002.525805 [DWT] ok=1 cyc=664998894 cyc_per_ms=800094
1788536003.539172 [HB] up_ms=1011343 frames=45743 inf=45743 hazard=5863 canary_err=0 q=0 qovr=0
1788536003.550529 [I2C] init=0 gate=0 whoami=0x140e0 wr=0 wrseen=0x27 addr=0x5a ok=278954 err=22 tmo=0 recov=48 pclk1=200000000 sysclk=400000000
1788536003.551894 [NAK] nacks=18
1788536003.556524 [CLK] cpu=800000000 sysb=400000000 pclk1=200000000
1788536003.561183 [TOF] res=0 step=0 id=0xeacc blk=0xeacc10 ctl=0x0
1788536003.567012 [RNG] init=0 step=99 id=0xeacc boot=1 calls=93 xerr=0 dm=1 tb=15
1788536003.573863 [RNG] osc=41 imp=881 imprb=881 mstart=0x40 cfg=91 cfgfail=0x0 vhv=0 vpolls=0
1788536003.579980 [PRT] calls=183093 xerr=0 ler=1 lidx=0x0 perr=0 maxcnt=17 addr8=0x52
1788536003.584222 [RTY] wr=0 wmax=0 wref=0  rd=0 rmax=0 rref=0
1788536003.592121 [RNG] frames=45746 last=45 min=28 max=170 nrdy=0 dxfer=0 dstat=0 lst=0 nrdyerr=0 dclr=0
1788536003.598360 [DRV] init=0 id=7 mode=0x1 lib=0x2 seq=0x1 odc=0x8b sts=0xe0 armed=1
1788536003.603797 [TRG] pulses=431 suppressed=5432 cyc=1600 rst=1 rstmode=0x40
1788536003.607318 [HLT] polls=914 faults=0x0 cfglost=0
1788536003.613035 [EFF] n=5 last=58533 min=58470 max=58534 late=0 stuck=0 rderr=0
1788536003.623222 [IMU] init=0 addr=0x68 who=0x68 rst=1 pmrb0=0x40 pmrb=0x1 sr=19 cfg=4 gcfg=0x0 acfg=0x8 icfg=0x30 ien=0x1 armed=1
1788536003.628760 [ACC] reads=45725 stale=45680 rderr=22 ax=75 ay=-120 az=1115
1788536003.631488 [PWR] pm=0x1 drift=0 rderr=0
1788536003.635422 [DWT] ok=1 cyc=1547399546 cyc_per_ms=800000
1788536004.649075 [HB] up_ms=1012446 frames=45793 inf=45793 hazard=5863 canary_err=0 q=0 qovr=0
1788536004.662205 [I2C] init=0 gate=0 whoami=0x140e0 wr=0 wrseen=0x27 addr=0x5a ok=279256 err=22 tmo=0 recov=48 pclk1=200000000 sysclk=400000000
1788536004.662326 [NAK] nacks=18
1788536004.666411 [CLK] cpu=800000000 sysb=400000000 pclk1=200000000
1788536004.671035 [TOF] res=0 step=0 id=0xeacc blk=0xeacc10 ctl=0x0
1788536004.676898 [RNG] init=0 step=99 id=0xeacc boot=1 calls=93 xerr=0 dm=1 tb=15
1788536004.683775 [RNG] osc=41 imp=881 imprb=881 mstart=0x40 cfg=91 cfgfail=0x0 vhv=0 vpolls=0
1788536004.689882 [PRT] calls=183293 xerr=0 ler=1 lidx=0x0 perr=0 maxcnt=17 addr8=0x52
1788536004.694143 [RTY] wr=0 wmax=0 wref=0  rd=0 rmax=0 rref=0
1788536004.701980 [RNG] frames=45795 last=45 min=28 max=170 nrdy=0 dxfer=0 dstat=0 lst=0 nrdyerr=0 dclr=0
1788536004.708235 [DRV] init=0 id=7 mode=0x1 lib=0x2 seq=0x1 odc=0x8b sts=0xe0 armed=1
1788536004.713759 [TRG] pulses=431 suppressed=5432 cyc=1600 rst=1 rstmode=0x40
1788536004.717197 [HLT] polls=915 faults=0x0 cfglost=0
1788536004.723017 [EFF] n=5 last=58533 min=58470 max=58534 late=0 stuck=0 rderr=0
1788536004.733136 [IMU] init=0 addr=0x68 who=0x68 rst=1 pmrb0=0x40 pmrb=0x1 sr=19 cfg=4 gcfg=0x0 acfg=0x8 icfg=0x30 ien=0x1 armed=1
1788536004.738570 [ACC] reads=45775 stale=45730 rderr=22 ax=74 ay=-122 az=1112
1788536004.741809 [PWR] pm=0x1 drift=0 rderr=0
1788536004.745445 [DWT] ok=1 cyc=2429799410 cyc_per_ms=799999
1788536005.758717 [HB] up_ms=1013549 frames=45843 inf=45843 hazard=5863 canary_err=0 q=0 qovr=0
1788536005.770058 [I2C] init=0 gate=0 whoami=0x140e0 wr=0 wrseen=0x27 addr=0x5a ok=279554 err=22 tmo=0 recov=48 pclk1=200000000 sysclk=400000000
1788536005.771559 [NAK] nacks=18
1788536005.776048 [CLK] cpu=800000000 sysb=400000000 pclk1=200000000
1788536005.780679 [TOF] res=0 step=0 id=0xeacc blk=0xeacc10 ctl=0x0
1788536005.786655 [RNG] init=0 step=99 id=0xeacc boot=1 calls=93 xerr=0 dm=1 tb=15
1788536005.793635 [RNG] osc=41 imp=881 imprb=881 mstart=0x40 cfg=91 cfgfail=0x0 vhv=0 vpolls=0
1788536005.799664 [PRT] calls=183493 xerr=0 ler=1 lidx=0x0 perr=0 maxcnt=17 addr8=0x52
1788536005.803764 [RTY] wr=0 wmax=0 wref=0  rd=0 rmax=0 rref=0
1788536005.811768 [RNG] frames=45845 last=45 min=28 max=170 nrdy=0 dxfer=0 dstat=0 lst=0 nrdyerr=0 dclr=0
1788536005.817885 [DRV] init=0 id=7 mode=0x1 lib=0x2 seq=0x1 odc=0x8b sts=0xe0 armed=1
1788536005.823366 [TRG] pulses=431 suppressed=5432 cyc=1600 rst=1 rstmode=0x40
1788536005.826746 [HLT] polls=916 faults=0x0 cfglost=0
1788536005.832600 [EFF] n=5 last=58533 min=58470 max=58534 late=0 stuck=0 rderr=0
1788536005.842868 [IMU] init=0 addr=0x68 who=0x68 rst=1 pmrb0=0x40 pmrb=0x1 sr=19 cfg=4 gcfg=0x0 acfg=0x8 icfg=0x30 ien=0x1 armed=1
1788536005.848342 [ACC] reads=45825 stale=45780 rderr=22 ax=75 ay=-121 az=1116
1788536005.850955 [PWR] pm=0x1 drift=0 rderr=0
1788536005.855073 [DWT] ok=1 cyc=3312105912 cyc_per_ms=799915
1788536006.868746 [HB] up_ms=1014652 frames=45893 inf=45893 hazard=5876 canary_err=0 q=0 qovr=0
1788536006.880159 [I2C] init=0 gate=0 whoami=0x140e0 wr=0 wrseen=0x27 addr=0x5a ok=279854 err=22 tmo=0 recov=48 pclk1=200000000 sysclk=400000000
1788536006.881611 [NAK] nacks=18
1788536006.886225 [CLK] cpu=800000000 sysb=400000000 pclk1=200000000
1788536006.890728 [TOF] res=0 step=0 id=0xeacc blk=0xeacc10 ctl=0x0
1788536006.896705 [RNG] init=0 step=99 id=0xeacc boot=1 calls=93 xerr=0 dm=1 tb=15
1788536006.903580 [RNG] osc=41 imp=881 imprb=881 mstart=0x40 cfg=91 cfgfail=0x0 vhv=0 vpolls=0
1788536006.909692 [PRT] calls=183693 xerr=0 ler=1 lidx=0x0 perr=0 maxcnt=17 addr8=0x52
1788536006.913814 [RTY] wr=0 wmax=0 wref=0  rd=0 rmax=0 rref=0
1788536006.921804 [RNG] frames=45895 last=49 min=28 max=170 nrdy=0 dxfer=0 dstat=0 lst=0 nrdyerr=0 dclr=0
1788536006.928060 [DRV] init=0 id=7 mode=0x1 lib=0x2 seq=0x1 odc=0x8b sts=0xe0 armed=1
1788536006.933411 [TRG] pulses=433 suppressed=5446 cyc=1600 rst=1 rstmode=0x40
1788536006.936788 [HLT] polls=917 faults=0x0 cfglost=0
1788536006.942775 [EFF] n=5 last=58533 min=58470 max=58534 late=0 stuck=0 rderr=0
1788536006.952889 [IMU] init=0 addr=0x68 who=0x68 rst=1 pmrb0=0x40 pmrb=0x1 sr=19 cfg=4 gcfg=0x0 acfg=0x8 icfg=0x30 ien=0x1 armed=1
1788536006.958384 [ACC] reads=45875 stale=45830 rderr=22 ax=75 ay=-121 az=1117
1788536006.961002 [PWR] pm=0x1 drift=0 rderr=0
1788536006.965147 [DWT] ok=1 cyc=4194471786 cyc_per_ms=799969
1788536007.978250 [HB] up_ms=1015755 frames=45943 inf=45943 hazard=5904 canary_err=0 q=0 qovr=0
1788536007.989583 [I2C] init=0 gate=0 whoami=0x140e0 wr=0 wrseen=0x27 addr=0x5a ok=280156 err=22 tmo=0 recov=48 pclk1=200000000 sysclk=400000000
1788536007.991080 [NAK] nacks=18
1788536007.995698 [CLK] cpu=800000000 sysb=400000000 pclk1=200000000
1788536008.000198 [TOF] res=0 step=0 id=0xeacc blk=0xeacc10 ctl=0x0
1788536008.006072 [RNG] init=0 step=99 id=0xeacc boot=1 calls=93 xerr=0 dm=1 tb=15
1788536008.013056 [RNG] osc=41 imp=881 imprb=881 mstart=0x40 cfg=91 cfgfail=0x0 vhv=0 vpolls=0
1788536008.019204 [PRT] calls=183893 xerr=0 ler=1 lidx=0x0 perr=0 maxcnt=17 addr8=0x52
1788536008.023295 [RTY] wr=0 wmax=0 wref=0  rd=0 rmax=0 rref=0
1788536008.031286 [RNG] frames=45945 last=50 min=28 max=170 nrdy=0 dxfer=0 dstat=0 lst=0 nrdyerr=0 dclr=0
1788536008.037401 [DRV] init=0 id=7 mode=0x1 lib=0x2 seq=0x1 odc=0x8b sts=0xe0 armed=1
1788536008.042909 [TRG] pulses=434 suppressed=5470 cyc=1600 rst=1 rstmode=0x40
1788536008.046280 [HLT] polls=918 faults=0x0 cfglost=0
1788536008.052148 [EFF] n=5 last=58533 min=58470 max=58534 late=0 stuck=0 rderr=0
1788536008.062249 [IMU] init=0 addr=0x68 who=0x68 rst=1 pmrb0=0x40 pmrb=0x1 sr=19 cfg=4 gcfg=0x0 acfg=0x8 icfg=0x30 ien=0x1 armed=1
1788536008.067751 [ACC] reads=45925 stale=45880 rderr=22 ax=76 ay=-121 az=1115
1788536008.070365 [PWR] pm=0x1 drift=0 rderr=0
1788536008.074360 [DWT] ok=1 cyc=781898686 cyc_per_ms=799994
1788536009.086904 [HB] up_ms=1016858 frames=45993 inf=45993 hazard=5904 canary_err=0 q=0 qovr=0
1788536009.098257 [I2C] init=0 gate=0 whoami=0x140e0 wr=0 wrseen=0x27 addr=0x5a ok=280458 err=22 tmo=0 recov=48 pclk1=200000000 sysclk=400000000
1788536009.099744 [NAK] nacks=18
1788536009.104242 [CLK] cpu=800000000 sysb=400000000 pclk1=200000000
1788536009.108742 [TOF] res=0 step=0 id=0xeacc blk=0xeacc10 ctl=0x0
1788536009.114618 [RNG] init=0 step=99 id=0xeacc boot=1 calls=93 xerr=0 dm=1 tb=15
1788536009.121607 [RNG] osc=41 imp=881 imprb=881 mstart=0x40 cfg=91 cfgfail=0x0 vhv=0 vpolls=0
1788536009.127850 [PRT] calls=184093 xerr=0 ler=1 lidx=0x0 perr=0 maxcnt=17 addr8=0x52
1788536009.131843 [RTY] wr=0 wmax=0 wref=0  rd=0 rmax=0 rref=0
1788536009.139830 [RNG] frames=45995 last=46 min=28 max=170 nrdy=0 dxfer=0 dstat=0 lst=0 nrdyerr=0 dclr=0
1788536009.146077 [DRV] init=0 id=7 mode=0x1 lib=0x2 seq=0x1 odc=0x8b sts=0xe0 armed=1
1788536009.151452 [TRG] pulses=434 suppressed=5470 cyc=1600 rst=1 rstmode=0x40
1788536009.154809 [HLT] polls=919 faults=0x0 cfglost=0
1788536009.160562 [EFF] n=5 last=58533 min=58470 max=58534 late=0 stuck=0 rderr=0
1788536009.170809 [IMU] init=0 addr=0x68 who=0x68 rst=1 pmrb0=0x40 pmrb=0x1 sr=19 cfg=4 gcfg=0x0 acfg=0x8 icfg=0x30 ien=0x1 armed=1
1788536009.176304 [ACC] reads=45975 stale=45930 rderr=22 ax=76 ay=-121 az=1116
1788536009.178916 [PWR] pm=0x1 drift=0 rderr=0
1788536009.182902 [DWT] ok=1 cyc=1664298614 cyc_per_ms=799999
1788536010.194980 [HB] up_ms=1017961 frames=46043 inf=46043 hazard=5904 canary_err=0 q=0 qovr=0
1788536010.206362 [I2C] init=0 gate=0 whoami=0x140e0 wr=0 wrseen=0x27 addr=0x5a ok=280760 err=22 tmo=0 recov=48 pclk1=200000000 sysclk=400000000
1788536010.207850 [NAK] nacks=18
1788536010.212336 [CLK] cpu=800000000 sysb=400000000 pclk1=200000000
1788536010.216829 [TOF] res=0 step=0 id=0xeacc blk=0xeacc10 ctl=0x0
1788536010.222704 [RNG] init=0 step=99 id=0xeacc boot=1 calls=93 xerr=0 dm=1 tb=15
1788536010.229692 [RNG] osc=41 imp=881 imprb=881 mstart=0x40 cfg=91 cfgfail=0x0 vhv=0 vpolls=0
1788536010.235938 [PRT] calls=184293 xerr=0 ler=1 lidx=0x0 perr=0 maxcnt=17 addr8=0x52
1788536010.239932 [RTY] wr=0 wmax=0 wref=0  rd=0 rmax=0 rref=0
1788536010.247926 [RNG] frames=46045 last=42 min=28 max=170 nrdy=0 dxfer=0 dstat=0 lst=0 nrdyerr=0 dclr=0
1788536010.254208 [DRV] init=0 id=7 mode=0x1 lib=0x2 seq=0x1 odc=0x8b sts=0xe0 armed=1
1788536010.259530 [TRG] pulses=434 suppressed=5470 cyc=1600 rst=1 rstmode=0x40
1788536010.262925 [HLT] polls=920 faults=0x0 cfglost=0
1788536010.268668 [EFF] n=5 last=58533 min=58470 max=58534 late=0 stuck=0 rderr=0
1788536010.279020 [IMU] init=0 addr=0x68 who=0x68 rst=1 pmrb0=0x40 pmrb=0x1 sr=19 cfg=4 gcfg=0x0 acfg=0x8 icfg=0x30 ien=0x1 armed=1
1788536010.284390 [ACC] reads=46025 stale=45980 rderr=22 ax=76 ay=-121 az=1117
1788536010.287163 [PWR] pm=0x1 drift=0 rderr=0
1788536010.291006 [DWT] ok=1 cyc=2546698634 cyc_per_ms=800000
1788536011.303372 [HB] up_ms=1019064 frames=46093 inf=46093 hazard=5904 canary_err=0 q=0 qovr=0
1788536011.314858 [I2C] init=0 gate=0 whoami=0x140e0 wr=0 wrseen=0x27 addr=0x5a ok=281062 err=22 tmo=0 recov=48 pclk1=200000000 sysclk=400000000
1788536011.316231 [NAK] nacks=18
1788536011.320855 [CLK] cpu=800000000 sysb=400000000 pclk1=200000000
1788536011.325337 [TOF] res=0 step=0 id=0xeacc blk=0xeacc10 ctl=0x0
1788536011.331087 [RNG] init=0 step=99 id=0xeacc boot=1 calls=93 xerr=0 dm=1 tb=15
1788536011.338207 [RNG] osc=41 imp=881 imprb=881 mstart=0x40 cfg=91 cfgfail=0x0 vhv=0 vpolls=0
1788536011.344370 [PRT] calls=184493 xerr=0 ler=1 lidx=0x0 perr=0 maxcnt=17 addr8=0x52
1788536011.348442 [RTY] wr=0 wmax=0 wref=0  rd=0 rmax=0 rref=0
1788536011.356314 [RNG] frames=46095 last=48 min=28 max=170 nrdy=0 dxfer=0 dstat=0 lst=0 nrdyerr=0 dclr=0
1788536011.362557 [DRV] init=0 id=7 mode=0x1 lib=0x2 seq=0x1 odc=0x8b sts=0xe0 armed=1
1788536011.368055 [TRG] pulses=434 suppressed=5470 cyc=1600 rst=1 rstmode=0x40
1788536011.371425 [HLT] polls=921 faults=0x0 cfglost=0
1788536011.377186 [EFF] n=5 last=58533 min=58470 max=58534 late=0 stuck=0 rderr=0
1788536011.387411 [IMU] init=0 addr=0x68 who=0x68 rst=1 pmrb0=0x40 pmrb=0x1 sr=19 cfg=4 gcfg=0x0 acfg=0x8 icfg=0x30 ien=0x1 armed=1
1788536011.392906 [ACC] reads=46075 stale=46030 rderr=22 ax=77 ay=-121 az=1115
1788536011.395526 [PWR] pm=0x1 drift=0 rderr=0
1788536011.399525 [DWT] ok=1 cyc=3429098586 cyc_per_ms=799999
1788536012.411983 [HB] up_ms=1020167 frames=46143 inf=46143 hazard=5904 canary_err=0 q=0 qovr=0
1788536012.423276 [I2C] init=0 gate=0 whoami=0x140e0 wr=0 wrseen=0x27 addr=0x5a ok=281364 err=22 tmo=0 recov=48 pclk1=200000000 sysclk=400000000
1788536012.424794 [NAK] nacks=18
1788536012.429286 [CLK] cpu=800000000 sysb=400000000 pclk1=200000000
1788536012.433767 [TOF] res=0 step=0 id=0xeacc blk=0xeacc10 ctl=0x0
1788536012.439649 [RNG] init=0 step=99 id=0xeacc boot=1 calls=93 xerr=0 dm=1 tb=15
1788536012.446638 [RNG] osc=41 imp=881 imprb=881 mstart=0x40 cfg=91 cfgfail=0x0 vhv=0 vpolls=0
1788536012.452884 [PRT] calls=184693 xerr=0 ler=1 lidx=0x0 perr=0 maxcnt=17 addr8=0x52
1788536012.456871 [RTY] wr=0 wmax=0 wref=0  rd=0 rmax=0 rref=0
1788536012.464746 [RNG] frames=46145 last=42 min=28 max=170 nrdy=0 dxfer=0 dstat=0 lst=0 nrdyerr=0 dclr=0
1788536012.471126 [DRV] init=0 id=7 mode=0x1 lib=0x2 seq=0x1 odc=0x8b sts=0xe0 armed=1
1788536012.476490 [TRG] pulses=434 suppressed=5470 cyc=1600 rst=1 rstmode=0x40
1788536012.479851 [HLT] polls=922 faults=0x0 cfglost=0
1788536012.485599 [EFF] n=5 last=58533 min=58470 max=58534 late=0 stuck=0 rderr=0
1788536012.495958 [IMU] init=0 addr=0x68 who=0x68 rst=1 pmrb0=0x40 pmrb=0x1 sr=19 cfg=4 gcfg=0x0 acfg=0x8 icfg=0x30 ien=0x1 armed=1
1788536012.501327 [ACC] reads=46125 stale=46080 rderr=22 ax=75 ay=-121 az=1117
1788536012.504084 [PWR] pm=0x1 drift=0 rderr=0
1788536012.507832 [DWT] ok=1 cyc=16531186 cyc_per_ms=799999
1788536013.520765 [HB] up_ms=1021270 frames=46193 inf=46193 hazard=5904 canary_err=0 q=0 qovr=0
1788536013.532150 [I2C] init=0 gate=0 whoami=0x140e0 wr=0 wrseen=0x27 addr=0x5a ok=281666 err=22 tmo=0 recov=48 pclk1=200000000 sysclk=400000000
1788536013.533617 [NAK] nacks=18
1788536013.538132 [CLK] cpu=800000000 sysb=400000000 pclk1=200000000
1788536013.542616 [TOF] res=0 step=0 id=0xeacc blk=0xeacc10 ctl=0x0
1788536013.548499 [RNG] init=0 step=99 id=0xeacc boot=1 calls=93 xerr=0 dm=1 tb=15
1788536013.555512 [RNG] osc=41 imp=881 imprb=881 mstart=0x40 cfg=91 cfgfail=0x0 vhv=0 vpolls=0
1788536013.561721 [PRT] calls=184893 xerr=0 ler=1 lidx=0x0 perr=0 maxcnt=17 addr8=0x52
1788536013.565723 [RTY] wr=0 wmax=0 wref=0  rd=0 rmax=0 rref=0
1788536013.573594 [RNG] frames=46195 last=50 min=28 max=170 nrdy=0 dxfer=0 dstat=0 lst=0 nrdyerr=0 dclr=0
1788536013.579951 [DRV] init=0 id=7 mode=0x1 lib=0x2 seq=0x1 odc=0x8b sts=0xe0 armed=1
1788536013.585329 [TRG] pulses=434 suppressed=5470 cyc=1600 rst=1 rstmode=0x40
1788536013.588700 [HLT] polls=923 faults=0x0 cfglost=0
1788536013.594435 [EFF] n=5 last=58533 min=58470 max=58534 late=0 stuck=0 rderr=0
1788536013.604796 [IMU] init=0 addr=0x68 who=0x68 rst=1 pmrb0=0x40 pmrb=0x1 sr=19 cfg=4 gcfg=0x0 acfg=0x8 icfg=0x30 ien=0x1 armed=1
1788536013.610200 [ACC] reads=46175 stale=46130 rderr=22 ax=76 ay=-119 az=1116
1788536013.612923 [PWR] pm=0x1 drift=0 rderr=0
1788536013.616798 [DWT] ok=1 cyc=898931094 cyc_per_ms=799999
1788536014.629655 [HB] up_ms=1022373 frames=46243 inf=46243 hazard=5945 canary_err=0 q=0 qovr=0
1788536014.641146 [I2C] init=0 gate=0 whoami=0x140e0 wr=0 wrseen=0x27 addr=0x5a ok=281968 err=22 tmo=0 recov=48 pclk1=200000000 sysclk=400000000
1788536014.642505 [NAK] nacks=18
1788536014.647160 [CLK] cpu=800000000 sysb=400000000 pclk1=200000000
1788536014.651617 [TOF] res=0 step=0 id=0xeacc blk=0xeacc10 ctl=0x0
1788536014.657488 [RNG] init=0 step=99 id=0xeacc boot=1 calls=93 xerr=0 dm=1 tb=15
1788536014.664480 [RNG] osc=41 imp=881 imprb=881 mstart=0x40 cfg=91 cfgfail=0x0 vhv=0 vpolls=0
1788536014.670728 [PRT] calls=185093 xerr=0 ler=1 lidx=0x0 perr=0 maxcnt=17 addr8=0x52
1788536014.674724 [RTY] wr=0 wmax=0 wref=0  rd=0 rmax=0 rref=0
1788536014.682586 [RNG] frames=46245 last=44 min=28 max=170 nrdy=0 dxfer=0 dstat=0 lst=0 nrdyerr=0 dclr=0
1788536014.688958 [DRV] init=0 id=7 mode=0x1 lib=0x2 seq=0x1 odc=0x8b sts=0xe0 armed=1
1788536014.694485 [TRG] pulses=437 suppressed=5508 cyc=1600 rst=1 rstmode=0x40
1788536014.697719 [HLT] polls=924 faults=0x0 cfglost=0
1788536014.703450 [EFF] n=5 last=58533 min=58470 max=58534 late=0 stuck=0 rderr=0
1788536014.713816 [IMU] init=0 addr=0x68 who=0x68 rst=1 pmrb0=0x40 pmrb=0x1 sr=19 cfg=4 gcfg=0x0 acfg=0x8 icfg=0x30 ien=0x1 armed=1
1788536014.719312 [ACC] reads=46225 stale=46180 rderr=22 ax=75 ay=-120 az=1115
1788536014.721934 [PWR] pm=0x1 drift=0 rderr=0
1788536014.725800 [DWT] ok=1 cyc=1781331294 cyc_per_ms=800000
1788536015.738684 [HB] up_ms=1023476 frames=46293 inf=46293 hazard=5945 canary_err=0 q=0 qovr=0
1788536015.750200 [I2C] init=0 gate=0 whoami=0x140e0 wr=0 wrseen=0x27 addr=0x5a ok=282270 err=22 tmo=0 recov=48 pclk1=200000000 sysclk=400000000
1788536015.751571 [NAK] nacks=18
1788536015.756181 [CLK] cpu=800000000 sysb=400000000 pclk1=200000000
1788536015.760655 [TOF] res=0 step=0 id=0xeacc blk=0xeacc10 ctl=0x0
1788536015.766522 [RNG] init=0 step=99 id=0xeacc boot=1 calls=93 xerr=0 dm=1 tb=15
1788536015.773522 [RNG] osc=41 imp=881 imprb=881 mstart=0x40 cfg=91 cfgfail=0x0 vhv=0 vpolls=0
1788536015.779763 [PRT] calls=185292 xerr=0 ler=1 lidx=0x0 perr=0 maxcnt=17 addr8=0x52
1788536015.783763 [RTY] wr=0 wmax=0 wref=0  rd=0 rmax=0 rref=0
1788536015.791644 [RNG] frames=46295 last=48 min=28 max=170 nrdy=0 dxfer=0 dstat=0 lst=0 nrdyerr=0 dclr=0
1788536015.797999 [DRV] init=0 id=7 mode=0x1 lib=0x2 seq=0x1 odc=0x8b sts=0xe0 armed=1
1788536015.803365 [TRG] pulses=437 suppressed=5508 cyc=1600 rst=1 rstmode=0x40
1788536015.806740 [HLT] polls=925 faults=0x0 cfglost=0
1788536015.812494 [EFF] n=5 last=58533 min=58470 max=58534 late=0 stuck=0 rderr=0
1788536015.822858 [IMU] init=0 addr=0x68 who=0x68 rst=1 pmrb0=0x40 pmrb=0x1 sr=19 cfg=4 gcfg=0x0 acfg=0x8 icfg=0x30 ien=0x1 armed=1
1788536015.828228 [ACC] reads=46275 stale=46230 rderr=22 ax=74 ay=-120 az=1114
1788536015.830971 [PWR] pm=0x1 drift=0 rderr=0
1788536015.834837 [DWT] ok=1 cyc=2663731310 cyc_per_ms=800000
1788536016.847877 [HB] up_ms=1024579 frames=46343 inf=46343 hazard=5945 canary_err=0 q=0 qovr=0
1788536016.859134 [I2C] init=0 gate=0 whoami=0x140e0 wr=0 wrseen=0x27 addr=0x5a ok=282572 err=22 tmo=0 recov=48 pclk1=200000000 sysclk=400000000
1788536016.860613 [NAK] nacks=18
1788536016.865231 [CLK] cpu=800000000 sysb=400000000 pclk1=200000000
1788536016.869720 [TOF] res=0 step=0 id=0xeacc blk=0xeacc10 ctl=0x0
1788536016.875594 [RNG] init=0 step=99 id=0xeacc boot=1 calls=93 xerr=0 dm=1 tb=15
1788536016.882471 [RNG] osc=41 imp=881 imprb=881 mstart=0x40 cfg=91 cfgfail=0x0 vhv=0 vpolls=0
1788536016.888838 [PRT] calls=185489 xerr=0 ler=1 lidx=0x0 perr=0 maxcnt=17 addr8=0x52
1788536016.892838 [RTY] wr=0 wmax=0 wref=0  rd=0 rmax=0 rref=0
1788536016.900696 [RNG] frames=46345 last=47 min=28 max=170 nrdy=0 dxfer=0 dstat=0 lst=0 nrdyerr=0 dclr=0
1788536016.907069 [DRV] init=0 id=7 mode=0x1 lib=0x2 seq=0x1 odc=0x8b sts=0xe0 armed=1
1788536016.912573 [TRG] pulses=437 suppressed=5508 cyc=1600 rst=1 rstmode=0x40
1788536016.915820 [HLT] polls=926 faults=0x0 cfglost=0
1788536016.921559 [EFF] n=5 last=58533 min=58470 max=58534 late=0 stuck=0 rderr=0
1788536016.931930 [IMU] init=0 addr=0x68 who=0x68 rst=1 pmrb0=0x40 pmrb=0x1 sr=19 cfg=4 gcfg=0x0 acfg=0x8 icfg=0x30 ien=0x1 armed=1
1788536016.937426 [ACC] reads=46325 stale=46280 rderr=22 ax=78 ay=-122 az=1113
1788536016.940046 [PWR] pm=0x1 drift=0 rderr=0
1788536016.944035 [DWT] ok=1 cyc=3546131330 cyc_per_ms=800000
1788536017.957186 [HB] up_ms=1025682 frames=46393 inf=46393 hazard=5945 canary_err=0 q=0 qovr=0
1788536017.968474 [I2C] init=0 gate=0 whoami=0x140e0 wr=0 wrseen=0x27 addr=0x5a ok=282874 err=22 tmo=0 recov=48 pclk1=200000000 sysclk=400000000
1788536017.969961 [NAK] nacks=18
1788536017.974590 [CLK] cpu=800000000 sysb=400000000 pclk1=200000000
1788536017.979083 [TOF] res=0 step=0 id=0xeacc blk=0xeacc10 ctl=0x0
1788536017.984954 [RNG] init=0 step=99 id=0xeacc boot=1 calls=93 xerr=0 dm=1 tb=15
1788536017.991820 [RNG] osc=41 imp=881 imprb=881 mstart=0x40 cfg=91 cfgfail=0x0 vhv=0 vpolls=0
1788536017.998200 [PRT] calls=185689 xerr=0 ler=1 lidx=0x0 perr=0 maxcnt=17 addr8=0x52
1788536018.002319 [RTY] wr=0 wmax=0 wref=0  rd=0 rmax=0 rref=0
1788536018.010197 [RNG] frames=46395 last=47 min=28 max=170 nrdy=0 dxfer=0 dstat=0 lst=0 nrdyerr=0 dclr=0
1788536018.016287 [DRV] init=0 id=7 mode=0x1 lib=0x2 seq=0x1 odc=0x8b sts=0xe0 armed=1
1788536018.021922 [TRG] pulses=437 suppressed=5508 cyc=1600 rst=1 rstmode=0x40
1788536018.025281 [HLT] polls=927 faults=0x0 cfglost=0
1788536018.031038 [EFF] n=5 last=58533 min=58470 max=58534 late=0 stuck=0 rderr=0
1788536018.041401 [IMU] init=0 addr=0x68 who=0x68 rst=1 pmrb0=0x40 pmrb=0x1 sr=19 cfg=4 gcfg=0x0 acfg=0x8 icfg=0x30 ien=0x1 armed=1
1788536018.046780 [ACC] reads=46375 stale=46329 rderr=22 ax=74 ay=-121 az=1114
1788536018.049528 [PWR] pm=0x1 drift=0 rderr=0
1788536018.053400 [DWT] ok=1 cyc=133563730 cyc_per_ms=799999
1788536019.067364 [HB] up_ms=1026785 frames=46443 inf=46443 hazard=5945 canary_err=0 q=0 qovr=0
1788536019.078732 [I2C] init=0 gate=0 whoami=0x140e0 wr=0 wrseen=0x27 addr=0x5a ok=283176 err=22 tmo=0 recov=48 pclk1=200000000 sysclk=400000000
1788536019.080091 [NAK] nacks=18
1788536019.084839 [CLK] cpu=800000000 sysb=400000000 pclk1=200000000
1788536019.089340 [TOF] res=0 step=0 id=0xeacc blk=0xeacc10 ctl=0x0
1788536019.095217 [RNG] init=0 step=99 id=0xeacc boot=1 calls=93 xerr=0 dm=1 tb=15
1788536019.102072 [RNG] osc=41 imp=881 imprb=881 mstart=0x40 cfg=91 cfgfail=0x0 vhv=0 vpolls=0
1788536019.108440 [PRT] calls=185889 xerr=0 ler=1 lidx=0x0 perr=0 maxcnt=17 addr8=0x52
1788536019.112437 [RTY] wr=0 wmax=0 wref=0  rd=0 rmax=0 rref=0
1788536019.120312 [RNG] frames=46445 last=50 min=28 max=170 nrdy=0 dxfer=0 dstat=0 lst=0 nrdyerr=0 dclr=0
1788536019.126557 [DRV] init=0 id=7 mode=0x1 lib=0x2 seq=0x1 odc=0x8b sts=0xe0 armed=1
1788536019.132193 [TRG] pulses=437 suppressed=5508 cyc=1600 rst=1 rstmode=0x40
1788536019.135554 [HLT] polls=928 faults=0x0 cfglost=0
1788536019.141299 [EFF] n=5 last=58533 min=58470 max=58534 late=0 stuck=0 rderr=0
1788536019.151534 [IMU] init=0 addr=0x68 who=0x68 rst=1 pmrb0=0x40 pmrb=0x1 sr=19 cfg=4 gcfg=0x0 acfg=0x8 icfg=0x30 ien=0x1 armed=1
1788536019.157042 [ACC] reads=46425 stale=46379 rderr=22 ax=77 ay=-123 az=1113
1788536019.159651 [PWR] pm=0x1 drift=0 rderr=0
1788536019.163648 [DWT] ok=1 cyc=1015963890 cyc_per_ms=800000
1788536020.177386 [HB] up_ms=1027888 frames=46493 inf=46493 hazard=5945 canary_err=0 q=0 qovr=0
1788536020.188633 [I2C] init=0 gate=0 whoami=0x140e0 wr=0 wrseen=0x27 addr=0x5a ok=283478 err=22 tmo=0 recov=48 pclk1=200000000 sysclk=400000000
1788536020.200557 [NAK] nacks=18
1788536020.200643 [CLK] cpu=800000000 sysb=400000000 pclk1=200000000
1788536020.200701 [TOF] res=0 step=0 id=0xeacc blk=0xeacc10 ctl=0x0
1788536020.205142 [RNG] init=0 step=99 id=0xeacc boot=1 calls=93 xerr=0 dm=1 tb=15
1788536020.211978 [RNG] osc=41 imp=881 imprb=881 mstart=0x40 cfg=91 cfgfail=0x0 vhv=0 vpolls=0
1788536020.218356 [PRT] calls=186089 xerr=0 ler=1 lidx=0x0 perr=0 maxcnt=17 addr8=0x52
1788536020.222469 [RTY] wr=0 wmax=0 wref=0  rd=0 rmax=0 rref=0
1788536020.230346 [RNG] frames=46495 last=44 min=28 max=170 nrdy=0 dxfer=0 dstat=0 lst=0 nrdyerr=0 dclr=0
1788536020.236466 [DRV] init=0 id=7 mode=0x1 lib=0x2 seq=0x1 odc=0x8b sts=0xe0 armed=1
1788536020.242127 [TRG] pulses=437 suppressed=5508 cyc=1600 rst=1 rstmode=0x40
1788536020.245466 [HLT] polls=929 faults=0x0 cfglost=0
1788536020.251199 [EFF] n=5 last=58533 min=58470 max=58534 late=0 stuck=0 rderr=0
1788536020.261325 [IMU] init=0 addr=0x68 who=0x68 rst=1 pmrb0=0x40 pmrb=0x1 sr=19 cfg=4 gcfg=0x0 acfg=0x8 icfg=0x30 ien=0x1 armed=1
1788536020.266939 [ACC] reads=46474 stale=46428 rderr=22 ax=77 ay=-121 az=1114
1788536020.269567 [PWR] pm=0x1 drift=0 rderr=0
1788536020.273563 [DWT] ok=1 cyc=1898392222 cyc_per_ms=800025
1788536021.287916 [HB] up_ms=1028991 frames=46542 inf=46542 hazard=5967 canary_err=0 q=0 qovr=0
1788536021.299050 [I2C] init=0 gate=0 whoami=0x140e0 wr=0 wrseen=0x27 addr=0x5a ok=283780 err=22 tmo=0 recov=48 pclk1=200000000 sysclk=400000000
1788536021.300550 [NAK] nacks=18
1788536021.305175 [CLK] cpu=800000000 sysb=400000000 pclk1=200000000
1788536021.309803 [TOF] res=0 step=0 id=0xeacc blk=0xeacc10 ctl=0x0
1788536021.315549 [RNG] init=0 step=99 id=0xeacc boot=1 calls=93 xerr=0 dm=1 tb=15
1788536021.322533 [RNG] osc=41 imp=881 imprb=881 mstart=0x40 cfg=91 cfgfail=0x0 vhv=0 vpolls=0
1788536021.328781 [PRT] calls=186289 xerr=0 ler=1 lidx=0x0 perr=0 maxcnt=17 addr8=0x52
1788536021.332903 [RTY] wr=0 wmax=0 wref=0  rd=0 rmax=0 rref=0
1788536021.340772 [RNG] frames=46545 last=43 min=28 max=170 nrdy=0 dxfer=0 dstat=0 lst=0 nrdyerr=0 dclr=0
1788536021.346900 [DRV] init=0 id=7 mode=0x1 lib=0x2 seq=0x1 odc=0x8b sts=0xe0 armed=1
1788536021.352518 [TRG] pulses=439 suppressed=5531 cyc=1600 rst=1 rstmode=0x40
1788536021.355902 [HLT] polls=930 faults=0x0 cfglost=0
1788536021.361633 [EFF] n=5 last=58533 min=58470 max=58534 late=0 stuck=0 rderr=0
1788536021.371876 [IMU] init=0 addr=0x68 who=0x68 rst=1 pmrb0=0x40 pmrb=0x1 sr=19 cfg=4 gcfg=0x0 acfg=0x8 icfg=0x30 ien=0x1 armed=1
1788536021.377499 [ACC] reads=46524 stale=46477 rderr=22 ax=76 ay=-122 az=1115
1788536021.380134 [PWR] pm=0x1 drift=0 rderr=0
1788536021.384131 [DWT] ok=1 cyc=2780901534 cyc_per_ms=800099
1788536022.398021 [HB] up_ms=1030094 frames=46592 inf=46592 hazard=5986 canary_err=0 q=0 qovr=0
1788536022.409398 [I2C] init=0 gate=0 whoami=0x140e0 wr=0 wrseen=0x27 addr=0x5a ok=284082 err=22 tmo=0 recov=48 pclk1=200000000 sysclk=400000000
1788536022.410756 [NAK] nacks=18
1788536022.415389 [CLK] cpu=800000000 sysb=400000000 pclk1=200000000
1788536022.420000 [TOF] res=0 step=0 id=0xeacc blk=0xeacc10 ctl=0x0
1788536022.425870 [RNG] init=0 step=99 id=0xeacc boot=1 calls=93 xerr=0 dm=1 tb=15
1788536022.432741 [RNG] osc=41 imp=881 imprb=881 mstart=0x40 cfg=91 cfgfail=0x0 vhv=0 vpolls=0
1788536022.438865 [PRT] calls=186489 xerr=0 ler=1 lidx=0x0 perr=0 maxcnt=17 addr8=0x52
1788536022.443124 [RTY] wr=0 wmax=0 wref=0  rd=0 rmax=0 rref=0
1788536022.450980 [RNG] frames=46595 last=44 min=28 max=170 nrdy=0 dxfer=0 dstat=0 lst=0 nrdyerr=0 dclr=0
1788536022.457230 [DRV] init=0 id=7 mode=0x1 lib=0x2 seq=0x1 odc=0x8b sts=0xe0 armed=1
1788536022.462716 [TRG] pulses=440 suppressed=5546 cyc=1600 rst=1 rstmode=0x40
1788536022.466221 [HLT] polls=931 faults=0x0 cfglost=0
1788536022.471837 [EFF] n=5 last=58533 min=58470 max=58534 late=0 stuck=0 rderr=0
1788536022.482085 [IMU] init=0 addr=0x68 who=0x68 rst=1 pmrb0=0x40 pmrb=0x1 sr=19 cfg=4 gcfg=0x0 acfg=0x8 icfg=0x30 ien=0x1 armed=1
1788536022.487701 [ACC] reads=46574 stale=46527 rderr=22 ax=75 ay=-122 az=1117
1788536022.490328 [PWR] pm=0x1 drift=0 rderr=0
1788536022.494332 [DWT] ok=1 cyc=3663297658 cyc_per_ms=799996
1788536023.508005 [HB] up_ms=1031197 frames=46642 inf=46642 hazard=5986 canary_err=0 q=0 qovr=0
1788536023.519225 [I2C] init=0 gate=0 whoami=0x140e0 wr=0 wrseen=0x27 addr=0x5a ok=284384 err=22 tmo=0 recov=48 pclk1=200000000 sysclk=400000000
1788536023.520599 [NAK] nacks=18
1788536023.525228 [CLK] cpu=800000000 sysb=400000000 pclk1=200000000
1788536023.529864 [TOF] res=0 step=0 id=0xeacc blk=0xeacc10 ctl=0x0
1788536023.535721 [RNG] init=0 step=99 id=0xeacc boot=1 calls=93 xerr=0 dm=1 tb=15
1788536023.542598 [RNG] osc=41 imp=881 imprb=881 mstart=0x40 cfg=91 cfgfail=0x0 vhv=0 vpolls=0
1788536023.548840 [PRT] calls=186689 xerr=0 ler=1 lidx=0x0 perr=0 maxcnt=17 addr8=0x52
1788536023.552963 [RTY] wr=0 wmax=0 wref=0  rd=0 rmax=0 rref=0
1788536023.560828 [RNG] frames=46644 last=50 min=28 max=170 nrdy=0 dxfer=0 dstat=0 lst=0 nrdyerr=0 dclr=0
1788536023.567075 [DRV] init=0 id=7 mode=0x1 lib=0x2 seq=0x1 odc=0x8b sts=0xe0 armed=1
1788536023.572569 [TRG] pulses=440 suppressed=5546 cyc=1600 rst=1 rstmode=0x40
1788536023.575945 [HLT] polls=932 faults=0x0 cfglost=0
1788536023.581816 [EFF] n=5 last=58533 min=58470 max=58534 late=0 stuck=0 rderr=0
1788536023.591930 [IMU] init=0 addr=0x68 who=0x68 rst=1 pmrb0=0x40 pmrb=0x1 sr=19 cfg=4 gcfg=0x0 acfg=0x8 icfg=0x30 ien=0x1 armed=1
1788536023.597426 [ACC] reads=46624 stale=46577 rderr=22 ax=77 ay=-122 az=1116
1788536023.600196 [PWR] pm=0x1 drift=0 rderr=0
1788536023.604045 [DWT] ok=1 cyc=250730358 cyc_per_ms=799999
1788536024.618126 [HB] up_ms=1032300 frames=46692 inf=46692 hazard=5986 canary_err=0 q=0 qovr=0
1788536024.629484 [I2C] init=0 gate=0 whoami=0x140e0 wr=0 wrseen=0x27 addr=0x5a ok=284682 err=22 tmo=0 recov=48 pclk1=200000000 sysclk=400000000
1788536024.630845 [NAK] nacks=18
1788536024.635469 [CLK] cpu=800000000 sysb=400000000 pclk1=200000000
1788536024.639967 [TOF] res=0 step=0 id=0xeacc blk=0xeacc10 ctl=0x0
1788536024.645965 [RNG] init=0 step=99 id=0xeacc boot=1 calls=93 xerr=0 dm=1 tb=15
1788536024.652829 [RNG] osc=41 imp=881 imprb=881 mstart=0x40 cfg=91 cfgfail=0x0 vhv=0 vpolls=0
1788536024.658959 [PRT] calls=186889 xerr=0 ler=1 lidx=0x0 perr=0 maxcnt=17 addr8=0x52
1788536024.663071 [RTY] wr=0 wmax=0 wref=0  rd=0 rmax=0 rref=0
1788536024.671065 [RNG] frames=46694 last=43 min=28 max=170 nrdy=0 dxfer=0 dstat=0 lst=0 nrdyerr=0 dclr=0
1788536024.677316 [DRV] init=0 id=7 mode=0x1 lib=0x2 seq=0x1 odc=0x8b sts=0xe0 armed=1
1788536024.682690 [TRG] pulses=440 suppressed=5546 cyc=1600 rst=1 rstmode=0x40
1788536024.686054 [HLT] polls=933 faults=0x0 cfglost=0
1788536024.692053 [EFF] n=5 last=58533 min=58470 max=58534 late=0 stuck=0 rderr=0
1788536024.702206 [IMU] init=0 addr=0x68 who=0x68 rst=1 pmrb0=0x40 pmrb=0x1 sr=19 cfg=4 gcfg=0x0 acfg=0x8 icfg=0x30 ien=0x1 armed=1
1788536024.707670 [ACC] reads=46674 stale=46627 rderr=22 ax=69 ay=-121 az=1117
1788536024.710315 [PWR] pm=0x1 drift=0 rderr=0
1788536024.714421 [DWT] ok=1 cyc=1133036748 cyc_per_ms=799915
1788536025.728147 [HB] up_ms=1033403 frames=46742 inf=46742 hazard=5986 canary_err=0 q=0 qovr=0
1788536025.739606 [I2C] init=0 gate=0 whoami=0x140e0 wr=0 wrseen=0x27 addr=0x5a ok=284982 err=22 tmo=0 recov=48 pclk1=200000000 sysclk=400000000
1788536025.740977 [NAK] nacks=18
1788536025.745492 [CLK] cpu=800000000 sysb=400000000 pclk1=200000000
1788536025.749979 [TOF] res=0 step=0 id=0xeacc blk=0xeacc10 ctl=0x0
1788536025.755979 [RNG] init=0 step=99 id=0xeacc boot=1 calls=93 xerr=0 dm=1 tb=15
1788536025.762843 [RNG] osc=41 imp=881 imprb=881 mstart=0x40 cfg=91 cfgfail=0x0 vhv=0 vpolls=0
1788536025.769090 [PRT] calls=187089 xerr=0 ler=1 lidx=0x0 perr=0 maxcnt=17 addr8=0x52
1788536025.773082 [RTY] wr=0 wmax=0 wref=0  rd=0 rmax=0 rref=0
1788536025.781203 [RNG] frames=46744 last=40 min=28 max=170 nrdy=0 dxfer=0 dstat=0 lst=0 nrdyerr=0 dclr=0
1788536025.787341 [DRV] init=0 id=7 mode=0x1 lib=0x2 seq=0x1 odc=0x8b sts=0xe0 armed=1
1788536025.792827 [TRG] pulses=440 suppressed=5546 cyc=1600 rst=1 rstmode=0x40
1788536025.796202 [HLT] polls=934 faults=0x0 cfglost=0
1788536025.802066 [EFF] n=5 last=58533 min=58470 max=58534 late=0 stuck=0 rderr=0
1788536025.812209 [IMU] init=0 addr=0x68 who=0x68 rst=1 pmrb0=0x40 pmrb=0x1 sr=19 cfg=4 gcfg=0x0 acfg=0x8 icfg=0x30 ien=0x1 armed=1
1788536025.817682 [ACC] reads=46724 stale=46677 rderr=22 ax=78 ay=-120 az=1116
1788536025.820301 [PWR] pm=0x1 drift=0 rderr=0
1788536025.824428 [DWT] ok=1 cyc=2015396502 cyc_per_ms=799963
1788536026.838030 [HB] up_ms=1034506 frames=46792 inf=46792 hazard=5986 canary_err=0 q=0 qovr=0
1788536026.849393 [I2C] init=0 gate=0 whoami=0x140e0 wr=0 wrseen=0x27 addr=0x5a ok=285284 err=22 tmo=0 recov=48 pclk1=200000000 sysclk=400000000
1788536026.850892 [NAK] nacks=18
1788536026.855487 [CLK] cpu=800000000 sysb=400000000 pclk1=200000000
1788536026.859877 [TOF] res=0 step=0 id=0xeacc blk=0xeacc10 ctl=0x0
1788536026.865869 [RNG] init=0 step=99 id=0xeacc boot=1 calls=93 xerr=0 dm=1 tb=15
1788536026.872751 [RNG] osc=41 imp=881 imprb=881 mstart=0x40 cfg=91 cfgfail=0x0 vhv=0 vpolls=0
1788536026.878997 [PRT] calls=187289 xerr=0 ler=1 lidx=0x0 perr=0 maxcnt=17 addr8=0x52
1788536026.882995 [RTY] wr=0 wmax=0 wref=0  rd=0 rmax=0 rref=0
1788536026.891134 [RNG] frames=46794 last=44 min=28 max=170 nrdy=0 dxfer=0 dstat=0 lst=0 nrdyerr=0 dclr=0
1788536026.897229 [DRV] init=0 id=7 mode=0x1 lib=0x2 seq=0x1 odc=0x8b sts=0xe0 armed=1
1788536026.902740 [TRG] pulses=440 suppressed=5546 cyc=1600 rst=1 rstmode=0x40
1788536026.906116 [HLT] polls=935 faults=0x0 cfglost=0
1788536026.911851 [EFF] n=5 last=58533 min=58470 max=58534 late=0 stuck=0 rderr=0
1788536026.922084 [IMU] init=0 addr=0x68 who=0x68 rst=1 pmrb0=0x40 pmrb=0x1 sr=19 cfg=4 gcfg=0x0 acfg=0x8 icfg=0x30 ien=0x1 armed=1
1788536026.927587 [ACC] reads=46774 stale=46727 rderr=22 ax=76 ay=-121 az=1115
1788536026.930212 [PWR] pm=0x1 drift=0 rderr=0
1788536026.934210 [DWT] ok=1 cyc=2897796850 cyc_per_ms=800000
1788536027.948116 [HB] up_ms=1035609 frames=46842 inf=46842 hazard=5988 canary_err=0 q=0 qovr=0
1788536027.959596 [I2C] init=0 gate=0 whoami=0x140e0 wr=0 wrseen=0x27 addr=0x5a ok=285586 err=22 tmo=0 recov=48 pclk1=200000000 sysclk=400000000
1788536027.960933 [NAK] nacks=18
1788536027.965570 [CLK] cpu=800000000 sysb=400000000 pclk1=200000000
1788536027.970061 [TOF] res=0 step=0 id=0xeacc blk=0xeacc10 ctl=0x0
1788536027.975926 [RNG] init=0 step=99 id=0xeacc boot=1 calls=93 xerr=0 dm=1 tb=15
1788536027.982917 [RNG] osc=41 imp=881 imprb=881 mstart=0x40 cfg=91 cfgfail=0x0 vhv=0 vpolls=0
1788536027.989046 [PRT] calls=187489 xerr=0 ler=1 lidx=0x0 perr=0 maxcnt=17 addr8=0x52
1788536027.993189 [RTY] wr=0 wmax=0 wref=0  rd=0 rmax=0 rref=0
1788536028.001180 [RNG] frames=46844 last=42 min=28 max=170 nrdy=0 dxfer=0 dstat=0 lst=0 nrdyerr=0 dclr=0
1788536028.007275 [DRV] init=0 id=7 mode=0x1 lib=0x2 seq=0x1 odc=0x8b sts=0xe0 armed=1
1788536028.012785 [TRG] pulses=441 suppressed=5550 cyc=1600 rst=1 rstmode=0x40
1788536028.016168 [HLT] polls=936 faults=0x0 cfglost=0
1788536028.021908 [EFF] n=5 last=58533 min=58470 max=58534 late=0 stuck=0 rderr=0
1788536028.032263 [IMU] init=0 addr=0x68 who=0x68 rst=1 pmrb0=0x40 pmrb=0x1 sr=19 cfg=4 gcfg=0x0 acfg=0x8 icfg=0x30 ien=0x1 armed=1
1788536028.037628 [ACC] reads=46824 stale=46777 rderr=22 ax=75 ay=-121 az=1114
1788536028.040383 [PWR] pm=0x1 drift=0 rderr=0
1788536028.044261 [DWT] ok=1 cyc=3780200286 cyc_per_ms=800003
1788536029.058162 [HB] up_ms=1036712 frames=46892 inf=46892 hazard=6027 canary_err=0 q=0 qovr=0
1788536029.069627 [I2C] init=0 gate=0 whoami=0x140e0 wr=0 wrseen=0x27 addr=0x5a ok=285888 err=22 tmo=0 recov=48 pclk1=200000000 sysclk=400000000
1788536029.070998 [NAK] nacks=18
1788536029.075643 [CLK] cpu=800000000 sysb=400000000 pclk1=200000000
1788536029.080141 [TOF] res=0 step=0 id=0xeacc blk=0xeacc10 ctl=0x0
1788536029.085986 [RNG] init=0 step=99 id=0xeacc boot=1 calls=93 xerr=0 dm=1 tb=15
1788536029.092984 [RNG] osc=41 imp=881 imprb=881 mstart=0x40 cfg=91 cfgfail=0x0 vhv=0 vpolls=0
1788536029.099223 [PRT] calls=187689 xerr=0 ler=1 lidx=0x0 perr=0 maxcnt=17 addr8=0x52
1788536029.103213 [RTY] wr=0 wmax=0 wref=0  rd=0 rmax=0 rref=0
1788536029.111230 [RNG] frames=46894 last=38 min=28 max=170 nrdy=0 dxfer=0 dstat=0 lst=0 nrdyerr=0 dclr=0
1788536029.117489 [DRV] init=0 id=7 mode=0x1 lib=0x2 seq=0x1 odc=0x8b sts=0xe0 armed=1
1788536029.122961 [TRG] pulses=443 suppressed=5584 cyc=1600 rst=1 rstmode=0x40
1788536029.126331 [HLT] polls=937 faults=0x0 cfglost=0
1788536029.132083 [EFF] n=5 last=58533 min=58470 max=58534 late=0 stuck=0 rderr=0
1788536029.142323 [IMU] init=0 addr=0x68 who=0x68 rst=1 pmrb0=0x40 pmrb=0x1 sr=19 cfg=4 gcfg=0x0 acfg=0x8 icfg=0x30 ien=0x1 armed=1
1788536029.147819 [ACC] reads=46874 stale=46827 rderr=22 ax=74 ay=-120 az=1113
1788536029.150446 [PWR] pm=0x1 drift=0 rderr=0
1788536029.154322 [DWT] ok=1 cyc=367629430 cyc_per_ms=799996
1788536030.169594 [HB] up_ms=1037815 frames=46942 inf=46942 hazard=6027 canary_err=0 q=0 qovr=0
1788536030.180940 [I2C] init=0 gate=0 whoami=0x140e0 wr=0 wrseen=0x27 addr=0x5a ok=286190 err=22 tmo=0 recov=48 pclk1=200000000 sysclk=400000000
1788536030.182446 [NAK] nacks=18
1788536030.186931 [CLK] cpu=800000000 sysb=400000000 pclk1=200000000
1788536030.191431 [TOF] res=0 step=0 id=0xeacc blk=0xeacc10 ctl=0x0
1788536030.197299 [RNG] init=0 step=99 id=0xeacc boot=1 calls=93 xerr=0 dm=1 tb=15
1788536030.204425 [RNG] osc=41 imp=881 imprb=881 mstart=0x40 cfg=91 cfgfail=0x0 vhv=0 vpolls=0
1788536030.210548 [PRT] calls=187889 xerr=0 ler=1 lidx=0x0 perr=0 maxcnt=17 addr8=0x52
1788536030.214671 [RTY] wr=0 wmax=0 wref=0  rd=0 rmax=0 rref=0
1788536030.222538 [RNG] frames=46944 last=45 min=28 max=170 nrdy=0 dxfer=0 dstat=0 lst=0 nrdyerr=0 dclr=0
1788536030.228790 [DRV] init=0 id=7 mode=0x1 lib=0x2 seq=0x1 odc=0x8b sts=0xe0 armed=1
1788536030.234282 [TRG] pulses=443 suppressed=5584 cyc=1600 rst=1 rstmode=0x40
1788536030.237662 [HLT] polls=938 faults=0x0 cfglost=0
1788536030.243404 [EFF] n=5 last=58533 min=58470 max=58534 late=0 stuck=0 rderr=0
1788536030.253786 [IMU] init=0 addr=0x68 who=0x68 rst=1 pmrb0=0x40 pmrb=0x1 sr=19 cfg=4 gcfg=0x0 acfg=0x8 icfg=0x30 ien=0x1 armed=1
1788536030.259269 [ACC] reads=46924 stale=46877 rderr=22 ax=76 ay=-121 az=1114
1788536030.261894 [PWR] pm=0x1 drift=0 rderr=0
1788536030.265890 [DWT] ok=1 cyc=1250029358 cyc_per_ms=799999
1788536031.280550 [HB] up_ms=1038918 frames=46992 inf=46992 hazard=6027 canary_err=0 q=0 qovr=0
1788536031.291894 [I2C] init=0 gate=0 whoami=0x140e0 wr=0 wrseen=0x27 addr=0x5a ok=286492 err=22 tmo=0 recov=48 pclk1=200000000 sysclk=400000000
1788536031.293393 [NAK] nacks=18
1788536031.297895 [CLK] cpu=800000000 sysb=400000000 pclk1=200000000
1788536031.302404 [TOF] res=0 step=0 id=0xeacc blk=0xeacc10 ctl=0x0
1788536031.308267 [RNG] init=0 step=99 id=0xeacc boot=1 calls=93 xerr=0 dm=1 tb=15
1788536031.315260 [RNG] osc=41 imp=881 imprb=881 mstart=0x40 cfg=91 cfgfail=0x0 vhv=0 vpolls=0
1788536031.321510 [PRT] calls=188089 xerr=0 ler=1 lidx=0x0 perr=0 maxcnt=17 addr8=0x52
1788536031.325514 [RTY] wr=0 wmax=0 wref=0  rd=0 rmax=0 rref=0
1788536031.333375 [RNG] frames=46994 last=38 min=28 max=170 nrdy=0 dxfer=0 dstat=0 lst=0 nrdyerr=0 dclr=0
1788536031.339756 [DRV] init=0 id=7 mode=0x1 lib=0x2 seq=0x1 odc=0x8b sts=0xe0 armed=1
1788536031.345248 [TRG] pulses=443 suppressed=5584 cyc=1600 rst=1 rstmode=0x40
1788536031.348611 [HLT] polls=939 faults=0x0 cfglost=0
1788536031.354388 [EFF] n=5 last=58533 min=58470 max=58534 late=0 stuck=0 rderr=0
1788536031.364655 [IMU] init=0 addr=0x68 who=0x68 rst=1 pmrb0=0x40 pmrb=0x1 sr=19 cfg=4 gcfg=0x0 acfg=0x8 icfg=0x30 ien=0x1 armed=1
1788536031.370121 [ACC] reads=46974 stale=46927 rderr=22 ax=74 ay=-119 az=1117
1788536031.372728 [PWR] pm=0x1 drift=0 rderr=0
1788536031.376719 [DWT] ok=1 cyc=2132429306 cyc_per_ms=799999
1788536032.391457 [HB] up_ms=1040021 frames=47042 inf=47042 hazard=6027 canary_err=0 q=0 qovr=0
1788536032.402876 [I2C] init=0 gate=0 whoami=0x140e0 wr=0 wrseen=0x27 addr=0x5a ok=286794 err=22 tmo=0 recov=48 pclk1=200000000 sysclk=400000000
1788536032.404238 [NAK] nacks=18
1788536032.408861 [CLK] cpu=800000000 sysb=400000000 pclk1=200000000
1788536032.413369 [TOF] res=0 step=0 id=0xeacc blk=0xeacc10 ctl=0x0
1788536032.419125 [RNG] init=0 step=99 id=0xeacc boot=1 calls=93 xerr=0 dm=1 tb=15
1788536032.426229 [RNG] osc=41 imp=881 imprb=881 mstart=0x40 cfg=91 cfgfail=0x0 vhv=0 vpolls=0
1788536032.432488 [PRT] calls=188289 xerr=0 ler=1 lidx=0x0 perr=0 maxcnt=17 addr8=0x52
1788536032.436479 [RTY] wr=0 wmax=0 wref=0  rd=0 rmax=0 rref=0
1788536032.444360 [RNG] frames=47044 last=45 min=28 max=170 nrdy=0 dxfer=0 dstat=0 lst=0 nrdyerr=0 dclr=0
1788536032.450720 [DRV] init=0 id=7 mode=0x1 lib=0x2 seq=0x1 odc=0x8b sts=0xe0 armed=1
1788536032.456214 [TRG] pulses=443 suppressed=5584 cyc=1600 rst=1 rstmode=0x40
1788536032.459592 [HLT] polls=940 faults=0x0 cfglost=0
1788536032.465338 [EFF] n=5 last=58533 min=58470 max=58534 late=0 stuck=0 rderr=0
1788536032.475578 [IMU] init=0 addr=0x68 who=0x68 rst=1 pmrb0=0x40 pmrb=0x1 sr=19 cfg=4 gcfg=0x0 acfg=0x8 icfg=0x30 ien=0x1 armed=1
1788536032.481071 [ACC] reads=47024 stale=46977 rderr=22 ax=78 ay=-121 az=1112
1788536032.483696 [PWR] pm=0x1 drift=0 rderr=0
1788536032.487693 [DWT] ok=1 cyc=3014829206 cyc_per_ms=799999
1788536033.502141 [HB] up_ms=1041124 frames=47092 inf=47092 hazard=6027 canary_err=0 q=0 qovr=0
1788536033.513609 [I2C] init=0 gate=0 whoami=0x140e0 wr=0 wrseen=0x27 addr=0x5a ok=287096 err=22 tmo=0 recov=48 pclk1=200000000 sysclk=400000000
1788536033.514975 [NAK] nacks=18
1788536033.519600 [CLK] cpu=800000000 sysb=400000000 pclk1=200000000
1788536033.524139 [TOF] res=0 step=0 id=0xeacc blk=0xeacc10 ctl=0x0
1788536033.529970 [RNG] init=0 step=99 id=0xeacc boot=1 calls=93 xerr=0 dm=1 tb=15
1788536033.536965 [RNG] osc=41 imp=881 imprb=881 mstart=0x40 cfg=91 cfgfail=0x0 vhv=0 vpolls=0
1788536033.543206 [PRT] calls=188489 xerr=0 ler=1 lidx=0x0 perr=0 maxcnt=17 addr8=0x52
1788536033.547265 [RTY] wr=0 wmax=0 wref=0  rd=0 rmax=0 rref=0
1788536033.555285 [RNG] frames=47094 last=48 min=28 max=170 nrdy=0 dxfer=0 dstat=0 lst=0 nrdyerr=0 dclr=0
1788536033.561437 [DRV] init=0 id=7 mode=0x1 lib=0x2 seq=0x1 odc=0x8b sts=0xe0 armed=1
1788536033.566949 [TRG] pulses=443 suppressed=5584 cyc=1600 rst=1 rstmode=0x40
1788536033.570323 [HLT] polls=941 faults=0x0 cfglost=0
1788536033.576064 [EFF] n=5 last=58533 min=58470 max=58534 late=0 stuck=0 rderr=0
1788536033.586303 [IMU] init=0 addr=0x68 who=0x68 rst=1 pmrb0=0x40 pmrb=0x1 sr=19 cfg=4 gcfg=0x0 acfg=0x8 icfg=0x30 ien=0x1 armed=1
1788536033.591809 [ACC] reads=47074 stale=47027 rderr=22 ax=74 ay=-119 az=1116
1788536033.594437 [PWR] pm=0x1 drift=0 rderr=0
1788536033.598439 [DWT] ok=1 cyc=3897229346 cyc_per_ms=800000
1788536034.613247 [HB] up_ms=1042227 frames=47142 inf=47142 hazard=6027 canary_err=0 q=0 qovr=0
1788536034.624610 [I2C] init=0 gate=0 whoami=0x140e0 wr=0 wrseen=0x27 addr=0x5a ok=287398 err=22 tmo=0 recov=48 pclk1=200000000 sysclk=400000000
1788536034.626126 [NAK] nacks=18
1788536034.630602 [CLK] cpu=800000000 sysb=400000000 pclk1=200000000
1788536034.635217 [TOF] res=0 step=0 id=0xeacc blk=0xeacc10 ctl=0x0
1788536034.640972 [RNG] init=0 step=99 id=0xeacc boot=1 calls=93 xerr=0 dm=1 tb=15
1788536034.647965 [RNG] osc=41 imp=881 imprb=881 mstart=0x40 cfg=91 cfgfail=0x0 vhv=0 vpolls=0
1788536034.654237 [PRT] calls=188688 xerr=0 ler=1 lidx=0x0 perr=0 maxcnt=17 addr8=0x52
1788536034.658336 [RTY] wr=0 wmax=0 wref=0  rd=0 rmax=0 rref=0
1788536034.666195 [RNG] frames=47144 last=46 min=28 max=170 nrdy=0 dxfer=0 dstat=0 lst=0 nrdyerr=0 dclr=0
1788536034.672578 [DRV] init=0 id=7 mode=0x1 lib=0x2 seq=0x1 odc=0x8b sts=0xe0 armed=1
1788536034.677951 [TRG] pulses=443 suppressed=5584 cyc=1600 rst=1 rstmode=0x40
1788536034.681324 [HLT] polls=942 faults=0x0 cfglost=0
1788536034.687062 [EFF] n=5 last=58533 min=58470 max=58534 late=0 stuck=0 rderr=0
1788536034.697469 [IMU] init=0 addr=0x68 who=0x68 rst=1 pmrb0=0x40 pmrb=0x1 sr=19 cfg=4 gcfg=0x0 acfg=0x8 icfg=0x30 ien=0x1 armed=1
1788536034.702964 [ACC] reads=47124 stale=47077 rderr=22 ax=76 ay=-120 az=1113
1788536034.705585 [PWR] pm=0x1 drift=0 rderr=0
1788536034.709469 [DWT] ok=1 cyc=484662182 cyc_per_ms=800000
1788536035.723624 [HB] up_ms=1043330 frames=47192 inf=47192 hazard=6059 canary_err=0 q=0 qovr=0
1788536035.734849 [I2C] init=0 gate=0 whoami=0x140e0 wr=0 wrseen=0x27 addr=0x5a ok=287700 err=22 tmo=0 recov=48 pclk1=200000000 sysclk=400000000
1788536035.736488 [NAK] nacks=18
1788536035.741117 [CLK] cpu=800000000 sysb=400000000 pclk1=200000000
1788536035.745600 [TOF] res=0 step=0 id=0xeacc blk=0xeacc10 ctl=0x0
1788536035.751472 [RNG] init=0 step=99 id=0xeacc boot=1 calls=93 xerr=0 dm=1 tb=15
1788536035.758341 [RNG] osc=41 imp=881 imprb=881 mstart=0x40 cfg=91 cfgfail=0x0 vhv=0 vpolls=0
1788536035.764710 [PRT] calls=188885 xerr=0 ler=1 lidx=0x0 perr=0 maxcnt=17 addr8=0x52
1788536035.768711 [RTY] wr=0 wmax=0 wref=0  rd=0 rmax=0 rref=0
1788536035.776575 [RNG] frames=47194 last=47 min=28 max=170 nrdy=0 dxfer=0 dstat=0 lst=0 nrdyerr=0 dclr=0
1788536035.782953 [DRV] init=0 id=7 mode=0x1 lib=0x2 seq=0x1 odc=0x8b sts=0xe0 armed=1
1788536035.788465 [TRG] pulses=446 suppressed=5616 cyc=1600 rst=1 rstmode=0x40
1788536035.791822 [HLT] polls=943 faults=0x0 cfglost=0
1788536035.797570 [EFF] n=5 last=58533 min=58470 max=58534 late=0 stuck=0 rderr=0
1788536035.807821 [IMU] init=0 addr=0x68 who=0x68 rst=1 pmrb0=0x40 pmrb=0x1 sr=19 cfg=4 gcfg=0x0 acfg=0x8 icfg=0x30 ien=0x1 armed=1
1788536035.813314 [ACC] reads=47174 stale=47127 rderr=22 ax=76 ay=-122 az=1115
1788536035.815921 [PWR] pm=0x1 drift=0 rderr=0
1788536035.819932 [DWT] ok=1 cyc=1367065754 cyc_per_ms=800003
1788536036.834155 [HB] up_ms=1044433 frames=47242 inf=47242 hazard=6068 canary_err=0 q=0 qovr=0
1788536036.845377 [I2C] init=0 gate=0 whoami=0x140e0 wr=0 wrseen=0x27 addr=0x5a ok=288002 err=22 tmo=0 recov=48 pclk1=200000000 sysclk=400000000
1788536036.846862 [NAK] nacks=18
1788536036.851609 [CLK] cpu=800000000 sysb=400000000 pclk1=200000000
1788536036.856142 [TOF] res=0 step=0 id=0xeacc blk=0xeacc10 ctl=0x0
1788536036.861880 [RNG] init=0 step=99 id=0xeacc boot=1 calls=93 xerr=0 dm=1 tb=15
1788536036.868856 [RNG] osc=41 imp=881 imprb=881 mstart=0x40 cfg=91 cfgfail=0x0 vhv=0 vpolls=0
1788536036.875117 [PRT] calls=189085 xerr=0 ler=1 lidx=0x0 perr=0 maxcnt=17 addr8=0x52
1788536036.879228 [RTY] wr=0 wmax=0 wref=0  rd=0 rmax=0 rref=0
1788536036.887094 [RNG] frames=47244 last=48 min=28 max=170 nrdy=0 dxfer=0 dstat=0 lst=0 nrdyerr=0 dclr=0
1788536036.893340 [DRV] init=0 id=7 mode=0x1 lib=0x2 seq=0x1 odc=0x8b sts=0xe0 armed=1
1788536036.898832 [TRG] pulses=446 suppressed=5622 cyc=1600 rst=1 rstmode=0x40
1788536036.902201 [HLT] polls=944 faults=0x0 cfglost=0
1788536036.907960 [EFF] n=5 last=58533 min=58470 max=58534 late=0 stuck=0 rderr=0
1788536036.918332 [IMU] init=0 addr=0x68 who=0x68 rst=1 pmrb0=0x40 pmrb=0x1 sr=19 cfg=4 gcfg=0x0 acfg=0x8 icfg=0x30 ien=0x1 armed=1
1788536036.923693 [ACC] reads=47224 stale=47177 rderr=22 ax=74 ay=-120 az=1115
1788536036.926438 [PWR] pm=0x1 drift=0 rderr=0
1788536036.930325 [DWT] ok=1 cyc=2249461826 cyc_per_ms=799996
1788536037.944405 [HB] up_ms=1045536 frames=47292 inf=47292 hazard=6068 canary_err=0 q=0 qovr=0
1788536037.955775 [I2C] init=0 gate=0 whoami=0x140e0 wr=0 wrseen=0x27 addr=0x5a ok=288304 err=22 tmo=0 recov=48 pclk1=200000000 sysclk=400000000
1788536037.957160 [NAK] nacks=18
1788536037.961873 [CLK] cpu=800000000 sysb=400000000 pclk1=200000000
1788536037.966373 [TOF] res=0 step=0 id=0xeacc blk=0xeacc10 ctl=0x0
1788536037.972248 [RNG] init=0 step=99 id=0xeacc boot=1 calls=93 xerr=0 dm=1 tb=15
1788536037.979230 [RNG] osc=41 imp=881 imprb=881 mstart=0x40 cfg=91 cfgfail=0x0 vhv=0 vpolls=0
1788536037.985508 [PRT] calls=189285 xerr=0 ler=1 lidx=0x0 perr=0 maxcnt=17 addr8=0x52
1788536037.989469 [RTY] wr=0 wmax=0 wref=0  rd=0 rmax=0 rref=0
1788536037.997899 [RNG] frames=47294 last=43 min=28 max=170 nrdy=0 dxfer=0 dstat=0 lst=0 nrdyerr=0 dclr=0
1788536038.003598 [DRV] init=0 id=7 mode=0x1 lib=0x2 seq=0x1 odc=0x8b sts=0xe0 armed=1
1788536038.009197 [TRG] pulses=446 suppressed=5622 cyc=1600 rst=1 rstmode=0x40
1788536038.012572 [HLT] polls=945 faults=0x0 cfglost=0
1788536038.018196 [EFF] n=5 last=58533 min=58470 max=58534 late=0 stuck=0 rderr=0
1788536038.028576 [IMU] init=0 addr=0x68 who=0x68 rst=1 pmrb0=0x40 pmrb=0x1 sr=19 cfg=4 gcfg=0x0 acfg=0x8 icfg=0x30 ien=0x1 armed=1
1788536038.034071 [ACC] reads=47274 stale=47227 rderr=22 ax=74 ay=-121 az=1117
1788536038.036695 [PWR] pm=0x1 drift=0 rderr=0
1788536038.040694 [DWT] ok=1 cyc=3131861994 cyc_per_ms=800000
1788536039.055314 [HB] up_ms=1046639 frames=47342 inf=47342 hazard=6068 canary_err=0 q=0 qovr=0
1788536039.066544 [I2C] init=0 gate=0 whoami=0x140e0 wr=0 wrseen=0x27 addr=0x5a ok=288606 err=22 tmo=0 recov=48 pclk1=200000000 sysclk=400000000
1788536039.068036 [NAK] nacks=18
1788536039.072790 [CLK] cpu=800000000 sysb=400000000 pclk1=200000000
1788536039.077286 [TOF] res=0 step=0 id=0xeacc blk=0xeacc10 ctl=0x0
1788536039.083028 [RNG] init=0 step=99 id=0xeacc boot=1 calls=93 xerr=0 dm=1 tb=15
1788536039.090031 [RNG] osc=41 imp=881 imprb=881 mstart=0x40 cfg=91 cfgfail=0x0 vhv=0 vpolls=0
1788536039.096276 [PRT] calls=189485 xerr=0 ler=1 lidx=0x0 perr=0 maxcnt=17 addr8=0x52
1788536039.100399 [RTY] wr=0 wmax=0 wref=0  rd=0 rmax=0 rref=0
1788536039.108264 [RNG] frames=47344 last=45 min=28 max=170 nrdy=0 dxfer=0 dstat=0 lst=0 nrdyerr=0 dclr=0
1788536039.114397 [DRV] init=0 id=7 mode=0x1 lib=0x2 seq=0x1 odc=0x8b sts=0xe0 armed=1
1788536039.120147 [TRG] pulses=446 suppressed=5622 cyc=1600 rst=1 rstmode=0x40
1788536039.123390 [HLT] polls=946 faults=0x0 cfglost=0
1788536039.129147 [EFF] n=5 last=58533 min=58470 max=58534 late=0 stuck=0 rderr=0
1788536039.139379 [IMU] init=0 addr=0x68 who=0x68 rst=1 pmrb0=0x40 pmrb=0x1 sr=19 cfg=4 gcfg=0x0 acfg=0x8 icfg=0x30 ien=0x1 armed=1
1788536039.145000 [ACC] reads=47323 stale=47276 rderr=22 ax=76 ay=-120 az=1116
1788536039.147620 [PWR] pm=0x1 drift=0 rderr=0
1788536039.151617 [DWT] ok=1 cyc=4014290334 cyc_per_ms=800025
1788536040.166722 [HB] up_ms=1047742 frames=47391 inf=47391 hazard=6068 canary_err=0 q=0 qovr=0
1788536040.178078 [I2C] init=0 gate=0 whoami=0x140e0 wr=0 wrseen=0x27 addr=0x5a ok=288908 err=22 tmo=0 recov=48 pclk1=200000000 sysclk=400000000
1788536040.179449 [NAK] nacks=18
1788536040.184072 [CLK] cpu=800000000 sysb=400000000 pclk1=200000000
1788536040.188694 [TOF] res=0 step=0 id=0xeacc blk=0xeacc10 ctl=0x0
1788536040.194570 [RNG] init=0 step=99 id=0xeacc boot=1 calls=93 xerr=0 dm=1 tb=15
1788536040.201446 [RNG] osc=41 imp=881 imprb=881 mstart=0x40 cfg=91 cfgfail=0x0 vhv=0 vpolls=0
1788536040.207810 [PRT] calls=189685 xerr=0 ler=1 lidx=0x0 perr=0 maxcnt=17 addr8=0x52
1788536040.211814 [RTY] wr=0 wmax=0 wref=0  rd=0 rmax=0 rref=0
1788536040.219681 [RNG] frames=47394 last=44 min=28 max=170 nrdy=0 dxfer=0 dstat=0 lst=0 nrdyerr=0 dclr=0
1788536040.225925 [DRV] init=0 id=7 mode=0x1 lib=0x2 seq=0x1 odc=0x8b sts=0xe0 armed=1
1788536040.231557 [TRG] pulses=446 suppressed=5622 cyc=1600 rst=1 rstmode=0x40
1788536040.234924 [HLT] polls=947 faults=0x0 cfglost=0
1788536040.240665 [EFF] n=5 last=58533 min=58470 max=58534 late=0 stuck=0 rderr=0
1788536040.250790 [IMU] init=0 addr=0x68 who=0x68 rst=1 pmrb0=0x40 pmrb=0x1 sr=19 cfg=4 gcfg=0x0 acfg=0x8 icfg=0x30 ien=0x1 armed=1
1788536040.256539 [ACC] reads=47373 stale=47325 rderr=22 ax=74 ay=-121 az=1112
1788536040.259181 [PWR] pm=0x1 drift=0 rderr=0
1788536040.263032 [DWT] ok=1 cyc=601827778 cyc_per_ms=800094
1788536041.278164 [HB] up_ms=1048845 frames=47441 inf=47441 hazard=6068 canary_err=0 q=0 qovr=0
1788536041.289497 [I2C] init=0 gate=0 whoami=0x140e0 wr=0 wrseen=0x27 addr=0x5a ok=289209 err=23 tmo=0 recov=48 pclk1=200000000 sysclk=400000000
1788536041.290872 [NAK] nacks=19
1788536041.295499 [CLK] cpu=800000000 sysb=400000000 pclk1=200000000
1788536041.300128 [TOF] res=0 step=0 id=0xeacc blk=0xeacc10 ctl=0x0
1788536041.305991 [RNG] init=0 step=99 id=0xeacc boot=1 calls=93 xerr=0 dm=1 tb=15
1788536041.312870 [RNG] osc=41 imp=881 imprb=881 mstart=0x40 cfg=91 cfgfail=0x0 vhv=0 vpolls=0
1788536041.318977 [PRT] calls=189885 xerr=0 ler=1 lidx=0x0 perr=0 maxcnt=17 addr8=0x52
1788536041.323224 [RTY] wr=0 wmax=0 wref=0  rd=0 rmax=0 rref=0
1788536041.331127 [RNG] frames=47444 last=47 min=28 max=170 nrdy=0 dxfer=0 dstat=0 lst=0 nrdyerr=0 dclr=0
1788536041.337413 [DRV] init=0 id=7 mode=0x1 lib=0x2 seq=0x1 odc=0x8b sts=0xe0 armed=1
1788536041.342849 [TRG] pulses=446 suppressed=5622 cyc=1600 rst=1 rstmode=0x40
1788536041.346344 [HLT] polls=948 faults=0x0 cfglost=0
1788536041.352080 [EFF] n=5 last=58533 min=58470 max=58534 late=0 stuck=0 rderr=0
1788536041.362217 [IMU] init=0 addr=0x68 who=0x68 rst=1 pmrb0=0x40 pmrb=0x1 sr=19 cfg=4 gcfg=0x0 acfg=0x8 icfg=0x30 ien=0x1 armed=1
1788536041.367826 [ACC] reads=47422 stale=47375 rderr=23 ax=75 ay=-121 az=1115
1788536041.370465 [PWR] pm=0x1 drift=0 rderr=0
1788536041.374456 [DWT] ok=1 cyc=1484228474 cyc_per_ms=800000
1788536042.389565 [HB] up_ms=1049948 frames=47491 inf=47491 hazard=6079 canary_err=0 q=0 qovr=0
1788536042.400787 [I2C] init=0 gate=0 whoami=0x140e0 wr=0 wrseen=0x27 addr=0x5a ok=289511 err=23 tmo=0 recov=48 pclk1=200000000 sysclk=400000000
1788536042.402309 [NAK] nacks=19
1788536042.406925 [CLK] cpu=800000000 sysb=400000000 pclk1=200000000
1788536042.411537 [TOF] res=0 step=0 id=0xeacc blk=0xeacc10 ctl=0x0
1788536042.417402 [RNG] init=0 step=99 id=0xeacc boot=1 calls=93 xerr=0 dm=1 tb=15
1788536042.424283 [RNG] osc=41 imp=881 imprb=881 mstart=0x40 cfg=91 cfgfail=0x0 vhv=0 vpolls=0
1788536042.430393 [PRT] calls=190085 xerr=0 ler=1 lidx=0x0 perr=0 maxcnt=17 addr8=0x52
1788536042.434642 [RTY] wr=0 wmax=0 wref=0  rd=0 rmax=0 rref=0
1788536042.442518 [RNG] frames=47493 last=42 min=28 max=170 nrdy=0 dxfer=0 dstat=0 lst=0 nrdyerr=0 dclr=0
1788536042.448772 [DRV] init=0 id=7 mode=0x1 lib=0x2 seq=0x1 odc=0x8b sts=0xe0 armed=1
1788536042.454264 [TRG] pulses=447 suppressed=5635 cyc=1600 rst=1 rstmode=0x40
1788536042.457758 [HLT] polls=949 faults=0x0 cfglost=0
1788536042.463513 [EFF] n=5 last=58533 min=58470 max=58534 late=0 stuck=0 rderr=0
1788536042.473629 [IMU] init=0 addr=0x68 who=0x68 rst=1 pmrb0=0x40 pmrb=0x1 sr=19 cfg=4 gcfg=0x0 acfg=0x8 icfg=0x30 ien=0x1 armed=1
1788536042.479150 [ACC] reads=47472 stale=47425 rderr=23 ax=77 ay=-121 az=1113
1788536042.481996 [PWR] pm=0x1 drift=0 rderr=0
1788536042.485995 [DWT] ok=1 cyc=2366635354 cyc_per_ms=800006
1788536043.500984 [HB] up_ms=1051051 frames=47541 inf=47541 hazard=6109 canary_err=0 q=0 qovr=0
1788536043.512353 [I2C] init=0 gate=0 whoami=0x140e0 wr=0 wrseen=0x27 addr=0x5a ok=289809 err=23 tmo=0 recov=48 pclk1=200000000 sysclk=400000000
1788536043.513735 [NAK] nacks=19
1788536043.518337 [CLK] cpu=800000000 sysb=400000000 pclk1=200000000
1788536043.522839 [TOF] res=0 step=0 id=0xeacc blk=0xeacc10 ctl=0x0
1788536043.528834 [RNG] init=0 step=99 id=0xeacc boot=1 calls=93 xerr=0 dm=1 tb=15
1788536043.535703 [RNG] osc=41 imp=881 imprb=881 mstart=0x40 cfg=91 cfgfail=0x0 vhv=0 vpolls=0
1788536043.541953 [PRT] calls=190285 xerr=0 ler=1 lidx=0x0 perr=0 maxcnt=17 addr8=0x52
1788536043.545947 [RTY] wr=0 wmax=0 wref=0  rd=0 rmax=0 rref=0
1788536043.554074 [RNG] frames=47543 last=38 min=28 max=170 nrdy=0 dxfer=0 dstat=0 lst=0 nrdyerr=0 dclr=0
1788536043.560205 [DRV] init=0 id=7 mode=0x1 lib=0x2 seq=0x1 odc=0x8b sts=0xe0 armed=1
1788536043.565688 [TRG] pulses=449 suppressed=5660 cyc=1600 rst=1 rstmode=0x40
1788536043.569077 [HLT] polls=950 faults=0x0 cfglost=0
1788536043.574935 [EFF] n=5 last=58533 min=58470 max=58534 late=0 stuck=0 rderr=0
1788536043.585052 [IMU] init=0 addr=0x68 who=0x68 rst=1 pmrb0=0x40 pmrb=0x1 sr=19 cfg=4 gcfg=0x0 acfg=0x8 icfg=0x30 ien=0x1 armed=1
1788536043.590560 [ACC] reads=47522 stale=47475 rderr=23 ax=77 ay=-121 az=1115
1788536043.593304 [PWR] pm=0x1 drift=0 rderr=0
1788536043.597424 [DWT] ok=1 cyc=3248934840 cyc_per_ms=799908
1788536044.612040 [HB] up_ms=1052154 frames=47591 inf=47591 hazard=6109 canary_err=0 q=0 qovr=0
1788536044.623522 [I2C] init=0 gate=0 whoami=0x140e0 wr=0 wrseen=0x27 addr=0x5a ok=290109 err=23 tmo=0 recov=48 pclk1=200000000 sysclk=400000000
1788536044.624910 [NAK] nacks=19
1788536044.629529 [CLK] cpu=800000000 sysb=400000000 pclk1=200000000
1788536044.634018 [TOF] res=0 step=0 id=0xeacc blk=0xeacc10 ctl=0x0
1788536044.640019 [RNG] init=0 step=99 id=0xeacc boot=1 calls=93 xerr=0 dm=1 tb=15
1788536044.646891 [RNG] osc=41 imp=881 imprb=881 mstart=0x40 cfg=91 cfgfail=0x0 vhv=0 vpolls=0
1788536044.653162 [PRT] calls=190485 xerr=0 ler=1 lidx=0x0 perr=0 maxcnt=17 addr8=0x52
1788536044.657159 [RTY] wr=0 wmax=0 wref=0  rd=0 rmax=0 rref=0
1788536044.665254 [RNG] frames=47593 last=46 min=28 max=170 nrdy=0 dxfer=0 dstat=0 lst=0 nrdyerr=0 dclr=0
1788536044.671385 [DRV] init=0 id=7 mode=0x1 lib=0x2 seq=0x1 odc=0x8b sts=0xe0 armed=1
1788536044.676878 [TRG] pulses=449 suppressed=5660 cyc=1600 rst=1 rstmode=0x40
1788536044.680262 [HLT] polls=951 faults=0x0 cfglost=0
1788536044.686150 [EFF] n=5 last=58533 min=58470 max=58534 late=0 stuck=0 rderr=0
1788536044.696245 [IMU] init=0 addr=0x68 who=0x68 rst=1 pmrb0=0x40 pmrb=0x1 sr=19 cfg=4 gcfg=0x0 acfg=0x8 icfg=0x30 ien=0x1 armed=1
1788536044.701755 [ACC] reads=47572 stale=47525 rderr=23 ax=75 ay=-119 az=1115
1788536044.704490 [PWR] pm=0x1 drift=0 rderr=0
1788536044.708621 [DWT] ok=1 cyc=4131294658 cyc_per_ms=799963
1788536045.723609 [HB] up_ms=1053257 frames=47641 inf=47641 hazard=6109 canary_err=0 q=0 qovr=0
1788536045.735115 [I2C] init=0 gate=0 whoami=0x140e0 wr=0 wrseen=0x27 addr=0x5a ok=290411 err=23 tmo=0 recov=48 pclk1=200000000 sysclk=400000000
1788536045.736469 [NAK] nacks=19
1788536045.741120 [CLK] cpu=800000000 sysb=400000000 pclk1=200000000
1788536045.745607 [TOF] res=0 step=0 id=0xeacc blk=0xeacc10 ctl=0x0
1788536045.751609 [RNG] init=0 step=99 id=0xeacc boot=1 calls=93 xerr=0 dm=1 tb=15
1788536045.758479 [RNG] osc=41 imp=881 imprb=881 mstart=0x40 cfg=91 cfgfail=0x0 vhv=0 vpolls=0
1788536045.764729 [PRT] calls=190685 xerr=0 ler=1 lidx=0x0 perr=0 maxcnt=17 addr8=0x52
1788536045.768729 [RTY] wr=0 wmax=0 wref=0  rd=0 rmax=0 rref=0
1788536045.776871 [RNG] frames=47643 last=37 min=28 max=170 nrdy=0 dxfer=0 dstat=0 lst=0 nrdyerr=0 dclr=0
1788536045.782996 [DRV] init=0 id=7 mode=0x1 lib=0x2 seq=0x1 odc=0x8b sts=0xe0 armed=1
1788536045.788545 [TRG] pulses=449 suppressed=5660 cyc=1600 rst=1 rstmode=0x40
1788536045.791862 [HLT] polls=952 faults=0x0 cfglost=0
1788536045.797615 [EFF] n=5 last=58533 min=58470 max=58534 late=0 stuck=0 rderr=0
1788536045.807875 [IMU] init=0 addr=0x68 who=0x68 rst=1 pmrb0=0x40 pmrb=0x1 sr=19 cfg=4 gcfg=0x0 acfg=0x8 icfg=0x30 ien=0x1 armed=1
1788536045.813376 [ACC] reads=47622 stale=47575 rderr=23 ax=75 ay=-120 az=1114
1788536045.815989 [PWR] pm=0x1 drift=0 rderr=0
1788536045.819988 [DWT] ok=1 cyc=718727678 cyc_per_ms=800000
1788536046.840310 [HB] up_ms=1054360 frames=47691 inf=47691 hazard=6109 canary_err=0 q=0 qovr=0
1788536046.851890 [I2C] init=0 gate=0 whoami=0x140e0 wr=0 wrseen=0x27 addr=0x5a ok=290713 err=23 tmo=0 recov=48 pclk1=200000000 sysclk=400000000
1788536046.853261 [NAK] nacks=19
1788536046.857893 [CLK] cpu=800000000 sysb=400000000 pclk1=200000000
1788536046.862432 [TOF] res=0 step=0 id=0xeacc blk=0xeacc10 ctl=0x0
1788536046.868341 [RNG] init=0 step=99 id=0xeacc boot=1 calls=93 xerr=0 dm=1 tb=15
1788536046.875378 [RNG] osc=41 imp=881 imprb=881 mstart=0x40 cfg=91 cfgfail=0x0 vhv=0 vpolls=0
1788536046.881546 [PRT] calls=190885 xerr=0 ler=1 lidx=0x0 perr=0 maxcnt=17 addr8=0x52
1788536046.885703 [RTY] wr=0 wmax=0 wref=0  rd=0 rmax=0 rref=0
1788536046.893731 [RNG] frames=47693 last=43 min=28 max=170 nrdy=0 dxfer=0 dstat=0 lst=0 nrdyerr=0 dclr=0
1788536046.900016 [DRV] init=0 id=7 mode=0x1 lib=0x2 seq=0x1 odc=0x8b sts=0xe0 armed=1
1788536046.905551 [TRG] pulses=449 suppressed=5660 cyc=1600 rst=1 rstmode=0x40
1788536046.908817 [HLT] polls=953 faults=0x0 cfglost=0
1788536046.914758 [EFF] n=5 last=58533 min=58470 max=58534 late=0 stuck=0 rderr=0
1788536046.925053 [IMU] init=0 addr=0x68 who=0x68 rst=1 pmrb0=0x40 pmrb=0x1 sr=19 cfg=4 gcfg=0x0 acfg=0x8 icfg=0x30 ien=0x1 armed=1
1788536046.930586 [ACC] reads=47672 stale=47625 rderr=23 ax=75 ay=-121 az=1115
1788536046.933219 [PWR] pm=0x1 drift=0 rderr=0
1788536046.937232 [DWT] ok=1 cyc=1601127510 cyc_per_ms=799999
1788536047.958137 [HB] up_ms=1055463 frames=47741 inf=47741 hazard=6109 canary_err=0 q=0 qovr=0
1788536047.969693 [I2C] init=0 gate=0 whoami=0x140e0 wr=0 wrseen=0x27 addr=0x5a ok=291015 err=23 tmo=0 recov=48 pclk1=200000000 sysclk=400000000
1788536047.971063 [NAK] nacks=19
1788536047.975710 [CLK] cpu=800000000 sysb=400000000 pclk1=200000000
1788536047.980238 [TOF] res=0 step=0 id=0xeacc blk=0xeacc10 ctl=0x0
1788536047.986175 [RNG] init=0 step=99 id=0xeacc boot=1 calls=93 xerr=0 dm=1 tb=15
1788536047.993191 [RNG] osc=41 imp=881 imprb=881 mstart=0x40 cfg=91 cfgfail=0x0 vhv=0 vpolls=0
1788536047.999472 [PRT] calls=191085 xerr=0 ler=1 lidx=0x0 perr=0 maxcnt=17 addr8=0x52
1788536048.003489 [RTY] wr=0 wmax=0 wref=0  rd=0 rmax=0 rref=0
1788536048.011536 [RNG] frames=47743 last=43 min=28 max=170 nrdy=0 dxfer=0 dstat=0 lst=0 nrdyerr=0 dclr=0
1788536048.017810 [DRV] init=0 id=7 mode=0x1 lib=0x2 seq=0x1 odc=0x8b sts=0xe0 armed=1
1788536048.023349 [TRG] pulses=449 suppressed=5660 cyc=1600 rst=1 rstmode=0x40
1788536048.026741 [HLT] polls=954 faults=0x0 cfglost=0
1788536048.032515 [EFF] n=5 last=58533 min=58470 max=58534 late=0 stuck=0 rderr=0
1788536048.042942 [IMU] init=0 addr=0x68 who=0x68 rst=1 pmrb0=0x40 pmrb=0x1 sr=19 cfg=4 gcfg=0x0 acfg=0x8 icfg=0x30 ien=0x1 armed=1
1788536048.048486 [ACC] reads=47722 stale=47674 rderr=23 ax=75 ay=-120 az=1113
1788536048.051134 [PWR] pm=0x1 drift=0 rderr=0
1788536048.055158 [DWT] ok=1 cyc=2483527562 cyc_per_ms=800000
1788536049.075160 [HB] up_ms=1056566 frames=47791 inf=47791 hazard=6109 canary_err=0 q=0 qovr=0
1788536049.086558 [I2C] init=0 gate=0 whoami=0x140e0 wr=0 wrseen=0x27 addr=0x5a ok=291317 err=23 tmo=0 recov=48 pclk1=200000000 sysclk=400000000
1788536049.088064 [NAK] nacks=19
1788536049.092583 [CLK] cpu=800000000 sysb=400000000 pclk1=200000000
1788536049.097131 [TOF] res=0 step=0 id=0xeacc blk=0xeacc10 ctl=0x0
1788536049.103010 [RNG] init=0 step=99 id=0xeacc boot=1 calls=93 xerr=0 dm=1 tb=15
1788536049.110197 [RNG] osc=41 imp=881 imprb=881 mstart=0x40 cfg=91 cfgfail=0x0 vhv=0 vpolls=0
1788536049.116325 [PRT] calls=191285 xerr=0 ler=1 lidx=0x0 perr=0 maxcnt=17 addr8=0x52
1788536049.120488 [RTY] wr=0 wmax=0 wref=0  rd=0 rmax=0 rref=0
1788536049.128389 [RNG] frames=47793 last=36 min=28 max=170 nrdy=0 dxfer=0 dstat=0 lst=0 nrdyerr=0 dclr=0
1788536049.134663 [DRV] init=0 id=7 mode=0x1 lib=0x2 seq=0x1 odc=0x8b sts=0xe0 armed=1
1788536049.140198 [TRG] pulses=449 suppressed=5660 cyc=1600 rst=1 rstmode=0x40
1788536049.143584 [HLT] polls=955 faults=0x0 cfglost=0
1788536049.149359 [EFF] n=5 last=58533 min=58470 max=58534 late=0 stuck=0 rderr=0
1788536049.159660 [IMU] init=0 addr=0x68 who=0x68 rst=1 pmrb0=0x40 pmrb=0x1 sr=19 cfg=4 gcfg=0x0 acfg=0x8 icfg=0x30 ien=0x1 armed=1
1788536049.165197 [ACC] reads=47772 stale=47724 rderr=23 ax=73 ay=-122 az=1114
1788536049.167828 [PWR] pm=0x1 drift=0 rderr=0
1788536049.171855 [DWT] ok=1 cyc=3365927462 cyc_per_ms=799999
1788536050.191368 [HB] up_ms=1057669 frames=47841 inf=47841 hazard=6150 canary_err=0 q=0 qovr=0
1788536050.202841 [I2C] init=0 gate=0 whoami=0x140e0 wr=0 wrseen=0x27 addr=0x5a ok=291619 err=23 tmo=0 recov=48 pclk1=200000000 sysclk=400000000
1788536050.204315 [NAK] nacks=19
1788536050.208829 [CLK] cpu=800000000 sysb=400000000 pclk1=200000000
1788536050.213524 [TOF] res=0 step=0 id=0xeacc blk=0xeacc10 ctl=0x0
1788536050.219262 [RNG] init=0 step=99 id=0xeacc boot=1 calls=93 xerr=0 dm=1 tb=15
1788536050.226485 [RNG] osc=41 imp=881 imprb=881 mstart=0x40 cfg=91 cfgfail=0x0 vhv=0 vpolls=0
1788536050.232563 [PRT] calls=191485 xerr=0 ler=1 lidx=0x0 perr=0 maxcnt=17 addr8=0x52
1788536050.236711 [RTY] wr=0 wmax=0 wref=0  rd=0 rmax=0 rref=0
1788536050.244616 [RNG] frames=47843 last=33 min=28 max=170 nrdy=0 dxfer=0 dstat=0 lst=0 nrdyerr=0 dclr=0
1788536050.251019 [DRV] init=0 id=7 mode=0x1 lib=0x2 seq=0x1 odc=0x8b sts=0xe0 armed=1
1788536050.256443 [TRG] pulses=452 suppressed=5698 cyc=1600 rst=1 rstmode=0x40
1788536050.259814 [HLT] polls=956 faults=0x0 cfglost=0
1788536050.265594 [EFF] n=5 last=58533 min=58470 max=58534 late=0 stuck=0 rderr=0
1788536050.276013 [IMU] init=0 addr=0x68 who=0x68 rst=1 pmrb0=0x40 pmrb=0x1 sr=19 cfg=4 gcfg=0x0 acfg=0x8 icfg=0x30 ien=0x1 armed=1
1788536050.281546 [ACC] reads=47822 stale=47774 rderr=23 ax=88 ay=-138 az=1122
1788536050.284198 [PWR] pm=0x1 drift=0 rderr=0
1788536050.288205 [DWT] ok=1 cyc=4248327466 cyc_per_ms=800000
1788536051.308038 [HB] up_ms=1058772 frames=47891 inf=47891 hazard=6150 canary_err=0 q=0 qovr=0
1788536051.319447 [I2C] init=0 gate=0 whoami=0x140e0 wr=0 wrseen=0x27 addr=0x5a ok=291921 err=23 tmo=0 recov=48 pclk1=200000000 sysclk=400000000
1788536051.320976 [NAK] nacks=19
1788536051.325609 [CLK] cpu=800000000 sysb=400000000 pclk1=200000000
1788536051.330143 [TOF] res=0 step=0 id=0xeacc blk=0xeacc10 ctl=0x0
1788536051.335940 [RNG] init=0 step=99 id=0xeacc boot=1 calls=93 xerr=0 dm=1 tb=15
1788536051.343056 [RNG] osc=41 imp=881 imprb=881 mstart=0x40 cfg=91 cfgfail=0x0 vhv=0 vpolls=0
1788536051.349215 [PRT] calls=191685 xerr=0 ler=1 lidx=0x0 perr=0 maxcnt=17 addr8=0x52
1788536051.353344 [RTY] wr=0 wmax=0 wref=0  rd=0 rmax=0 rref=0
1788536051.361250 [RNG] frames=47893 last=44 min=28 max=170 nrdy=0 dxfer=0 dstat=0 lst=0 nrdyerr=0 dclr=0
1788536051.367532 [DRV] init=0 id=7 mode=0x1 lib=0x2 seq=0x1 odc=0x8b sts=0xe0 armed=1
1788536051.373050 [TRG] pulses=452 suppressed=5698 cyc=1600 rst=1 rstmode=0x40
1788536051.376451 [HLT] polls=957 faults=0x0 cfglost=0
1788536051.382221 [EFF] n=5 last=58533 min=58470 max=58534 late=0 stuck=0 rderr=0
1788536051.392651 [IMU] init=0 addr=0x68 who=0x68 rst=1 pmrb0=0x40 pmrb=0x1 sr=19 cfg=4 gcfg=0x0 acfg=0x8 icfg=0x30 ien=0x1 armed=1
1788536051.398209 [ACC] reads=47872 stale=47824 rderr=23 ax=76 ay=-119 az=1114
1788536051.400792 [PWR] pm=0x1 drift=0 rderr=0
1788536051.404692 [DWT] ok=1 cyc=835759990 cyc_per_ms=799999
1788536052.424095 [HB] up_ms=1059875 frames=47941 inf=47941 hazard=6150 canary_err=0 q=0 qovr=0
1788536052.435629 [I2C] init=0 gate=0 whoami=0x140e0 wr=0 wrseen=0x27 addr=0x5a ok=292223 err=23 tmo=0 recov=48 pclk1=200000000 sysclk=400000000
1788536052.437006 [NAK] nacks=19
1788536052.441654 [CLK] cpu=800000000 sysb=400000000 pclk1=200000000
1788536052.446206 [TOF] res=0 step=0 id=0xeacc blk=0xeacc10 ctl=0x0
